# Hz S RI R 50
28000000	-0.26285976	0.437506624
28004250	-0.26219592	0.437470144
28008500	-0.25943592	0.439411712
28012750	-0.253327104	0.443370912
28017000	-0.257369456	0.440280096
28021250	-0.25444368	0.443014112
28025500	-0.252355808	0.444543552
28029750	-0.251692688	0.4439088
28034000	-0.246913536	0.447290624
28038250	-0.248449184	0.446509152
28042500	-0.245904816	0.44774816
28046750	-0.238473936	0.451127264
28051000	-0.243388512	0.449193632
28055250	-0.240659616	0.450900256
28059500	-0.233431968	0.454753504
28063750	-0.238403824	0.451755072
28068000	-0.235304848	0.454016512
28072250	-0.23114408	0.45669968
28076500	-0.233029872	0.454908928
28080750	-0.229405232	0.457823584
28085000	-0.2289044	0.457828704
28089250	-0.226986208	0.458316608
28093500	-0.22028208	0.461268352
28097750	-0.223913952	0.4602016
28102000	-0.221188768	0.461501888
28106250	-0.213713072	0.464831328
28110500	-0.218748624	0.462398336
28114750	-0.2156124	0.464331808
28119000	-0.209391616	0.467521792
28123250	-0.213419232	0.465314816
28127500	-0.210153712	0.46762176
28131750	-0.208046512	0.46869584
28136000	-0.207750576	0.46794512
28140250	-0.2024584	0.47086992
28144500	-0.203790416	0.470450848
28148750	-0.20109696	0.471309152
28153000	-0.193517472	0.473849344
28157250	-0.19871632	0.472273056
28161500	-0.195710784	0.474066656
28165750	-0.188149088	0.4769376
28170000	-0.193127088	0.474696096
28174250	-0.189969024	0.476563744
28178500	-0.185570768	0.478607136
28182750	-0.187809008	0.477086976
28187000	-0.183837568	0.479717504
28191250	-0.183051264	0.479813472
28195500	-0.181008032	0.48010304
28199750	-0.174440928	0.482337088
28204000	-0.178015008	0.481338752
28208250	-0.1749852	0.48271632
28212500	-0.167318176	0.485200672
28216750	-0.172439088	0.483444864
28221000	-0.16931552	0.484949952
28225250	-0.16278496	0.487408576
28229500	-0.167033728	0.485357408
28233750	-0.1634428	0.48756224
28238000	-0.161264096	0.488446528
28242250	-0.160626576	0.487949152
28246500	-0.155115744	0.489805088
28250750	-0.156855296	0.489441504
28255000	-0.154062288	0.490493376
28259250	-0.146204592	0.49216912
28263500	-0.151267024	0.491255808
28267750	-0.14828352	0.492564544
28272000	-0.14049424	0.494771712
28276250	-0.145733008	0.4928744
28280500	-0.142293104	0.494653504
28284750	-0.137692416	0.496171584
28289000	-0.139646192	0.494924064
28293250	-0.135806944	0.497037504
28297500	-0.135075776	0.496902688
28301750	-0.132998304	0.4970768
28306000	-0.125737224	0.498543328
28310250	-0.129539864	0.498150304
28314500	-0.126658368	0.499132832
28318750	-0.118820776	0.500905024
28323000	-0.1240672	0.499421632
28327250	-0.120693416	0.500850272
28331500	-0.11417392	0.502582304
28335750	-0.118064024	0.501042848
28340000	-0.114461904	0.502807264
28344250	-0.11222076	0.50328368
28348500	-0.111922448	0.502686976
28352750	-0.106054456	0.504408704
28357000	-0.10745988	0.504204288
28361250	-0.104733576	0.504713056
28365500	-0.096743896	0.50568272
28369750	-0.102095136	0.505008864
28374000	-0.098682648	0.506251584
28378250	-0.090863584	0.507742944
28382500	-0.096097528	0.506377632
28386750	-0.092636752	0.50774704
28391000	-0.088034288	0.508639584
28395250	-0.090236232	0.507474656
28399500	-0.085672568	0.50934
28403750	-0.085080208	0.509248608
28408000	-0.082932416	0.509324736
28412250	-0.076033376	0.509923328
28416500	-0.079806392	0.509647488
28420750	-0.076345536	0.510712192
28425000	-0.06859076	0.511482656
28429250	-0.073850584	0.510742592
28433500	-0.070403888	0.51175808
28437750	-0.0636094	0.512640832
28442000	-0.0680114	0.511424256
28446250	-0.063976588	0.513082816
28450500	-0.061690832	0.513393632
28454750	-0.060987472	0.512718688
28459000	-0.055096792	0.51353456
28463250	-0.057333684	0.5136088
28467500	-0.053989272	0.514050528
28471750	-0.04604674	0.514116096
28476000	-0.05121092	0.514087968
28480250	-0.047931416	0.514805024
28484500	-0.039900176	0.51550336
28488750	-0.045433916	0.51438368
28493000	-0.041624896	0.515646944
28497250	-0.037037288	0.516127296
28501500	-0.038946552	0.515302112
28505750	-0.034525816	0.516740512
28510000	-0.034045416	0.516210016
28514250	-0.031886876	0.516071264
28518500	-0.024785046	0.516258784
28522750	-0.028263298	0.516375488
28527000	-0.02507065	0.516945792
28531250	-0.017201234	0.517159104
28535500	-0.022740336	0.516401696
28539750	-0.018985236	0.51738976
28544000	-0.012168417	0.517744544
28548250	-0.016391546	0.516806368
28552500	-0.01243628	0.518107232
28556750	-0.010326389	0.5179112
28561000	-0.009853649	0.517175424
28565250	-0.003710103	0.517616096
28569500	-0.005301071	0.517711168
28573750	-0.002289785	0.51796896
28578000	0.005603975	0.517077216
28582250	0.000306792	0.517414336
28586500	0.003964666	0.518184608
28590750	0.011814102	0.518086784
28595000	0.00631393	0.51754368
28599250	0.010256148	0.518303648
28603500	0.014787009	0.51817328
28607750	0.01245861	0.517299008
28612000	0.017593276	0.518432448
28616250	0.01787758	0.518160032
28620500	0.020156966	0.517772544
28624750	0.027289194	0.516953216
28629000	0.023157224	0.517521856
28633250	0.0268691	0.517913408
28637500	0.034753508	0.517219424
28641750	0.02922896	0.517013248
28646000	0.032906544	0.517782624
28650250	0.039583576	0.51735056
28654500	0.035196556	0.516671488
28658750	0.039637064	0.517621408
28663000	0.041658816	0.517252256
28667250	0.04243228	0.516606144
28671500	0.048420292	0.51624112
28675750	0.046289076	0.516357952
28680000	0.049680268	0.516411488
28684250	0.0576468	0.514780416
28688500	0.0523563	0.515654432
28692750	0.055871708	0.516084064
28697000	0.063901924	0.515264288
28701250	0.058077576	0.514770752
28705500	0.062181328	0.515630592
28709750	0.06667568	0.51510864
28714000	0.06462936	0.514580064
28718250	0.069375488	0.515101088
28722500	0.06945408	0.514446016
28726750	0.071862456	0.514003104
28731000	0.079163792	0.512391808
28735250	0.075307824	0.51331712
28739500	0.078755288	0.51344944
28743750	0.086734992	0.51199616
28748000	0.080750416	0.512169664
28752250	0.085007952	0.512600416
28756500	0.091522744	0.511592512
28760750	0.0870676	0.511345504
28765000	0.0915192	0.511822656
28769250	0.093292568	0.511222528
28773500	0.0938264	0.510406208
28777750	0.100337624	0.509347008
28782000	0.098203904	0.509958144
28786250	0.101330968	0.50972736
28790500	0.109307248	0.50715424
28794750	0.103512552	0.508372352
28799000	0.107666832	0.508492704
28803250	0.115641936	0.506971168
28807500	0.109682712	0.507210624
28811750	0.113895608	0.50750912
28816000	0.118177872	0.506468704
28820250	0.115622128	0.505808352
28824500	0.120985968	0.506141056
28828750	0.121065136	0.505279648
28833000	0.123645384	0.504936032
28837250	0.13049832	0.502463232
28841500	0.12623504	0.503758432
28845750	0.130256344	0.503546304
28850000	0.138126992	0.501339008
28854250	0.132128344	0.502120672
28858500	0.136266848	0.502196608
28862750	0.14283152	0.500450624
28867000	0.13788536	0.500609088
28871250	0.142690656	0.5007592
28875500	0.144374768	0.49983056
28879750	0.145125872	0.499128544
28884000	0.151038528	0.497277632
28888250	0.14862912	0.498112
28892500	0.152413584	0.497396576
28896750	0.159951184	0.494078048
28901000	0.154503888	0.496181504
28905250	0.158498032	0.495820416
28909500	0.16640472	0.493265312
28913750	0.160000992	0.494116352
28918000	0.164625344	0.493899232
28922250	0.168735408	0.492538816
28926500	0.166482784	0.49233056
28930750	0.171793856	0.491729952
28935000	0.171135808	0.491266976
28939250	0.173584992	0.490294208
28943500	0.180777312	0.487110496
28947750	0.176596608	0.488901696
28952000	0.1804444	0.488477472
28956250	0.188187696	0.485382784
28960500	0.181783776	0.486846624
28964750	0.186470224	0.486416544
28969000	0.192715744	0.484020736
28973250	0.18767872	0.484750784
28977500	0.192717776	0.48431984
28981750	0.193861936	0.483242016
28986000	0.194259312	0.482358688
28990250	0.20078272	0.48001312
28994500	0.19847216	0.480848768
28998750	0.201968032	0.48003728
29003000	0.209331472	0.47578384
29007250	0.203388096	0.478417088
29011500	0.207982176	0.477682048
29015750	0.215773968	0.474440224
29020000	0.209236272	0.4760864
29024250	0.213794032	0.475467424
29028500	0.21774672	0.473512864
29032750	0.21474376	0.473577792
29037000	0.220415072	0.472503904
29041250	0.220044704	0.471849856
29045500	0.222715728	0.470960192
29049750	0.229163968	0.466828864
29054000	0.22492416	0.469328864
29058250	0.229126896	0.46828656
29062500	0.23674688	0.464270432
29066750	0.230319776	0.466312736
29071000	0.234797088	0.46558
29075250	0.240896896	0.462177344
29079500	0.235531088	0.463574304
29083750	0.2408644	0.46271056
29088000	0.241951376	0.46156464
29092250	0.242628448	0.460786624
29096500	0.248520688	0.457220416
29100750	0.24579808	0.45883952
29105000	0.249835328	0.457529664
29109250	0.256860944	0.45272592
29113500	0.251003776	0.455856256
29117750	0.25541464	0.454787488
29122000	0.263074192	0.450241504
29126250	0.255974032	0.452843424
29130500	0.261007104	0.451692064
29134750	0.264623024	0.449321824
29139000	0.262230608	0.449768736
29143250	0.267618352	0.44796784
29147500	0.266567968	0.447520128
29151750	0.269051936	0.446109312
29156000	0.275729152	0.440764608
29160250	0.2715008	0.44440656
29164500	0.275457888	0.442908512
29168750	0.283004448	0.437882368
29173000	0.27618528	0.4410856
29177250	0.280979232	0.439541088
29181500	0.286966336	0.435817376
29185750	0.281589248	0.4376952
29190000	0.28681088	0.436243584
29194250	0.287398848	0.43514208
29198500	0.287801984	0.434072576
29202750	0.29362464	0.429910144
29207000	0.291347232	0.431838656
29211250	0.295005728	0.430202816
29215500	0.30155216	0.424011616
29219750	0.29569584	0.428385984
29224000	0.300351264	0.426500704
29228250	0.307885984	0.421141952
29232500	0.300905536	0.424750016
29236750	0.305967168	0.42303536
29241000	0.309249216	0.420172352
29245250	0.30602096	0.421210144
29249500	0.311979392	0.418343296
29253750	0.310903616	0.418417472
29258000	0.313629504	0.416669728
29262250	0.319187808	0.410820704
29266500	0.314975328	0.414790112
29270750	0.319289504	0.412597152
29275000	0.326312864	0.406711616
29279250	0.319845856	0.411044672
29283500	0.3245416	0.409002112
29287750	0.32984032	0.404243456
29292000	0.324418144	0.407120032
29296250	0.32986704	0.40484272
29300500	0.330391488	0.40379712
29304750	0.331071456	0.402591264
29309000	0.339787456	0.395561536
29313250	0.332838208	0.400329856
29317500	0.337649568	0.39792432
29321750	0.343041216	0.393017728
29326000	0.3378496	0.39609936
29330250	0.3431512	0.393742912
29334500	0.343318816	0.39270784
29338750	0.343776992	0.391570912
29343000	0.349034592	0.38583168
29347250	0.346794816	0.388998336
29351500	0.35049968	0.386555936
29355750	0.356031488	0.379114976
29360000	0.350744576	0.38486592
29364250	0.355220448	0.382271936
29368500	0.361941568	0.375296896
29372750	0.355448224	0.380686272
29377000	0.360259008	0.377918976
29381250	0.362748704	0.374719392
29385500	0.35996624	0.376301408
29389750	0.365714848	0.372393504
29394000	0.364352512	0.372728608
29398250	0.367016032	0.370523296
29402500	0.371830528	0.363210656
29406750	0.367962528	0.368614688
29411000	0.37218	0.36567168
29415250	0.378630048	0.358317152
29419500	0.372243008	0.364067232
29423750	0.376716928	0.361353184
29428000	0.381359552	0.355713216
29432250	0.37623104	0.35969104
29436500	0.381565056	0.35649696
29440750	0.38167824	0.355406976
29445000	0.3825088	0.354184032
29449250	0.386676704	0.347854848
29453500	0.384562816	0.351399616
29457750	0.388140576	0.348334656
29462000	0.39308384	0.340020672
29466250	0.388413152	0.346927488
29470500	0.392666208	0.343587328
29474750	0.398506912	0.335580608
29479000	0.39206848	0.342272
29483250	0.39711792	0.3387184
29487500	0.399326176	0.335216448
29491750	0.397198688	0.336953056
29496000	0.40186976	0.332267264
29500250	0.400530432	0.333409536
29504500	0.402728832	0.330887808
29508750	0.406684832	0.32268112
29513000	0.403974144	0.32873168
29517250	0.407714464	0.325289888
29521500	0.41312688	0.316705408
29525750	0.407181504	0.324127168
29530000	0.411753248	0.32040368
29534250	0.415846336	0.31412208
29538500	0.411396928	0.319030624
29542750	0.416176672	0.3148472
29547000	0.415930112	0.31412976
29551250	0.416217664	0.313018176
29555500	0.420098144	0.30575072
29559750	0.41865568	0.309790912
29564000	0.421969632	0.3063096
29568250	0.425571712	0.29696096
29572500	0.421530432	0.305089664
29576750	0.425676448	0.300965792
29581000	0.430625568	0.291949408
29585250	0.425373504	0.299807744
29589500	0.429746752	0.295492416
29593750	0.431296224	0.292116224
29598000	0.429129952	0.294543136
29602250	0.433701792	0.288652672
29606500	0.432552992	0.289919552
29610750	0.43490784	0.286987392
29615000	0.437569376	0.278016896
29619250	0.435074528	0.285185088
29623500	0.438788288	0.281032544
29627750	0.443180672	0.271293728
29632000	0.438584672	0.279931616
29636250	0.442352896	0.275485248
29640500	0.445415616	0.268495648
29644750	0.441493216	0.274757408
29649000	0.446231136	0.269761728
29653250	0.445993792	0.269140928
29657500	0.44671344	0.267499808
29661750	0.448687648	0.25987896
29666000	0.447831584	0.264746016
29670250	0.450924064	0.260513008
29674500	0.453368992	0.250562944
29678750	0.450795392	0.259335904
29683000	0.454376544	0.254778864
29687250	0.457792416	0.245000704
29691500	0.453541248	0.254042448
29695750	0.45755376	0.249033824
29700000	0.458765312	0.245201648
