# Hz S RI R 50
24890000	0.13584672	-0.427961056
24890250	0.131504344	-0.42387616
24890500	0.134721248	-0.429547328
24890750	0.137743456	-0.419849184
24891000	0.131849496	-0.424223872
24891250	0.1362748	-0.426007392
24891500	0.136926256	-0.420807552
24891750	0.132239344	-0.424117888
24892000	0.137623392	-0.421569888
24892250	0.133002016	-0.423162688
24892500	0.132932144	-0.427471776
24892750	0.13723024	-0.42088704
24893000	0.130278904	-0.424346816
24893250	0.133476216	-0.429752256
24893500	0.1367336	-0.420328672
24893750	0.130508808	-0.4246072
24894000	0.13414204	-0.42869504
24894250	0.13636008	-0.42058544
24894500	0.130384552	-0.42455152
24894750	0.135900144	-0.42385856
24895000	0.13414264	-0.422152192
24895250	0.13149804	-0.426233888
24895500	0.136191808	-0.42169552
24895750	0.128904984	-0.42491152
24896000	0.131757456	-0.430254496
24896250	0.135536928	-0.42104784
24896500	0.129228248	-0.425140256
24896750	0.132328976	-0.430245248
24897000	0.135316288	-0.421101568
24897250	0.128952232	-0.425038592
24897500	0.133734568	-0.42715088
24897750	0.134826928	-0.421253504
24898000	0.130099656	-0.425321472
24898250	0.135108288	-0.422842368
24898500	0.129592296	-0.424575296
24898750	0.130328192	-0.428926016
24899000	0.134540816	-0.42176272
24899250	0.127819968	-0.425325504
24899500	0.130737128	-0.430624256
24899750	0.13422384	-0.421548064
24900000	0.12771328	-0.425560128
24900250	0.131339744	-0.430086848
24900500	0.133786544	-0.421430048
24900750	0.128089648	-0.425622368
24901000	0.133394808	-0.424874048
24901250	0.130796832	-0.423700448
24901500	0.128678648	-0.427140896
24901750	0.133531272	-0.42246832
24902000	0.12709008	-0.425672928
24902250	0.129115568	-0.430751424
24902500	0.133058328	-0.422205792
24902750	0.126438008	-0.425877312
24903000	0.12963736	-0.431370976
24903250	0.132794824	-0.421868512
24903500	0.126761752	-0.426109056
24903750	0.131269368	-0.428109504
24904000	0.132086608	-0.422762592
24904250	0.127287032	-0.425844736
24904500	0.132591096	-0.423549888
24904750	0.128204752	-0.424990624
24905000	0.127734664	-0.429244096
24905250	0.132100744	-0.422907264
24905500	0.124946608	-0.426174368
24905750	0.128099056	-0.43170416
24906000	0.131538256	-0.422499136
24906250	0.125291672	-0.426473632
24906500	0.128805056	-0.430816608
24906750	0.131412328	-0.422754592
24907000	0.125301064	-0.426406944
24907250	0.130888728	-0.426028
24907500	0.129418088	-0.424066848
24907750	0.126304912	-0.428256384
24908000	0.131167368	-0.423741248
24908250	0.123935512	-0.426639456
24908500	0.126663376	-0.431908224
24908750	0.130572392	-0.422942432
24909000	0.124020464	-0.426916896
24909250	0.12705508	-0.432174624
24909500	0.130320936	-0.423083808
24909750	0.123833888	-0.426846688
24910000	0.128625144	-0.429186144
24910250	0.129669264	-0.423260096
24910500	0.1246934	-0.426918016
24910750	0.129966888	-0.4248056
24911000	0.124667256	-0.426407712
24911250	0.125157984	-0.430511776
24911500	0.129529048	-0.42371424
24911750	0.122715536	-0.427201536
24912000	0.125645504	-0.432431936
24912250	0.129166424	-0.423526336
24912500	0.122580728	-0.427305056
24912750	0.126274872	-0.432019136
24913000	0.128882232	-0.423332992
24913250	0.123062568	-0.427336896
24913500	0.128387408	-0.427069536
24913750	0.125979856	-0.425518752
24914000	0.123706568	-0.428761408
24914250	0.128591728	-0.42449008
24914500	0.12225848	-0.427394208
24914750	0.124108592	-0.432326272
24915000	0.128044056	-0.424166432
24915250	0.121361328	-0.42749872
24915500	0.12452876	-0.433263232
24915750	0.127728088	-0.423882176
24916000	0.121615568	-0.427820544
24916250	0.126072336	-0.4301128
24916500	0.127236072	-0.424702656
24916750	0.122155104	-0.427634368
24917000	0.12751912	-0.4256352
24917250	0.123245376	-0.4267592
24917500	0.122854456	-0.430938528
24917750	0.12715392	-0.424777216
24918000	0.119996416	-0.427923424
24918250	0.123063448	-0.433500096
24918500	0.126512368	-0.424344704
24918750	0.120288288	-0.428182176
24919000	0.123674096	-0.432673184
24919250	0.126355144	-0.42453968
24919500	0.12020316	-0.428106624
24919750	0.125644656	-0.428089824
24920000	0.124483848	-0.425772384
24920250	0.120994704	-0.429708224
24920500	0.12598588	-0.425637728
24920750	0.118950728	-0.428310016
24921000	0.121504816	-0.433689984
24921250	0.12558152	-0.425062592
24921500	0.118917248	-0.428570304
24921750	0.121929176	-0.434070112
24922000	0.125432704	-0.42508768
24922250	0.118795368	-0.428665568
24922500	0.123541352	-0.43126976
24922750	0.124758568	-0.425183744
24923000	0.11969556	-0.42866512
24923250	0.125123976	-0.426778272
24923500	0.119738296	-0.428135168
24923750	0.120088064	-0.432033568
24924000	0.12446224	-0.425700384
24924250	0.117541496	-0.428874912
24924500	0.120393416	-0.434242592
24924750	0.124219048	-0.4256024
24925000	0.11748908	-0.429030016
24925250	0.120917416	-0.434084992
24925500	0.123898544	-0.425452992
24925750	0.117794336	-0.429332736
24926000	0.123270136	-0.429080384
24926250	0.121204552	-0.42735744
24926500	0.118636656	-0.430604768
24926750	0.1236012	-0.42650944
24927000	0.11730452	-0.42900528
24927250	0.119012792	-0.434109376
24927500	0.123226216	-0.42611408
24927750	0.116245088	-0.429401408
24928000	0.119406832	-0.43528592
24928250	0.122795408	-0.4258368
24928500	0.116436536	-0.4296136
24928750	0.120876176	-0.432128608
24929000	0.117060552	-0.428874816
24929250	0.11822732	-0.4335656
24929500	0.122412344	-0.426259168
24929750	0.115320672	-0.429499296
24930000	0.118492728	-0.435285024
24930250	0.121965408	-0.425955392
24930500	0.115664744	-0.429601088
24930750	0.119750008	-0.432966368
24931000	0.121692432	-0.426340864
24931250	0.115951856	-0.429448768
24931500	0.121766664	-0.4281296
24931750	0.118325456	-0.428197632
24932000	0.116722312	-0.432398784
24932250	0.121481648	-0.426970528
24932500	0.114207712	-0.42978976
24932750	0.116861864	-0.435433408
24933000	0.12093772	-0.42640528
24933250	0.114272816	-0.430030912
24933500	0.117251016	-0.435302624
24933750	0.120604624	-0.42669808
24934000	0.114177776	-0.430034272
24934250	0.119329952	-0.431084928
24934500	0.119274328	-0.427343328
24934750	0.115311368	-0.430909344
24935000	0.120292904	-0.427904064
24935250	0.113488872	-0.430124896
24935500	0.115602176	-0.434854112
24935750	0.119732528	-0.427015424
24936000	0.113066888	-0.430267104
24936250	0.115894416	-0.435977952
24936500	0.119647152	-0.4270392
24936750	0.1128538	-0.430537536
24937000	0.116913008	-0.434188288
24937250	0.119021104	-0.42707008
24937500	0.113456416	-0.43054832
24937750	0.1188142	-0.42847472
24938000	0.114298248	-0.429411168
24938250	0.113698216	-0.43254176
24938500	0.118259184	-0.427135616
24938750	0.111201904	-0.430689856
24939000	0.114009488	-0.436003232
24939250	0.118073072	-0.427544064
24939500	0.11132576	-0.430757216
24939750	0.11449744	-0.436479872
24940000	0.117886264	-0.42745856
24940250	0.111650912	-0.431004608
24940500	0.116782136	-0.431922304
24940750	0.115843016	-0.428842752
24941000	0.112410328	-0.431938656
24941250	0.11751596	-0.428730336
24941500	0.11202452	-0.430566656
24941750	0.112821048	-0.435451616
24942000	0.117191472	-0.42816128
24942250	0.1101864	-0.43108048
24942500	0.113045768	-0.437021376
24942750	0.116651832	-0.427792832
24943000	0.11027828	-0.431416288
24943250	0.114398992	-0.434910016
24943500	0.116458728	-0.428224032
24943750	0.110479688	-0.431270528
24944000	0.11635068	-0.43000192
24944250	0.113151944	-0.429981984
24944500	0.1114238	-0.433796896
24944750	0.116177408	-0.42887072
24945000	0.108889552	-0.431406752
24945250	0.111674936	-0.437090272
24945500	0.115748472	-0.428250272
24945750	0.109049616	-0.431802336
24946000	0.112034184	-0.437025184
24946250	0.115639072	-0.428526208
24946500	0.10899308	-0.431700672
24946750	0.114212264	-0.432970688
24947000	0.114423936	-0.429076672
24947250	0.110037944	-0.432514048
24947500	0.115066328	-0.42966624
24947750	0.108289	-0.431631616
24948000	0.110250288	-0.43639968
24948250	0.114357256	-0.428397632
24948500	0.107430432	-0.431617312
24948750	0.110571168	-0.437647296
24949000	0.114513024	-0.428918368
24949250	0.10769136	-0.432092384
24949500	0.11173612	-0.435909184
24949750	0.113980392	-0.42898336
24950000	0.108303832	-0.432255168
24950250	0.113971424	-0.43103024
24950500	0.109750584	-0.431162432
24950750	0.10864104	-0.435094432
24951000	0.113241896	-0.428893888
24951250	0.106074816	-0.431645632
24951500	0.108672648	-0.437163392
24951750	0.11287216	-0.428638464
24952000	0.10606424	-0.431699744
24952250	0.109104104	-0.43767888
24952500	0.11251984	-0.428413408
24952750	0.106343784	-0.431896768
24953000	0.111352712	-0.433107232
24953250	0.110800576	-0.429731328
24953500	0.107214848	-0.432548352
24953750	0.11233724	-0.429710176
24954000	0.106775664	-0.43142992
24954250	0.107385696	-0.436415232
24954500	0.11203584	-0.429190016
24954750	0.104846024	-0.431906688
24955000	0.107795768	-0.438028832
24955250	0.111406368	-0.428803936
24955500	0.10496404	-0.432219232
24955750	0.108901968	-0.435992608
24956000	0.111083328	-0.429084352
24956250	0.105121176	-0.43214048
24956500	0.111020688	-0.43117968
24956750	0.107975392	-0.431346944
24957000	0.10598388	-0.435125856
24957250	0.111032192	-0.430625536
24957500	0.103780536	-0.433104512
24957750	0.10608448	-0.438180736
24958000	0.110804264	-0.43011184
24958250	0.104139624	-0.433202112
24958500	0.107050936	-0.438911264
24958750	0.110852304	-0.430300096
24959000	0.103937808	-0.433372448
24959250	0.109165024	-0.434756032
24959500	0.10963844	-0.43081104
24959750	0.10508632	-0.434402464
24960000	0.110135984	-0.43163168
24960250	0.103584808	-0.433107328
24960500	0.104842336	-0.438013888
24960750	0.109605944	-0.430673216
24961000	0.10262736	-0.43352128
24961250	0.10529976	-0.439303744
24961500	0.109430256	-0.430732928
24961750	0.102382664	-0.433791328
24962000	0.106526888	-0.4377192
24962250	0.109024112	-0.430488224
24962500	0.103085112	-0.43374272
24962750	0.10889088	-0.432924608
24963000	0.104789696	-0.432746144
24963250	0.103553664	-0.436581792
24963500	0.108577584	-0.431459616
24963750	0.10134608	-0.43393968
24964000	0.103789816	-0.439421504
24964250	0.108253696	-0.431190976
24964500	0.101139112	-0.4341144
24964750	0.10397732	-0.440036192
24965000	0.107764256	-0.430962144
24965250	0.101341192	-0.434376704
24965500	0.106248832	-0.43572352
24965750	0.105964504	-0.43216496
24966000	0.10214692	-0.43487568
24966250	0.10741924	-0.432439936
24966500	0.10193636	-0.433828544
24966750	0.102394624	-0.43861104
24967000	0.10704184	-0.431848
24967250	0.099832856	-0.434366976
24967500	0.102573552	-0.440470432
24967750	0.10657408	-0.431578784
24968000	0.100143344	-0.434855072
24968250	0.103793096	-0.438578592
24968500	0.106566048	-0.43184608
24968750	0.100320136	-0.434484608
24969000	0.106168976	-0.433882368
24969250	0.103206992	-0.433263808
24969500	0.100983784	-0.437063392
24969750	0.105899944	-0.432512736
24970000	0.098314544	-0.434749664
24970250	0.100967512	-0.440578784
24970500	0.1054712	-0.432035264
24970750	0.098687736	-0.435090592
24971000	0.101412624	-0.440831744
24971250	0.105390744	-0.432167776
24971500	0.098482936	-0.435069856
24971750	0.103547424	-0.436952928
24972000	0.104537496	-0.43250992
24972250	0.099679984	-0.43582432
24972500	0.104864608	-0.433568064
24972750	0.098193488	-0.434993792
24973000	0.09963448	-0.439680064
24973250	0.104390368	-0.432561984
24973500	0.09723064	-0.435276928
24973750	0.099913528	-0.441130848
24974000	0.104069408	-0.432584
24974250	0.097177608	-0.43551312
24974500	0.100919744	-0.439632032
24974750	0.103604536	-0.432509632
24975000	0.097563096	-0.435568768
24975250	0.103375112	-0.434929728
24975500	0.09930504	-0.434436768
24975750	0.098017056	-0.437939168
24976000	0.10314276	-0.433404288
24976250	0.095752344	-0.435697728
24976500	0.09846008	-0.44124432
24976750	0.102868824	-0.433099712
24977000	0.095832056	-0.435793472
24977250	0.098615848	-0.441778752
24977500	0.102543048	-0.432934848
24977750	0.096085288	-0.436050144
24978000	0.100872312	-0.437808384
24978250	0.100834672	-0.433927968
24978500	0.0967956	-0.436451264
24978750	0.101926832	-0.434282496
24979000	0.09654744	-0.435625728
24979250	0.096847896	-0.44004848
24979500	0.1017054	-0.4337344
24979750	0.094339632	-0.435941248
24980000	0.097047328	-0.44220448
24980250	0.101354648	-0.43334192
24980500	0.094564312	-0.436453344
24980750	0.098154752	-0.440387392
24981000	0.100980288	-0.433654976
24981250	0.094645264	-0.436177984
24981500	0.100570312	-0.43579488
24981750	0.09790016	-0.434951936
24982000	0.095553936	-0.438852928
24982250	0.100729328	-0.434373408
24982500	0.093120016	-0.436379328
24982750	0.09554508	-0.442322752
24983000	0.100178304	-0.433739616
24983250	0.09312912	-0.436676224
24983500	0.095780144	-0.442572032
24983750	0.099815008	-0.433884512
24984000	0.093138992	-0.436591616
24984250	0.097934176	-0.438939136
24984500	0.099149664	-0.434318816
24984750	0.094208512	-0.437119552
24985000	0.099473192	-0.435284288
24985250	0.092964312	-0.436526944
24985500	0.094230824	-0.441021696
24985750	0.099225328	-0.434335712
24986000	0.091972728	-0.436703648
24986250	0.094629928	-0.442688992
24986500	0.098822928	-0.434365792
24986750	0.091898416	-0.436943232
24987000	0.095484544	-0.441536352
24987250	0.098428328	-0.434151392
24987500	0.092239872	-0.43703648
24987750	0.098088784	-0.43678992
24988000	0.094155216	-0.436124032
24988250	0.092627512	-0.43935856
24988500	0.097876872	-0.43515008
24988750	0.090468032	-0.437219552
24989000	0.092708928	-0.442696352
24989250	0.097798272	-0.434815808
24989500	0.090567416	-0.43728464
24989750	0.09313308	-0.44338848
24990000	0.097138008	-0.434554432
