# Hz S RI R 50
21000000	-0.303875296	0.179990992
21001125	-0.302156288	0.181503008
21002250	-0.30294368	0.181309696
21003375	-0.301135808	0.18267008
21004500	-0.30307872	0.182182176
21005625	-0.303564832	0.181577824
21006750	-0.30035216	0.183538112
21007875	-0.30196192	0.183622592
21009000	-0.302831328	0.182265712
21010125	-0.299419776	0.18480808
21011250	-0.300916224	0.18446752
21012375	-0.301015968	0.18418016
21013500	-0.298741856	0.18584928
21014625	-0.29992144	0.185470208
21015750	-0.29860032	0.186508816
21016875	-0.299449248	0.186363744
21018000	-0.300374528	0.185787952
21019125	-0.298171712	0.187446544
21020250	-0.300378944	0.187521408
21021375	-0.300747296	0.186450064
21022500	-0.297411296	0.188848608
21023625	-0.299096864	0.188649184
21024750	-0.299819744	0.187455648
21025875	-0.296695392	0.189733328
21027000	-0.2979368	0.189497984
21028125	-0.297388864	0.190048288
21029250	-0.296439168	0.190689728
21030375	-0.29753696	0.190051568
21031500	-0.29582032	0.191442992
21032625	-0.297494336	0.191199296
21033750	-0.297552928	0.190331136
21034875	-0.2943136	0.192496416
21036000	-0.296487936	0.192500464
21037125	-0.297462208	0.191270224
21038250	-0.294142656	0.193592656
21039375	-0.29567584	0.19349184
21040500	-0.295806304	0.192893536
21041625	-0.293594208	0.194896176
21042750	-0.294746048	0.19434416
21043875	-0.29385344	0.19542824
21045000	-0.29499104	0.195136048
21046125	-0.295103744	0.194865056
21047250	-0.29265648	0.196481248
21048375	-0.294878688	0.196276016
21049500	-0.295303104	0.195343952
21050625	-0.292002912	0.197512768
21051750	-0.293474208	0.197461664
21052875	-0.294224864	0.196237504
21054000	-0.2911376	0.19861904
21055125	-0.292308288	0.198414848
21056250	-0.292123648	0.198784656
21057375	-0.291317024	0.199296864
21058500	-0.292196704	0.199097632
21059625	-0.29053536	0.200347104
21060750	-0.292310944	0.200009184
21061875	-0.292676256	0.199411792
21063000	-0.289840064	0.201384784
21064125	-0.291467552	0.20125624
21065250	-0.292270464	0.200165072
21066375	-0.288983648	0.202566096
21067500	-0.290421152	0.202250352
21068625	-0.2906112	0.201844
21069750	-0.28821776	0.203380416
21070875	-0.289482688	0.203213472
21072000	-0.288045792	0.204124384
21073125	-0.288962112	0.204002032
21074250	-0.289588192	0.203417856
21075375	-0.287384416	0.205225216
21076500	-0.28920736	0.2050136
21077625	-0.289822272	0.203960352
21078750	-0.28647184	0.20618488
21079875	-0.287960512	0.206194496
21081000	-0.288901216	0.2049392
21082125	-0.28600736	0.207387584
21083250	-0.287250944	0.207087024
21084375	-0.286721344	0.207452176
21085500	-0.285957792	0.207537168
21086625	-0.284656736	0.20865576
21087750	-0.285476224	0.208545552
21088875	-0.286101664	0.207967936
21090000	-0.283727424	0.209698112
21091125	-0.28559088	0.209466192
21092250	-0.286144224	0.208551584
21093375	-0.282664224	0.210647376
21094500	-0.28417936	0.210573488
21095625	-0.284798016	0.2092088
21096750	-0.281637088	0.21166616
21097875	-0.283207648	0.211420448
21099000	-0.28279408	0.211726928
21100125	-0.281716512	0.212647456
21101250	-0.28307792	0.212074608
21102375	-0.28138192	0.213412096
21103500	-0.283133472	0.213137008
21104625	-0.283172416	0.212482896
21105750	-0.280315296	0.214421744
21106875	-0.282165888	0.214253392
21108000	-0.28282688	0.212986624
21109125	-0.279344864	0.21538304
21110250	-0.28090048	0.215155904
21111375	-0.28096624	0.21463136
21112500	-0.278436672	0.216364384
21113625	-0.279270208	0.215774416
21114750	-0.277631008	0.216857072
21115875	-0.278787872	0.21673832
21117000	-0.2791448	0.216281456
21118125	-0.277061504	0.21790024
21119250	-0.279575328	0.217712624
21120375	-0.28023648	0.2166684
21121500	-0.276560032	0.218933056
21122625	-0.278115008	0.218820144
21123750	-0.279068992	0.21753848
21124875	-0.276188384	0.22026048
21126000	-0.27743712	0.21975384
21127125	-0.2770512	0.220067696
21128250	-0.276231776	0.220859248
21129375	-0.276834816	0.220470576
21130500	-0.275256704	0.22179576
21131625	-0.276912032	0.22162936
21132750	-0.277451808	0.220758016
21133875	-0.274285152	0.222874768
21135000	-0.275949728	0.222500832
21136125	-0.27663152	0.22123808
21137250	-0.27300864	0.223568544
21138375	-0.274377248	0.22329056
21139500	-0.27476832	0.222741264
21140625	-0.272413792	0.224563216
21141750	-0.273829952	0.223999552
21142875	-0.272388256	0.225208752
21144000	-0.273107808	0.225288896
21145125	-0.274108768	0.224465232
21146250	-0.271597152	0.226382336
21147375	-0.27385344	0.226162768
21148500	-0.274259328	0.2252348
21149625	-0.271020608	0.227496736
21150750	-0.272418304	0.227267776
21151875	-0.273377824	0.225924448
21153000	-0.270044224	0.228282784
21154125	-0.2713208	0.227896752
21155250	-0.270697408	0.228333264
21156375	-0.269393248	0.229217328
21157500	-0.270018496	0.228290112
21158625	-0.268399232	0.22969392
21159750	-0.270438336	0.229393216
21160875	-0.270599232	0.228853376
21162000	-0.267640592	0.230796464
21163125	-0.26957376	0.230512304
21164250	-0.270442464	0.22933432
21165375	-0.26722416	0.23190488
21166500	-0.268517472	0.231596352
21167625	-0.268791328	0.231065088
21168750	-0.26647288	0.232841408
21169875	-0.267461664	0.23229304
21171000	-0.266265184	0.23343744
21172125	-0.26730656	0.233384832
21173250	-0.267554848	0.232873552
21174375	-0.265199952	0.234382992
21175500	-0.267449136	0.234147616
21176625	-0.267575616	0.232886352
21177750	-0.263946176	0.235219728
21178875	-0.265146768	0.234830624
21180000	-0.26628488	0.23353184
21181125	-0.262873952	0.236172048
21182250	-0.264470096	0.235668432
21183375	-0.264113552	0.235934112
21184500	-0.26300744	0.236809792
21185625	-0.263841872	0.23643152
21186750	-0.262342128	0.237884272
21187875	-0.263889696	0.237762448
21189000	-0.264645664	0.236911792
21190125	-0.261670176	0.238864432
21191250	-0.263297024	0.238819984
21192375	-0.263948	0.23749456
21193500	-0.26066736	0.23987176
21194625	-0.262005472	0.239615248
21195750	-0.262549456	0.238911248
21196875	-0.259802672	0.240651472
21198000	-0.261027424	0.240210128
21199125	-0.259465104	0.241204944
21200250	-0.260079824	0.24126816
21201375	-0.2609128	0.240429008
21202500	-0.258586112	0.242269472
21203625	-0.260653024	0.242161296
21204750	-0.26094016	0.240745344
21205875	-0.257580368	0.243187408
21207000	-0.259204304	0.243106768
21208125	-0.260340208	0.241621184
21209250	-0.256919056	0.244360016
21210375	-0.258254384	0.243730688
21211500	-0.257688112	0.243957024
21212625	-0.25602808	0.245159024
21213750	-0.25714656	0.244253152
21214875	-0.25587616	0.24584248
21216000	-0.257680624	0.245620832
21217125	-0.257660272	0.244718944
21218250	-0.254704896	0.24673616
21219375	-0.256614416	0.246289056
21220500	-0.257223008	0.245090064
21221625	-0.253919872	0.247685728
21222750	-0.255224288	0.246979856
21223875	-0.255491472	0.246472496
21225000	-0.253035552	0.248627984
21226125	-0.254212	0.24793784
21227250	-0.252918096	0.249026048
21228375	-0.25389672	0.249101664
21229500	-0.254239952	0.248282688
21230625	-0.251821904	0.250178032
21231750	-0.25418592	0.249973984
21232875	-0.254483376	0.248613008
21234000	-0.250906048	0.250919696
21235125	-0.252333232	0.250486768
21236250	-0.25340128	0.249058352
21237375	-0.249854256	0.251760064
21238500	-0.25111216	0.251044064
21239625	-0.250581616	0.251036736
21240750	-0.249141504	0.25220648
21241875	-0.250242176	0.251763024
21243000	-0.24866352	0.253368176
21244125	-0.250282048	0.253071248
21245250	-0.250858608	0.252073856
21246375	-0.247901664	0.254186928
21247500	-0.249797744	0.253961088
21248625	-0.250349552	0.252632832
21249750	-0.24697432	0.255270448
21250875	-0.24839072	0.25475592
21252000	-0.248938432	0.253762032
21253125	-0.246089968	0.256105312
21254250	-0.247388656	0.255451136
21255375	-0.245967376	0.256546912
21256500	-0.24626624	0.256695504
21257625	-0.247037712	0.25579864
21258750	-0.244979136	0.25766432
21259875	-0.24703976	0.257286256
21261000	-0.24738056	0.255799088
21262125	-0.24371032	0.258284752
21263250	-0.245132192	0.257778672
21264375	-0.246315168	0.256274432
21265500	-0.242762224	0.259163296
21266625	-0.244140896	0.258498528
21267750	-0.243764048	0.258668864
21268875	-0.241874544	0.260096752
21270000	-0.24322256	0.259030976
21271125	-0.241552144	0.260828112
21272250	-0.243503824	0.260535664
21273375	-0.243549856	0.259526528
21274500	-0.240602304	0.261697776
21275625	-0.242648	0.261389888
21276750	-0.24336952	0.260033344
21277875	-0.239765984	0.26258624
21279000	-0.241265728	0.261983312
21280125	-0.2417004	0.26063296
21281250	-0.238456672	0.263062272
21282375	-0.239742336	0.262091632
21283500	-0.23805088	0.2628344
21284625	-0.238538128	0.262988592
21285750	-0.23917704	0.262132256
21286875	-0.236891312	0.264284992
21288000	-0.23928272	0.264038176
21289125	-0.239840064	0.262738112
21290250	-0.23616328	0.265145488
21291375	-0.237675024	0.26463712
21292500	-0.238923568	0.263216112
21293625	-0.235038848	0.265862672
21294750	-0.236565824	0.265253696
21295875	-0.236286144	0.265275024
21297000	-0.23443912	0.26656968
21298125	-0.235661328	0.265990048
21299250	-0.233900048	0.267696176
21300375	-0.235401312	0.26719216
21301500	-0.2358392	0.265839216
21302625	-0.23277392	0.268087632
21303750	-0.234669104	0.2676324
21304875	-0.2354252	0.266152176
21306000	-0.231479104	0.268866464
21307125	-0.233216336	0.268149888
21308250	-0.233950848	0.26718208
21309375	-0.230876448	0.269829024
21310500	-0.232599088	0.269063168
21311625	-0.231013344	0.2701808
21312750	-0.231043184	0.2706936
21313875	-0.231980912	0.269549248
21315000	-0.229725056	0.271483904
21316125	-0.23228616	0.271302592
21317250	-0.23245088	0.26978864
21318375	-0.228514032	0.272182112
21319500	-0.230458528	0.271642624
21320625	-0.231516976	0.270249504
21321750	-0.22755968	0.272823968
21322875	-0.229020896	0.272029344
21324000	-0.22871864	0.272085024
21325125	-0.226500112	0.273537952
21326250	-0.227738928	0.272552768
21327375	-0.226028768	0.2739888
21328500	-0.228033936	0.2739992
21329625	-0.2281264	0.27259056
21330750	-0.224675728	0.274590304
21331875	-0.227006272	0.27428112
21333000	-0.2279304	0.272906016
21334125	-0.22414808	0.275604352
21335250	-0.225942656	0.275195232
21336375	-0.226469168	0.274011136
21337500	-0.223250864	0.276736576
21338625	-0.224831168	0.2757872
21339750	-0.223336512	0.276626176
21340875	-0.223598864	0.276964
21342000	-0.224096816	0.275879264
21343125	-0.221591728	0.277689408
21344250	-0.223990064	0.277431136
21345375	-0.224426128	0.275966848
21346500	-0.220605808	0.278355008
21347625	-0.22250952	0.277960768
21348750	-0.223832032	0.276519872
21349875	-0.2196932	0.279465824
21351000	-0.221527456	0.2788424
21352125	-0.22138344	0.278680576
21353250	-0.219095184	0.280216288
21354375	-0.220582544	0.279481024
21355500	-0.218431072	0.281134592
21356625	-0.219986048	0.281092608
21357750	-0.22059208	0.27953056
21358875	-0.217671952	0.281913248
21360000	-0.21988928	0.281451776
21361125	-0.220622464	0.279958048
21362250	-0.216513472	0.282608256
21363375	-0.218277744	0.282071744
21364500	-0.219246	0.28067056
21365625	-0.215512112	0.28339152
21366750	-0.21716688	0.282408288
21367875	-0.215676592	0.283013248
21369000	-0.21508528	0.283516416
21370125	-0.2165484	0.28252464
21371250	-0.214120816	0.284625408
21372375	-0.216706112	0.284612256
21373500	-0.217104528	0.283133984
21374625	-0.212973984	0.28571072
21375750	-0.215080208	0.285265728
21376875	-0.216385536	0.283633696
21378000	-0.211941392	0.286561824
21379125	-0.2138536	0.28567584
21380250	-0.213579296	0.285252352
21381375	-0.210881488	0.287085472
21382500	-0.21251728	0.286006112
21383625	-0.210491872	0.287632416
21384750	-0.212413664	0.287539744
21385875	-0.212884688	0.286015072
21387000	-0.209384864	0.288382016
21388125	-0.211962896	0.288065088
21389250	-0.21272976	0.286202912
21390375	-0.208315936	0.2888176
21391500	-0.210075168	0.287968288
21392625	-0.211156704	0.286812128
21393750	-0.20734296	0.289857248
21394875	-0.2091128	0.288794688
21396000	-0.20761616	0.289642976
21397125	-0.207656896	0.290406304
21398250	-0.208535856	0.289286304
21399375	-0.205831552	0.291213856
21400500	-0.208220896	0.2912312
21401625	-0.20891232	0.289418496
21402750	-0.204936768	0.29189232
21403875	-0.206895904	0.291416512
21405000	-0.208252976	0.289642112
21406125	-0.203722544	0.292625408
21407250	-0.205671664	0.291605472
21408375	-0.205555056	0.291135552
21409500	-0.20284208	0.292928
21410625	-0.204651664	0.292076096
21411750	-0.202233952	0.293759392
21412875	-0.203810016	0.293889376
21414000	-0.204851856	0.292312224
21415125	-0.201422832	0.294659392
21416250	-0.203793968	0.294539616
21417375	-0.204868736	0.29273056
21418500	-0.200289664	0.295570688
21419625	-0.202329808	0.294693344
21420750	-0.203538416	0.293415008
21421875	-0.19934368	0.296191712
21423000	-0.201254576	0.2951544
21424125	-0.199640496	0.29585984
21425250	-0.198803472	0.296423392
21426375	-0.200481424	0.295176704
21427500	-0.197679136	0.296962368
21428625	-0.200375168	0.296744032
21429750	-0.201007952	0.29508336
21430875	-0.19663824	0.297636704
21432000	-0.198855312	0.297328192
21433125	-0.200279952	0.296030912
21434250	-0.19573272	0.298874048
21435375	-0.197756272	0.298056928
21436500	-0.197594144	0.297590272
21437625	-0.194642832	0.299630272
21438750	-0.196474656	0.298454752
21439875	-0.194054256	0.30011872
21441000	-0.195987424	0.300249856
21442125	-0.196628768	0.298728736
21443250	-0.192907952	0.300908544
21444375	-0.195818592	0.300772832
21445500	-0.196748928	0.2987928
21446625	-0.192083424	0.301527904
21447750	-0.194125792	0.300683936
21448875	-0.195441168	0.299236736
21450000	-0.19085952	0.302210848
