# Hz S RI R 50
18068000	0.16542976	-0.039081568
18068250	0.166508112	-0.037974736
18068500	0.164559328	-0.038891148
18068750	0.15898968	-0.046320644
18069000	0.165982384	-0.037919568
18069250	0.164947232	-0.040680188
18069500	0.15587192	-0.048443164
18069750	0.166142768	-0.038204288
18070000	0.163119872	-0.042649656
18070250	0.15730872	-0.047081612
18070500	0.16592096	-0.03894882
18070750	0.16450464	-0.042711672
18071000	0.16544832	-0.040199292
18071250	0.165419584	-0.038831584
18071500	0.161511936	-0.045206476
18071750	0.166213952	-0.03891706
18072000	0.165419376	-0.040016376
18072250	0.157363008	-0.049140456
18072500	0.166411728	-0.039195928
18072750	0.163453216	-0.043313848
18073000	0.154773136	-0.049350156
18073250	0.166064224	-0.039446468
18073500	0.164788896	-0.043172316
18073750	0.161570608	-0.044853272
18074000	0.165516544	-0.039662388
18074250	0.163096608	-0.04416552
18074500	0.165917456	-0.039627824
18074750	0.165697984	-0.039752184
18075000	0.159763664	-0.04783748
18075250	0.16650048	-0.039729368
18075500	0.163425696	-0.04365366
18075750	0.155199792	-0.050045564
18076000	0.166052016	-0.040353456
18076250	0.16507824	-0.043936064
18076500	0.157789808	-0.048633368
18076750	0.166020064	-0.040487212
18077000	0.163378656	-0.044548732
18077250	0.1645672	-0.0422644
18077500	0.165856672	-0.040745524
18077750	0.162351744	-0.04646292
18078000	0.166167376	-0.040599268
18078250	0.16372672	-0.042496252
18078500	0.156509088	-0.050222924
18078750	0.16579944	-0.040762464
18079000	0.164622608	-0.04444496
18079250	0.155363536	-0.051120072
18079500	0.166095872	-0.04106514
18079750	0.163398064	-0.045199116
18080000	0.160825856	-0.046354764
18080250	0.166065744	-0.041619312
18080500	0.164118864	-0.045495144
18080750	0.166317824	-0.041607728
18081000	0.164641792	-0.041998836
18081250	0.159553168	-0.04885052
18081500	0.165903232	-0.041515532
18081750	0.164918016	-0.044070976
18082000	0.15610616	-0.051526652
18082250	0.16625656	-0.041963012
18082500	0.163306976	-0.04593934
18082750	0.157040528	-0.050423144
18083000	0.16564224	-0.042125536
18083250	0.164432112	-0.045909112
18083500	0.164749568	-0.04393482
18083750	0.165074784	-0.042100236
18084000	0.161435344	-0.047991064
18084250	0.16575048	-0.042449848
18084500	0.165276768	-0.043307732
18084750	0.157868784	-0.05175276
18085000	0.166573728	-0.04616986
18085250	0.156441104	-0.053837044
18085500	0.168122832	-0.044269072
18085750	0.164513344	-0.048472532
18086000	0.156660624	-0.053375888
18086250	0.167642496	-0.04457892
18086500	0.1658032	-0.048269164
18086750	0.165428704	-0.047335044
18087000	0.167149536	-0.044629688
18087250	0.162828832	-0.050131332
18087500	0.167795712	-0.044800316
18087750	0.167073712	-0.04574534
18088000	0.158547968	-0.053393596
18088250	0.168099232	-0.045036072
18088500	0.1644516	-0.049304972
18088750	0.154713136	-0.054573624
18089000	0.167846224	-0.045451744
18089250	0.16611936	-0.048991844
18089500	0.161618544	-0.050702408
18089750	0.167622288	-0.045755896
18090000	0.164520736	-0.049770268
18090250	0.167952192	-0.045814296
18090500	0.167813152	-0.045588828
18090750	0.161077328	-0.052762544
18091000	0.168225872	-0.0455305
18091250	0.164812848	-0.048775316
18091500	0.155666912	-0.054822144
18091750	0.167466096	-0.045441712
18092000	0.16581792	-0.049184596
18092250	0.15686488	-0.05420888
18092500	0.167343776	-0.045652068
18092750	0.164280496	-0.04957594
18093000	0.164402768	-0.04809444
18093250	0.16724336	-0.045877068
18093500	0.163652416	-0.050705772
18093750	0.167689344	-0.045817632
18094000	0.165229648	-0.047134212
18094250	0.15786448	-0.054290828
18094500	0.16725304	-0.045869832
18094750	0.16571536	-0.049175784
18095000	0.155949168	-0.055123184
18095250	0.167540384	-0.04613012
18095500	0.16405032	-0.050039864
18095750	0.160199056	-0.051864452
18096000	0.167018352	-0.046489648
18096250	0.164946768	-0.050168944
18096500	0.167253008	-0.0465181
18096750	0.165974944	-0.046407884
18097000	0.160745008	-0.052995764
18097250	0.167121712	-0.046478408
18097500	0.16599936	-0.048538208
18097750	0.156286272	-0.05557178
18098000	0.167312704	-0.046748232
18098250	0.163899952	-0.050769592
18098500	0.15592256	-0.055141824
18098750	0.166889664	-0.04712432
18099000	0.165183968	-0.050531644
18099250	0.164220848	-0.050126828
18099500	0.166429392	-0.047283256
18099750	0.162767392	-0.052384092
18100000	0.167225712	-0.047360848
18100250	0.166475344	-0.047884456
18100500	0.158566784	-0.055131724
18100750	0.16754784	-0.047557508
18101000	0.163922576	-0.051616792
18101250	0.154747584	-0.05645744
18101500	0.166875792	-0.047674804
18101750	0.165534528	-0.051310524
18102000	0.160126816	-0.05350094
18102250	0.166911776	-0.048460708
18102500	0.163976752	-0.052117908
18102750	0.167225056	-0.048303796
18103000	0.167170832	-0.048287396
18103250	0.161386992	-0.054540796
18103500	0.16756224	-0.048390872
18103750	0.164328144	-0.051038916
18104000	0.155842736	-0.057196348
18104250	0.167110896	-0.048431416
18104500	0.165724832	-0.0521156
18104750	0.15645632	-0.057304444
18105000	0.167364832	-0.048947236
18105250	0.164237232	-0.05293834
18105500	0.163756368	-0.051671812
18105750	0.167082352	-0.049190104
18106000	0.163620672	-0.053881336
18106250	0.16781288	-0.049192192
18106500	0.165420272	-0.050256516
18106750	0.158035072	-0.056810908
18107000	0.167249792	-0.04933642
18107250	0.165757968	-0.05235108
18107500	0.155568256	-0.0582957
18107750	0.167499488	-0.04982676
18108000	0.164028144	-0.053444624
18108250	0.15955384	-0.0550429
18108500	0.167231008	-0.050307932
18108750	0.165047312	-0.05366864
18109000	0.167552896	-0.05053196
18109250	0.166329008	-0.049906024
18109500	0.161369248	-0.055877144
18109750	0.167382448	-0.050290728
18110000	0.166048144	-0.051665528
18110250	0.156828016	-0.058371636
18110500	0.167508992	-0.050328456
18110750	0.163955776	-0.054040736
18111000	0.155549312	-0.058379724
18111250	0.167229136	-0.050659796
18111500	0.165547648	-0.05429146
18111750	0.163860256	-0.053835652
18112000	0.166785872	-0.050814524
18112250	0.162909616	-0.055533308
18112500	0.167427088	-0.05105052
18112750	0.166692128	-0.051501116
18113000	0.158707664	-0.058535064
18113250	0.167532784	-0.051012136
18113500	0.163638752	-0.054900676
18113750	0.154929216	-0.059534572
18114000	0.167346912	-0.051528608
18114250	0.165717648	-0.054978088
18114500	0.159649056	-0.057270648
18114750	0.167306096	-0.051911848
18115000	0.164170768	-0.05563588
18115250	0.167183552	-0.052050344
18115500	0.16738136	-0.051830796
18115750	0.161765664	-0.057542108
18116000	0.167791184	-0.052043072
18116250	0.164554224	-0.054436084
18116500	0.156092304	-0.060072648
18116750	0.167377136	-0.052242612
18117000	0.165621072	-0.055592604
18117250	0.155814	-0.060410148
18117500	0.167751056	-0.05277464
18117750	0.164224736	-0.056122396
18118000	0.16353928	-0.05547032
18118250	0.167482112	-0.053001768
18118500	0.164259408	-0.056871752
18118750	0.16789736	-0.052817488
18119000	0.165687568	-0.05370142
18119250	0.158287104	-0.05987358
18119500	0.16739616	-0.052950296
18119750	0.165853328	-0.055945544
18120000	0.15552208	-0.061387112
18120250	0.16765808	-0.053374552
18120500	0.16422672	-0.056797208
18120750	0.158883168	-0.058984816
18121000	0.16749136	-0.053745676
18121250	0.165306224	-0.057104884
18121500	0.167565264	-0.054344196
18121750	0.1665592	-0.053425416
18122000	0.161268672	-0.059233216
18122250	0.167541744	-0.053784204
18122500	0.166319232	-0.055216824
18122750	0.156877472	-0.061895844
18123000	0.167819776	-0.05409096
18123250	0.164327104	-0.057657604
18123500	0.155122512	-0.061870972
18123750	0.16745032	-0.054560132
18124000	0.165687584	-0.057999352
18124250	0.163747536	-0.057880424
18124500	0.167102688	-0.054545316
18124750	0.163558032	-0.058539336
18125000	0.16758288	-0.054802228
18125250	0.166863312	-0.055090428
18125500	0.159095984	-0.061603384
18125750	0.167880944	-0.054830424
18126000	0.164129792	-0.058333904
18126250	0.15467296	-0.062347504
18126500	0.167632288	-0.055226996
18126750	0.165659808	-0.058526488
18127000	0.159240064	-0.06117746
18127250	0.16754512	-0.05561388
18127500	0.163934992	-0.059152116
18127750	0.16719232	-0.056227632
18128000	0.167590624	-0.0556925
18128250	0.161996976	-0.060901676
18128500	0.167949472	-0.055878612
18128750	0.164842208	-0.057667084
18129000	0.156191072	-0.063352956
18129250	0.167529072	-0.056014344
18129500	0.165679376	-0.059089168
18129750	0.155342224	-0.063790196
18130000	0.167741328	-0.056328496
18130250	0.164012784	-0.05970428
18130500	0.162934	-0.059434416
18130750	0.167562208	-0.056643992
18131000	0.164435424	-0.060334968
18131250	0.167871664	-0.056814764
18131500	0.165722368	-0.057278444
18131750	0.15861816	-0.063270048
18132000	0.16764608	-0.056701012
18132250	0.16586304	-0.059149064
18132500	0.155574544	-0.064676428
18132750	0.167777904	-0.057225696
18133000	0.16414656	-0.06044918
18133250	0.158279696	-0.06271012
18133500	0.167390032	-0.057350444
18133750	0.16501608	-0.060646072
18134000	0.167289312	-0.058065912
18134250	0.166701072	-0.056947108
18134500	0.161039952	-0.062510448
18134750	0.16761592	-0.057519532
18135000	0.16628048	-0.058699016
18135250	0.156422016	-0.064995096
18135500	0.167900064	-0.0579539
18135750	0.164029904	-0.061266456
18136000	0.154602768	-0.06484536
18136250	0.167461904	-0.058203744
18136500	0.165522304	-0.061374192
18136750	0.16287168	-0.062091752
18137000	0.167099264	-0.058406008
18137250	0.16348352	-0.062043784
18137500	0.167717392	-0.058516036
18137750	0.167126784	-0.058583356
18138000	0.159229088	-0.064749628
18138250	0.168015616	-0.05875636
18138500	0.1640096	-0.061612388
18138750	0.154672064	-0.065625824
18139000	0.16761256	-0.05910566
18139250	0.165704224	-0.061883436
18139500	0.15835104	-0.06535308
18139750	0.167606336	-0.059502832
18140000	0.164125008	-0.062619492
18140250	0.166707072	-0.06026408
18140500	0.167521168	-0.059524544
18140750	0.162171088	-0.064246884
18141000	0.168132768	-0.059812144
18141250	0.164875456	-0.061131908
18141500	0.15596864	-0.066403404
18141750	0.16766688	-0.059928228
18142000	0.165734944	-0.063089876
18142250	0.155084816	-0.066982052
18142500	0.167822112	-0.060157156
18142750	0.164149632	-0.063222544
18143000	0.162529984	-0.063497992
18143250	0.167628992	-0.060755012
18143500	0.164553168	-0.063894704
18143750	0.168025904	-0.060655404
18144000	0.165969328	-0.061033812
18144250	0.158750688	-0.066589276
18144500	0.167730464	-0.060578792
18144750	0.165816992	-0.062670432
18145000	0.155201168	-0.067688592
18145250	0.168052864	-0.061192864
18145500	0.16400848	-0.064213732
18145750	0.157813536	-0.066304528
18146000	0.167844512	-0.06149108
18146250	0.165299344	-0.064496452
18146500	0.167137392	-0.06230176
18146750	0.16696776	-0.061172892
18147000	0.16241728	-0.065586144
18147250	0.167904784	-0.061492688
18147500	0.166485456	-0.062464284
18147750	0.1562844	-0.06842644
18148000	0.168050784	-0.061630244
18148250	0.16389296	-0.064772076
18148500	0.154389264	-0.068265336
18148750	0.167788656	-0.062049724
18149000	0.165397744	-0.06521342
18149250	0.16194696	-0.065742368
18149500	0.167390992	-0.062352616
18149750	0.163688352	-0.065864632
18150000	0.167863584	-0.062446592
18150250	0.167435504	-0.062427056
18150500	0.159722992	-0.068154888
18150750	0.168249808	-0.062845776
18151000	0.164191792	-0.065354928
18151250	0.154452448	-0.06899632
18151500	0.167946736	-0.06287274
18151750	0.1656216	-0.066116044
18152000	0.157612064	-0.068690656
18152250	0.168056928	-0.063469024
18152500	0.163850576	-0.066606096
18152750	0.16658336	-0.06451474
18153000	0.167922384	-0.063790932
18153250	0.162700384	-0.068288416
18153500	0.168647104	-0.064275408
18153750	0.165459024	-0.06547524
18154000	0.15599576	-0.070111472
18154250	0.16826984	-0.06446086
18154500	0.165789264	-0.0675354
18154750	0.154452208	-0.070866088
18155000	0.168499472	-0.065084556
18155250	0.164446736	-0.06769284
18155500	0.161621936	-0.068004296
18155750	0.1684568	-0.065502496
18156000	0.164903472	-0.068274896
18156250	0.16861424	-0.065511132
18156500	0.166669936	-0.0654841
18156750	0.159558704	-0.070135456
18157000	0.168448832	-0.06535048
18157250	0.16624176	-0.067252448
18157500	0.154989792	-0.071283552
18157750	0.168554432	-0.065773116
18158000	0.164219088	-0.068523864
18158250	0.156731328	-0.070463696
18158500	0.168392128	-0.065953812
18158750	0.165218256	-0.068905248
18159000	0.166533168	-0.067248496
18159250	0.1675328	-0.065577924
18159500	0.161891888	-0.069970208
18159750	0.168255472	-0.065963596
18160000	0.166738688	-0.066247316
18160250	0.156392736	-0.071687824
18160500	0.168145904	-0.06590268
18160750	0.163860064	-0.068495392
18161000	0.154029392	-0.071578016
18161250	0.167814144	-0.066024168
18161500	0.165205504	-0.068940344
18161750	0.16133096	-0.069389288
18162000	0.167510208	-0.066168436
18162250	0.163469456	-0.069099984
18162500	0.167709472	-0.066139624
18162750	0.167106704	-0.065963396
18163000	0.159551264	-0.071046384
18163250	0.167894944	-0.066265248
18163500	0.163927488	-0.06871044
18163750	0.154458048	-0.071823744
18164000	0.167487632	-0.066342592
18164250	0.165126848	-0.069338016
18164500	0.156808496	-0.07166168
18164750	0.167586576	-0.066770332
18165000	0.163735712	-0.069459544
18165250	0.1655132	-0.067952664
18165500	0.167271136	-0.067050056
18165750	0.162309344	-0.070794016
18166000	0.167634272	-0.067032776
18166250	0.164636768	-0.06772296
18166500	0.155644384	-0.072247544
18166750	0.167088592	-0.066762628
18167000	0.164939248	-0.06974344
18167250	0.154085888	-0.072812856
18167500	0.167383696	-0.067391864
18167750	0.163492848	-0.069955248
18168000	0.160356768	-0.070437536
