# Hz S RI R 50
14000000	0.05392172	0.26479992
14000875	0.051131944	0.268880992
14001750	0.053636496	0.264260592
14002625	0.053368712	0.263709664
14003500	0.051672472	0.268556064
14004375	0.054542488	0.264470816
14005250	0.052771832	0.266982256
14006125	0.053148948	0.266787712
14007000	0.055249456	0.263656112
14007875	0.053110576	0.267810048
14008750	0.055376376	0.265234464
14009625	0.05543766	0.262280112
14010500	0.053737296	0.267970896
14011375	0.055955432	0.263297616
14012250	0.055699152	0.261751392
14013125	0.054296308	0.267632608
14014000	0.056840124	0.263315376
14014875	0.05547612	0.264303808
14015750	0.055481952	0.266715792
14016625	0.057655312	0.262902976
14017500	0.055842972	0.266663232
14018375	0.057440596	0.265275632
14019250	0.058322184	0.26243696
14020125	0.056390116	0.266748912
14021000	0.05839322	0.262624288
14021875	0.058172864	0.260958992
14022750	0.056934196	0.266738384
14023625	0.059635328	0.26247352
14024500	0.058311128	0.26160976
14025375	0.057923856	0.266402416
14026250	0.060030888	0.261889312
14027125	0.058721356	0.264814192
14028000	0.059446636	0.2653076
14028875	0.060811164	0.26163
14029750	0.05942034	0.26577592
14030625	0.060796968	0.26212648
14031500	0.061215848	0.26016512
14032375	0.059848676	0.26575128
14033250	0.06229024	0.261343264
14034125	0.061469648	0.25961464
14035000	0.060363656	0.265984448
14035875	0.06260726	0.260910688
14036750	0.06180568	0.26221624
14037625	0.061493876	0.265017008
14038500	0.063655212	0.26082248
14039375	0.062147552	0.26463536
14040250	0.063296296	0.262348768
14041125	0.064168296	0.259964192
14042000	0.063092568	0.264611392
14042875	0.064987688	0.260967408
14043750	0.064115124	0.258915984
14044625	0.063678556	0.264500864
14045500	0.065492312	0.259749504
14046375	0.064884768	0.25939632
14047250	0.064453028	0.264249984
14048125	0.066462436	0.259919648
14049000	0.065309296	0.262854272
14049875	0.065939888	0.262512512
14050750	0.067196248	0.259169424
14051625	0.065886572	0.263472016
14052500	0.06791932	0.260856416
14053375	0.067244328	0.25832552
14054250	0.066887416	0.263535824
14055125	0.06824096	0.258992672
14056000	0.06792136	0.257510848
14056875	0.06745916	0.263366496
14057750	0.069491944	0.259015232
14058625	0.068443192	0.260037184
14059500	0.06861216	0.262438032
14060375	0.070096696	0.25844464
14061250	0.06921852	0.262417616
14062125	0.070589624	0.260965024
14063000	0.070566344	0.258088016
14063875	0.069854936	0.26250288
14064750	0.071404112	0.258240608
14065625	0.070662368	0.256985248
14066500	0.07056952	0.26251504
14067375	0.072591296	0.258014464
14068250	0.071501976	0.257302944
14069125	0.0715436	0.2621032
14070000	0.073118696	0.257596464
14070875	0.07239692	0.260746544
14071750	0.073137632	0.261036432
14072625	0.073949736	0.257350768
14073500	0.073114776	0.261468912
14074375	0.0740686	0.258176832
14075250	0.073971352	0.256066736
14076125	0.07396048	0.261644448
14077000	0.075571112	0.257023104
14077875	0.074335808	0.255888112
14078750	0.074818736	0.261302144
14079625	0.07611948	0.256691808
14080500	0.075262976	0.258157552
14081375	0.075791648	0.260581584
14082250	0.076931464	0.256628848
14083125	0.076458608	0.260213168
14084000	0.077090744	0.25785312
14084875	0.077304248	0.255739984
14085750	0.077089384	0.26053416
14086625	0.078516208	0.256614064
14087500	0.077413472	0.25504672
14088375	0.077922592	0.2604836
14089250	0.07891	0.255649216
14090125	0.078276512	0.255507344
14091000	0.08227916	0.256942416
14091875	0.081578208	0.260940464
14092750	0.08245992	0.257580016
14093625	0.082548984	0.255665488
14094500	0.082276432	0.26088304
14095375	0.083581248	0.25658232
14096250	0.08277328	0.254604816
14097125	0.082863104	0.26060656
14098000	0.083876688	0.255912864
14098875	0.083436776	0.256895312
14099750	0.083696096	0.260012832
14100625	0.084891696	0.255995424
14101500	0.084424704	0.259355184
14102375	0.084865728	0.257516928
14103250	0.08549052	0.254987536
14104125	0.085042824	0.259536112
14105000	0.086387328	0.255969072
14105875	0.085357728	0.25425968
14106750	0.085844504	0.259383552
14107625	0.086524816	0.254799248
14108500	0.086122024	0.254289056
14109375	0.086577688	0.259109616
14110250	0.087795496	0.254768096
14111125	0.087199328	0.257178512
14112000	0.087702064	0.25761176
14112875	0.088462008	0.254091984
14113750	0.088050392	0.258208928
14114625	0.089415056	0.255683248
14115500	0.088724672	0.253569152
14116375	0.088950192	0.258288528
14117250	0.089434128	0.253806832
14118125	0.08883368	0.25269976
14119000	0.089737752	0.258119648
14119875	0.090758232	0.253962304
14120750	0.089926784	0.254209184
14121625	0.090561096	0.257238928
14122500	0.09129552	0.253157056
14123375	0.091101432	0.256887072
14124250	0.0919744	0.255969264
14125125	0.091903416	0.252864064
14126000	0.091906464	0.256979552
14126875	0.09248624	0.253112496
14127750	0.091907984	0.251722544
14128625	0.092655336	0.256880976
14129500	0.093652624	0.25261912
14130375	0.092604264	0.251859872
14131250	0.093730512	0.256518032
14132125	0.094117616	0.252066672
14133000	0.094069016	0.254451664
14133875	0.094667376	0.255480528
14134750	0.095265856	0.251802592
14135625	0.095172024	0.255486848
14136500	0.095306208	0.252479936
14137375	0.095296384	0.250645136
14138250	0.095849856	0.255440272
14139125	0.096761216	0.251473072
14140000	0.095475648	0.25026744
14140875	0.096810664	0.25533744
14141750	0.097080176	0.250983184
14142625	0.096792656	0.251647808
14143500	0.097656384	0.254746944
14144375	0.098188768	0.250859136
14145250	0.098125432	0.254066432
14146125	0.098498904	0.252465344
14147000	0.098708264	0.249870304
14147875	0.0988704	0.254158176
14148750	0.099920008	0.250691056
14149625	0.098720448	0.249273584
14150500	0.099993208	0.254064464
14151375	0.100099728	0.249850208
14152250	0.099458304	0.249128944
14153125	0.100737656	0.253735424
14154000	0.101321072	0.249684336
14154875	0.101029992	0.251857072
14155750	0.101659408	0.252304736
14156625	0.101718392	0.248826704
14157500	0.102069128	0.252848064
14158375	0.103084424	0.250345552
14159250	0.10216516	0.248276688
14160125	0.103048024	0.25265112
14161000	0.102764648	0.24854008
14161875	0.10237932	0.247671824
14162750	0.10371712	0.252594912
14163625	0.104405496	0.248403168
14164500	0.103530448	0.249238992
14165375	0.104693136	0.251618976
14166250	0.104811248	0.247787792
14167125	0.105077472	0.251275152
14168000	0.105978088	0.250308224
14168875	0.105223688	0.247307152
14169750	0.10616776	0.25132856
14170625	0.10603204	0.247695824
14171500	0.105398272	0.246443712
14172375	0.106977344	0.251149392
14173250	0.107364736	0.247250176
14174125	0.106030656	0.246581616
14175000	0.107858096	0.250748896
14175875	0.10787348	0.246383136
14176750	0.107749696	0.24885728
14177625	0.108884448	0.249736208
14178500	0.10878712	0.246266848
14179375	0.109315568	0.249716848
14180250	0.109267456	0.247111216
14181125	0.108858728	0.245273376
14182000	0.110059912	0.249731072
14182875	0.110238544	0.245666672
14183750	0.10893168	0.244880704
14184625	0.110911712	0.249472512
14185500	0.110728512	0.245398752
14186375	0.110307472	0.246167872
14187250	0.111625416	0.24882168
14188125	0.111657688	0.244911056
14189000	0.11238652	0.248136864
14189875	0.112489312	0.246740848
14190750	0.11227776	0.244224864
14191625	0.113062616	0.24823184
14192500	0.113496768	0.245102848
14193375	0.11227572	0.243609392
14194250	0.114048304	0.247981744
14195125	0.113514544	0.24415832
14196000	0.112879576	0.243558432
14196875	0.114793632	0.247625456
14197750	0.114775448	0.243721776
14198625	0.114729304	0.246074656
14199500	0.115520032	0.246101536
14200375	0.115590488	0.242847936
14201250	0.116243672	0.246514048
14202125	0.116733488	0.244350208
14203000	0.115632712	0.24244272
14203875	0.1169008	0.246550544
14204750	0.116400568	0.24261152
14205625	0.115451128	0.241773984
14206500	0.117737456	0.24618392
14207375	0.117825264	0.242368944
14208250	0.11718056	0.242924512
14209125	0.118615336	0.245421744
14210000	0.118070496	0.241806096
14210875	0.119010368	0.244882
14211750	0.119539584	0.243982736
14212625	0.119055104	0.241340688
14213500	0.120000136	0.244838016
14214375	0.119396512	0.241398448
14215250	0.11862976	0.24039112
14216125	0.120615024	0.244744864
14217000	0.120631256	0.240807104
14217875	0.11941504	0.24042832
14218750	0.12149688	0.244164656
14219625	0.121057224	0.240300176
14220500	0.121530448	0.242598672
14221375	0.122412856	0.243055952
14222250	0.12193268	0.239864192
14223125	0.122846296	0.243127424
14224000	0.122414392	0.24061672
14224875	0.1220348	0.238902064
14225750	0.123728736	0.243045504
14226625	0.123649144	0.239447072
14227500	0.122354736	0.238701744
14228375	0.124674592	0.242497504
14229250	0.123868496	0.238923136
14230125	0.123631424	0.23967872
14231000	0.12536672	0.241902768
14231875	0.124906304	0.238494464
14232750	0.125615272	0.241229936
14233625	0.125634624	0.240016096
14234500	0.125171704	0.237662064
14235375	0.126580712	0.241163904
14236250	0.126698896	0.238395488
14237125	0.125350864	0.237097184
14238000	0.127458928	0.241074864
14238875	0.126620832	0.237558336
14239750	0.126064048	0.236917472
14240625	0.128306536	0.24046144
14241500	0.127752824	0.23693488
14242375	0.128164384	0.238865472
14243250	0.128931048	0.239224544
14244125	0.1282918	0.23633728
14245000	0.12946312	0.239540576
14245875	0.129927648	0.237346544
14246750	0.128642248	0.235665984
14247625	0.130420056	0.239188864
14248500	0.129583536	0.23582224
14249375	0.128720912	0.235202336
14250250	0.131211896	0.23888504
14251125	0.130702336	0.235412288
14252000	0.13008256	0.236280176
14252875	0.132037	0.238047248
14253750	0.131102728	0.23492528
14254625	0.132286456	0.237528832
14255500	0.13279052	0.236711408
14256375	0.131779936	0.234573552
14257250	0.133209768	0.237419232
14258125	0.132520048	0.234476672
14259000	0.131645784	0.233536816
14259875	0.134138616	0.237214336
14260750	0.133511664	0.233767952
14261625	0.132349448	0.233721184
14262500	0.134982448	0.23662632
14263375	0.133920672	0.233351264
14264250	0.134686176	0.235253168
14265125	0.135690784	0.235742624
14266000	0.134902384	0.232906656
14266875	0.136138432	0.235633344
14267750	0.13577792	0.233326592
14268625	0.13487216	0.232090272
14269500	0.13684864	0.235315216
14270375	0.136432432	0.232141024
14271250	0.135134976	0.23159576
14272125	0.137785152	0.234953968
14273000	0.136837184	0.231727728
14273875	0.136741424	0.232497104
14274750	0.138519184	0.234474592
14275625	0.137867184	0.231130752
14276500	0.139062336	0.233694176
14277375	0.138896224	0.232347376
14278250	0.138152112	0.230472144
14279125	0.139818416	0.233685168
14280000	0.139668192	0.231014384
14280875	0.138084624	0.230155376
14281750	0.140888992	0.233097616
14282625	0.139705856	0.23006568
14283500	0.138942656	0.229590352
14284375	0.141514176	0.232652576
14285250	0.140788176	0.229423008
14286125	0.141299168	0.231342272
14287000	0.141874144	0.231475696
14287875	0.141314448	0.229084816
14288750	0.142671552	0.231803552
14289625	0.142885808	0.229720784
14290500	0.141692272	0.228278704
14291375	0.143795856	0.231469376
14292250	0.14237584	0.228241056
14293125	0.14196512	0.227787984
14294000	0.144573264	0.23089808
14294875	0.143876336	0.227759104
14295750	0.143504464	0.228436272
14296625	0.145312032	0.230183632
14297500	0.144241456	0.227180192
14298375	0.145538128	0.229609216
14299250	0.146130752	0.228941072
14300125	0.145089664	0.226734848
14301000	0.146599792	0.22938552
14301875	0.145710416	0.226826256
14302750	0.145072112	0.225841888
14303625	0.147426	0.229151936
14304500	0.146662496	0.22600408
14305375	0.145677776	0.225980688
14306250	0.148589856	0.228476288
14307125	0.147040208	0.225446688
14308000	0.147800528	0.227104672
14308875	0.149143232	0.227514
14309750	0.14785736	0.22497504
14310625	0.149618064	0.227381952
14311500	0.14885472	0.22557424
14312375	0.14849376	0.224286752
14313250	0.150682896	0.22708912
14314125	0.149985904	0.224081056
14315000	0.148675824	0.223658
14315875	0.151752048	0.226524544
14316750	0.150357776	0.223633392
14317625	0.150651648	0.224281344
14318500	0.152551184	0.225895072
14319375	0.15150064	0.22316696
14320250	0.152776272	0.225319024
14321125	0.152751504	0.224330256
14322000	0.15258744	0.222170688
14322875	0.154514736	0.224802192
14323750	0.155020448	0.221938048
14324625	0.155073696	0.220095504
14325500	0.157931872	0.223053584
14326375	0.156884	0.21997464
14327250	0.156365552	0.21952648
14328125	0.158796272	0.222559856
14329000	0.158187488	0.219256336
14329875	0.158627744	0.220769264
14330750	0.15955776	0.220951712
14331625	0.15857592	0.218277328
14332500	0.16008768	0.220997264
14333375	0.160402688	0.219244176
14334250	0.15928096	0.217486928
14335125	0.16118408	0.220474448
14336000	0.159933968	0.217606208
14336875	0.15932088	0.216802112
14337750	0.161995648	0.219998144
14338625	0.161049376	0.217138672
14339500	0.16072632	0.217591376
14340375	0.162391696	0.219403136
14341250	0.161287232	0.216694432
14342125	0.16259656	0.2188828
14343000	0.162985536	0.218084208
14343875	0.16185616	0.215863808
14344750	0.16333784	0.218539472
14345625	0.162078	0.216108528
14346500	0.161497888	0.215314144
14347375	0.16372384	0.218350832
14348250	0.1628604	0.21570224
14349125	0.161661328	0.215316768
14350000	0.163887616	0.2181796
