# Hz S RI R 50
10100000	-0.429040704	-0.101981008
10100125	-0.433466624	-0.106424608
10100250	-0.428846464	-0.099645384
10100375	-0.435592	-0.110322192
10100500	-0.433299712	-0.10615596
10100625	-0.42873056	-0.101852072
10100750	-0.43235648	-0.105891296
10100875	-0.434185312	-0.106146712
10101000	-0.429454432	-0.101860488
10101125	-0.433525952	-0.105054488
10101250	-0.433793728	-0.104205224
10101375	-0.435941024	-0.108388464
10101500	-0.433645088	-0.105510232
10101625	-0.4292632	-0.099211184
10101750	-0.437549088	-0.110848896
10101875	-0.433687552	-0.105671032
10102000	-0.428866784	-0.100919736
10102125	-0.43368624	-0.107223256
10102250	-0.433221088	-0.105823272
10102375	-0.427859104	-0.100499856
10102500	-0.433406496	-0.104030136
10102625	-0.434770208	-0.104864624
10102750	-0.431600544	-0.10162776
10102875	-0.43344176	-0.10421
10103000	-0.432038528	-0.099850952
10103125	-0.437612256	-0.110289256
10103250	-0.43380032	-0.104822072
10103375	-0.429051808	-0.100794072
10103500	-0.435449952	-0.108819408
10103625	-0.433510752	-0.104582392
10103750	-0.4285728	-0.098060536
10103875	-0.432589024	-0.10396096
10104000	-0.434681984	-0.104561912
10104125	-0.430124832	-0.101259928
10104250	-0.433571552	-0.10340352
10104375	-0.434068096	-0.101295472
10104500	-0.43606512	-0.105860856
10104625	-0.433706176	-0.103656056
10104750	-0.429906528	-0.099954256
10104875	-0.437503584	-0.108386872
10105000	-0.433690784	-0.103710544
10105125	-0.428830432	-0.097542784
10105250	-0.433656736	-0.105120272
10105375	-0.433956352	-0.103714616
10105500	-0.429224672	-0.099178704
10105625	-0.433162048	-0.10169284
10105750	-0.434618368	-0.102073728
10105875	-0.432672832	-0.101729744
10106000	-0.433667552	-0.102554744
10106125	-0.43143856	-0.099491928
10106250	-0.437424672	-0.107553208
10106375	-0.43363248	-0.10248248
10106500	-0.429096416	-0.096417168
10106625	-0.436232672	-0.106216416
10106750	-0.433427552	-0.102401176
10106875	-0.428724288	-0.097931296
10107000	-0.432327488	-0.101930168
10107125	-0.434379296	-0.101755248
10107250	-0.429972416	-0.0979588
10107375	-0.433604256	-0.100813152
10107500	-0.433903968	-0.099856088
10107625	-0.435774528	-0.103651464
10107750	-0.433797888	-0.101341208
10107875	-0.429991904	-0.095088032
10108000	-0.437963456	-0.10600584
10108125	-0.433874496	-0.101541168
10108250	-0.429329792	-0.096869224
10108375	-0.434121056	-0.103465416
10108500	-0.433345984	-0.10108296
10108625	-0.42898032	-0.095983216
10108750	-0.433679264	-0.099177248
10108875	-0.435157696	-0.100051504
10109000	-0.432600096	-0.099899456
10109125	-0.433681184	-0.099893336
10109250	-0.432051808	-0.094794952
10109375	-0.437357024	-0.104864792
10109500	-0.433743424	-0.100011912
10109625	-0.429662912	-0.09625628
10109750	-0.434809696	-0.103918464
10109875	-0.433583776	-0.099981208
10110000	-0.428870592	-0.0937356
10110125	-0.433226016	-0.09892944
10110250	-0.434185696	-0.099711216
10110375	-0.431431136	-0.097927376
10110500	-0.433525088	-0.098345576
10110625	-0.434307808	-0.096004184
10110750	-0.435353696	-0.10025344
10110875	-0.433393056	-0.098510984
10111000	-0.429790688	-0.095287672
10111125	-0.437984896	-0.103249488
10111250	-0.433568128	-0.098260544
10111375	-0.428877472	-0.09246048
10111500	-0.433736544	-0.099908512
10111625	-0.433675584	-0.098319488
10111750	-0.428633408	-0.093873912
10111875	-0.433367872	-0.096260448
10112000	-0.434706752	-0.096123224
10112125	-0.432235488	-0.096199488
10112250	-0.433466944	-0.096310896
10112375	-0.431712256	-0.093612344
10112500	-0.43771744	-0.100296992
10112625	-0.433311744	-0.09587144
10112750	-0.428570208	-0.0892828
10112875	-0.435038368	-0.098391232
10113000	-0.432901632	-0.09406344
10113125	-0.427300256	-0.08550916
10113250	-0.429294496	-0.087920952
10113375	-0.431259328	-0.089202736
10113500	-0.428355584	-0.083675752
10113625	-0.43038976	-0.087726848
10113750	-0.43094512	-0.085738056
10113875	-0.432573984	-0.0873518
10114000	-0.430036	-0.087773896
10114125	-0.42724752	-0.081174296
10114250	-0.433606848	-0.089634856
10114375	-0.43036992	-0.087919384
10114500	-0.426612384	-0.082840904
10114625	-0.430917984	-0.088266112
10114750	-0.430089792	-0.088046944
10114875	-0.4261592	-0.082187656
10115000	-0.429802496	-0.086689104
10115125	-0.431893216	-0.086820648
10115250	-0.429606464	-0.084890592
10115375	-0.430345376	-0.087265056
10115500	-0.429357824	-0.08230292
10115625	-0.434136992	-0.089656744
10115750	-0.430941984	-0.088076056
10115875	-0.42727312	-0.08392844
10116000	-0.432697792	-0.09070424
10116125	-0.43092192	-0.089120152
10116250	-0.426797152	-0.083438368
10116375	-0.431138528	-0.090405768
10116500	-0.433719296	-0.091591136
10116625	-0.429607616	-0.089116312
10116750	-0.433161344	-0.092250672
10116875	-0.43369072	-0.09008884
10117000	-0.435325792	-0.09427156
10117125	-0.433492576	-0.093610024
10117250	-0.429903136	-0.090547984
10117375	-0.437531712	-0.099098912
10117500	-0.4333504	-0.094589728
10117625	-0.428969824	-0.088487384
10117750	-0.433998272	-0.096387352
10117875	-0.433711424	-0.095045536
10118000	-0.429424736	-0.090445816
10118125	-0.43344416	-0.093435848
10118250	-0.435130432	-0.093921272
10118375	-0.43358784	-0.096934384
10118500	-0.43407024	-0.09458124
10118625	-0.431646816	-0.092518864
10118750	-0.437663808	-0.09967444
10118875	-0.433792992	-0.095128704
10119000	-0.429338048	-0.089320776
10119125	-0.436173664	-0.099519128
10119250	-0.433897376	-0.095097176
10119375	-0.428803072	-0.09163872
10119500	-0.432715712	-0.095313144
10119625	-0.434518848	-0.095621216
10119750	-0.429998592	-0.0915928
10119875	-0.43406112	-0.094444152
10120000	-0.434146912	-0.094468016
10120125	-0.435771104	-0.09776536
10120250	-0.434088832	-0.095584184
10120375	-0.429417344	-0.088955712
10120500	-0.439007456	-0.10136436
10120625	-0.434074592	-0.095757176
10120750	-0.42847712	-0.0921246
10120875	-0.435136864	-0.098060368
10121000	-0.433936064	-0.095916608
10121125	-0.428049984	-0.091912416
10121250	-0.433431136	-0.094393688
10121375	-0.435463104	-0.096074648
10121500	-0.43300864	-0.095753792
10121625	-0.43379856	-0.095530016
10121750	-0.432100416	-0.091049224
10121875	-0.43819648	-0.101026864
10122000	-0.434065408	-0.096044184
10122125	-0.429056896	-0.092653696
10122250	-0.436910976	-0.101485936
10122375	-0.43417088	-0.096277792
10122500	-0.4280344	-0.090423768
10122625	-0.433517216	-0.096180368
10122750	-0.4352488	-0.096237864
10122875	-0.430329664	-0.09283552
10123000	-0.434187168	-0.095222976
10123125	-0.434833664	-0.09284144
10123250	-0.43556	-0.09901492
10123375	-0.434458848	-0.095836792
10123500	-0.430002848	-0.092566304
10123625	-0.439050592	-0.102565272
10123750	-0.434277728	-0.0961044
10123875	-0.42890096	-0.090355512
10124000	-0.43407856	-0.098411752
10124125	-0.434330496	-0.0961688
10124250	-0.428434432	-0.092614536
10124375	-0.43367296	-0.09413704
10124500	-0.4354264	-0.094931112
10124625	-0.431152256	-0.092251832
10124750	-0.434266656	-0.094960744
10124875	-0.43140688	-0.093301712
10125000	-0.438227904	-0.102853152
10125125	-0.434211776	-0.09558088
10125250	-0.428787456	-0.089896144
10125375	-0.437003552	-0.101804368
10125500	-0.434118592	-0.095767176
10125625	-0.428494496	-0.091766496
10125750	-0.433693344	-0.09600916
10125875	-0.435048736	-0.096015896
10126000	-0.428967968	-0.091894184
10126125	-0.434198976	-0.094724968
10126250	-0.434269184	-0.09467904
10126375	-0.436061536	-0.099348448
10126500	-0.434385728	-0.09538928
10126625	-0.429355104	-0.089633112
10126750	-0.43894608	-0.10285268
10126875	-0.434594336	-0.095244408
10127000	-0.428296992	-0.09154448
10127125	-0.43432208	-0.098763752
10127250	-0.433969376	-0.095553824
10127375	-0.42783712	-0.090914832
10127500	-0.433815296	-0.09368924
10127625	-0.435475872	-0.095935184
10127750	-0.431401664	-0.095956544
10127875	-0.43437328	-0.094427312
10128000	-0.43217552	-0.090462952
10128125	-0.43865024	-0.102628152
10128250	-0.434547456	-0.095032472
10128375	-0.428184736	-0.092019864
10128500	-0.434968416	-0.099932008
10128625	-0.433861408	-0.09501848
10128750	-0.427347168	-0.090425104
10128875	-0.433044608	-0.093309544
10129000	-0.435212032	-0.09536968
10129125	-0.430620736	-0.094188504
10129250	-0.43412416	-0.09428684
10129375	-0.432460832	-0.090447088
10129500	-0.433360608	-0.087147184
10129625	-0.42846544	-0.083587568
10129750	-0.43241024	-0.085772872
10129875	-0.434544416	-0.087039056
10130000	-0.431199808	-0.083592312
10130125	-0.433398496	-0.086069656
10130250	-0.432586304	-0.084398592
10130375	-0.436343552	-0.089642256
10130500	-0.43359072	-0.086379592
10130625	-0.42949936	-0.080611264
10130750	-0.437498496	-0.091091888
10130875	-0.433449344	-0.086182088
10131000	-0.429170272	-0.082156312
10131125	-0.433413376	-0.086990976
10131250	-0.433436352	-0.08635464
10131375	-0.429151488	-0.081234296
10131500	-0.43337664	-0.084399496
10131625	-0.434222016	-0.084081872
10131750	-0.434179232	-0.08550768
10131875	-0.433285216	-0.08445016
10132000	-0.43029104	-0.079048536
10132125	-0.438157408	-0.08872456
10132250	-0.433648096	-0.084455344
10132375	-0.429013472	-0.080054952
10132500	-0.434179008	-0.08647296
10132625	-0.432834624	-0.084082712
10132750	-0.428328064	-0.078561936
10132875	-0.431580352	-0.081871392
10133000	-0.434075616	-0.083229984
10133125	-0.430985568	-0.079938616
10133250	-0.43241488	-0.081267856
10133375	-0.432290944	-0.077016808
10133500	-0.433807968	-0.078861808
10133625	-0.430813824	-0.077067464
10133750	-0.42691664	-0.071916696
10133875	-0.434128448	-0.078905496
10134000	-0.4301168	-0.076668096
10134125	-0.42589456	-0.069930504
10134250	-0.430214528	-0.076330664
10134375	-0.430580768	-0.075967784
10134500	-0.426981568	-0.071101536
10134625	-0.430034752	-0.07438896
10134750	-0.431166208	-0.073574816
10134875	-0.430813536	-0.073804368
10135000	-0.430163072	-0.075336416
10135125	-0.427896928	-0.07113268
10135250	-0.434175776	-0.076878224
10135375	-0.430212544	-0.075276712
10135500	-0.4260816	-0.069411504
10135625	-0.431547104	-0.076428408
10135750	-0.430049184	-0.07590044
10135875	-0.427023872	-0.07142844
10136000	-0.429954368	-0.07493028
10136125	-0.432214784	-0.076030176
10136250	-0.428773024	-0.07460808
10136375	-0.432129568	-0.07800948
10136500	-0.431928512	-0.077197096
10136625	-0.436391072	-0.081508152
10136750	-0.432769824	-0.07989552
10136875	-0.428540512	-0.07463824
10137000	-0.437128704	-0.084892736
10137125	-0.432807232	-0.081034672
10137250	-0.428470816	-0.07756324
10137375	-0.433647296	-0.082049136
10137500	-0.43342752	-0.08196576
10137625	-0.42855376	-0.07727416
10137750	-0.433361952	-0.080671584
10137875	-0.434374464	-0.081008728
10138000	-0.434508288	-0.08217744
10138125	-0.433587616	-0.081607184
10138250	-0.430282176	-0.076595896
10138375	-0.438400992	-0.086611864
10138500	-0.43348592	-0.082244504
10138625	-0.428918336	-0.078347432
10138750	-0.435196064	-0.085778968
10138875	-0.433430048	-0.08248452
10139000	-0.428197952	-0.07745936
10139125	-0.43219904	-0.08085992
10139250	-0.43532928	-0.082318472
10139375	-0.431231328	-0.080475688
10139500	-0.43361184	-0.081719344
10139625	-0.433563168	-0.078446688
10139750	-0.436322848	-0.08535548
10139875	-0.433694112	-0.08231788
10140000	-0.429571232	-0.079270936
10140125	-0.437921472	-0.088102688
10140250	-0.433766464	-0.082749064
10140375	-0.427731008	-0.076974992
10140500	-0.433639712	-0.083968288
10140625	-0.434283808	-0.082603136
10140750	-0.429479584	-0.078998608
10140875	-0.433365728	-0.081036296
10141000	-0.434859872	-0.080821168
10141125	-0.432049504	-0.079383216
10141250	-0.43396928	-0.081524688
10141375	-0.430709408	-0.079149392
10141500	-0.438539808	-0.087923696
10141625	-0.433867776	-0.082148056
10141750	-0.428864384	-0.076572152
10141875	-0.43578032	-0.085508376
10142000	-0.433561056	-0.081953952
10142125	-0.428614176	-0.078451968
10142250	-0.432278112	-0.080843624
10142375	-0.435001056	-0.081348088
10142500	-0.430663392	-0.079547408
10142625	-0.43379056	-0.081115136
10142750	-0.433204736	-0.0794376
10142875	-0.437512608	-0.084982464
10143000	-0.434019232	-0.081272168
10143125	-0.428969696	-0.075351048
10143250	-0.43864128	-0.086715176
10143375	-0.433903456	-0.08140332
10143500	-0.428482816	-0.077905368
10143625	-0.43378	-0.082378512
10143750	-0.4339592	-0.08130908
10143875	-0.428633952	-0.076748424
10144000	-0.433681376	-0.079545456
10144125	-0.434620224	-0.079978312
10144250	-0.43401232	-0.081383216
10144375	-0.433980544	-0.080118568
10144500	-0.430433504	-0.074660944
10144625	-0.43902816	-0.085075784
10144750	-0.433927872	-0.080165104
10144875	-0.428871744	-0.076288704
10145000	-0.435300384	-0.084000368
10145125	-0.433630816	-0.080041168
10145250	-0.42768592	-0.07528632
10145375	-0.432449344	-0.0786228
10145500	-0.434891392	-0.079471488
10145625	-0.43069216	-0.077383824
10145750	-0.433489056	-0.078404944
10145875	-0.433288096	-0.07555584
10146000	-0.436739168	-0.082393944
10146125	-0.433581632	-0.078629232
10146250	-0.429467552	-0.075790184
10146375	-0.437837664	-0.083970352
10146500	-0.433762784	-0.07862348
10146625	-0.428192928	-0.073156088
10146750	-0.433483936	-0.079273696
10146875	-0.433655584	-0.078520584
10147000	-0.428542656	-0.075272696
10147125	-0.433269152	-0.077163744
10147250	-0.434661952	-0.076636608
10147375	-0.43380176	-0.078451344
10147500	-0.433519008	-0.07769432
10147625	-0.430287808	-0.074597512
10147750	-0.436547808	-0.081068616
10147875	-0.433520416	-0.077496488
10148000	-0.428446368	-0.072348184
10148125	-0.435598336	-0.081091296
10148250	-0.43358096	-0.077397656
10148375	-0.427776256	-0.073827576
10148500	-0.4328608	-0.076235264
10148625	-0.434689088	-0.077196168
10148750	-0.429571072	-0.074628632
10148875	-0.43348416	-0.076421192
10149000	-0.433009632	-0.075367984
10149125	-0.437236832	-0.080814832
10149250	-0.433534496	-0.07672296
10149375	-0.428841344	-0.071478344
10149500	-0.438105824	-0.082176296
10149625	-0.433554144	-0.076591456
10149750	-0.428270176	-0.073757144
10149875	-0.434038752	-0.077978792
10150000	-0.43356016	-0.076789392
