# Hz S RI R 50
7000000	0.3433576	0.177703584
7000750	0.341984192	0.174942176
7001500	0.343004064	0.175692352
7002250	0.343823648	0.180099296
7003000	0.342258016	0.174245024
7003750	0.343497088	0.178599552
7004500	0.343555968	0.179595136
7005250	0.341740992	0.17341432
7006000	0.343309536	0.178386352
7006750	0.343342144	0.177572976
7007500	0.342202848	0.172626912
7008250	0.343205408	0.177808576
7009000	0.34114448	0.17237872
7009750	0.342204864	0.171584608
7010500	0.343559232	0.17683592
7011250	0.34182768	0.17114424
7012000	0.343007648	0.173700944
7012750	0.342744992	0.176986944
7013500	0.341770112	0.170568192
7014250	0.343752096	0.176027792
7015000	0.345382784	0.176930944
7015750	0.342196448	0.169906224
7016500	0.343519872	0.175271328
7017250	0.342219616	0.172063888
7018000	0.341926272	0.169275024
7018750	0.343306624	0.174160544
7019500	0.341720032	0.1686424
7020250	0.343354432	0.169352656
7021000	0.343566272	0.174259776
7021750	0.342421824	0.168066192
7022500	0.343810784	0.172521744
7023250	0.346325792	0.174645664
7024000	0.343086496	0.167313152
7024750	0.343905664	0.17282384
7025500	0.343189792	0.171814448
7026250	0.342619712	0.166600176
7027000	0.343828192	0.172037136
7027750	0.341762816	0.166685008
7028500	0.343125952	0.16587864
7029250	0.343750016	0.171313616
7030000	0.342505504	0.165794496
7030750	0.34422384	0.168351056
7031500	0.345992224	0.1711352
7032250	0.343280096	0.16502416
7033000	0.345158656	0.170598768
7033750	0.346398016	0.171555616
7034500	0.343086528	0.163882352
7035250	0.3452384	0.169956464
7036000	0.344308768	0.16722824
7036750	0.343696096	0.163336112
7037500	0.345195008	0.168816672
7038250	0.343152576	0.163063056
7039000	0.34496096	0.16398344
7039750	0.347097792	0.168644016
7040500	0.34418464	0.16204984
7041250	0.345967168	0.1674444
7042000	0.347083904	0.169272896
7042750	0.344504352	0.161657216
7043500	0.346545568	0.168024144
7044250	0.34743968	0.167293568
7045000	0.34512608	0.161274496
7045750	0.34638688	0.1673616
7046500	0.344120224	0.161541232
7047250	0.345486656	0.160167552
7048000	0.34793696	0.165927488
7048750	0.34512656	0.16023136
7049500	0.346708928	0.162876256
7050250	0.347840992	0.16677216
7051000	0.346024768	0.159823776
7051750	0.348359424	0.165577584
7052500	0.351094368	0.166330592
7053250	0.346433536	0.159192672
7054000	0.348420768	0.16523216
7054750	0.346688192	0.161909984
7055500	0.347018912	0.158603728
7056250	0.348863328	0.164037664
7057000	0.346353504	0.158115312
7057750	0.347785344	0.158745824
7058500	0.349690016	0.164528032
7059250	0.347417664	0.157325216
7060000	0.350776736	0.162295904
7060750	0.352804032	0.164656208
7061500	0.34821168	0.156800768
7062250	0.350487456	0.162898752
7063000	0.350554336	0.162196896
7063750	0.348771008	0.15641032
7064500	0.351141344	0.162827008
7065250	0.34799632	0.15663608
7066000	0.349677536	0.155432576
7066750	0.351223552	0.161942848
7067500	0.349017088	0.1551084
7068250	0.351591456	0.158199584
7069000	0.355275168	0.161896576
7069750	0.349749344	0.15444832
7070500	0.35304336	0.161247648
7071250	0.354820736	0.162365456
7072000	0.350833344	0.15442688
7072750	0.353300992	0.160786448
7073500	0.350356448	0.155265056
7074250	0.351474368	0.153746832
7075000	0.354635232	0.160145328
7075750	0.351306688	0.153448144
7076500	0.353788352	0.156422912
7077250	0.355780544	0.160973536
7078000	0.352230432	0.153340048
7078750	0.355894304	0.159239632
7079500	0.358729408	0.159543104
7080250	0.35296016	0.152439664
7081000	0.356082912	0.15877888
7081750	0.353897024	0.156272704
7082500	0.353583552	0.152015488
7083250	0.356687136	0.157855872
7084000	0.353261696	0.151530576
7084750	0.355224384	0.15192064
7085500	0.357874624	0.157592512
7086250	0.354541376	0.150568896
7087000	0.357704832	0.155467152
7087750	0.361358688	0.157487216
7088500	0.355232704	0.150214016
7089250	0.35844864	0.156845776
7090000	0.358741536	0.157037648
7090750	0.355753408	0.14940072
7091500	0.358728064	0.155879696
7092250	0.355335392	0.150813168
7093000	0.35655552	0.148857856
7093750	0.35936896	0.1553684
7094500	0.355708768	0.148479072
7095250	0.359006272	0.151234048
7096000	0.362593952	0.154048048
7096750	0.357236192	0.147940368
7097500	0.360765504	0.154564432
7098250	0.363496704	0.15561704
7099000	0.357785152	0.147225696
7099750	0.361440672	0.15363944
7100500	0.360574432	0.151291776
7101250	0.358458528	0.1467752
7102000	0.3618728	0.152982208
7102750	0.35794272	0.146458976
7103500	0.36035136	0.146489136
7104250	0.364066368	0.152358096
7105000	0.3593656	0.145579344
7105750	0.363035872	0.150614064
7106500	0.365775072	0.15377856
7107250	0.360056064	0.144939712
7108000	0.364652544	0.151539648
7108750	0.366022304	0.15117816
7109500	0.360644608	0.144495264
7110250	0.364896992	0.151152336
7111000	0.360475616	0.145756544
7111750	0.36174496	0.143434816
7112500	0.365907744	0.149392336
7113250	0.361270112	0.143282064
7114000	0.364348128	0.146155408
7114750	0.367718656	0.150644048
7115500	0.362117792	0.142276096
7116250	0.366711424	0.1491252
7117000	0.369881984	0.14866576
7117750	0.362998496	0.14147688
7118500	0.367157248	0.148660928
7119250	0.364903968	0.146064128
7120000	0.363320992	0.141415008
7120750	0.367652064	0.147787648
7121500	0.362386624	0.1407796
7122250	0.365301088	0.141228272
7123000	0.369027072	0.147435248
7123750	0.363921664	0.139815792
7124500	0.368428192	0.144356704
7125250	0.371697024	0.145852112
7126000	0.364797152	0.138962528
7126750	0.369562016	0.145736256
7127500	0.370586016	0.146002208
7128250	0.365540704	0.138563712
7129000	0.369833504	0.145126384
7129750	0.365554176	0.140405104
7130500	0.366739616	0.13803856
7131250	0.370683488	0.144466736
7132000	0.36579392	0.137630352
7132750	0.369201696	0.13940248
7133500	0.37372304	0.142656064
7134250	0.366920672	0.136641024
7135000	0.372225056	0.14323056
7135750	0.374262528	0.143776832
7136500	0.367376672	0.1356192
7137250	0.372461792	0.142795616
7138000	0.37099776	0.140056768
7138750	0.36810064	0.13492808
7139500	0.37265296	0.14192104
7140250	0.366983328	0.134828192
7141000	0.369624896	0.134584352
7141750	0.374389344	0.139575344
7142500	0.368346912	0.133651344
7143250	0.373073024	0.138937088
7144000	0.376592096	0.14117176
7144750	0.369399296	0.13307272
7145500	0.374971712	0.1398192
7146250	0.377093696	0.139044512
7147000	0.369865184	0.132535456
7147750	0.375126624	0.139214816
7148500	0.370310336	0.134132592
7149250	0.370739296	0.131388976
7150000	0.37604432	0.137514944
7150750	0.370190912	0.131144928
7151500	0.374339232	0.133426008
7152250	0.378498656	0.137650224
7153000	0.371277312	0.130127568
7153750	0.377275072	0.136603424
7154500	0.38106528	0.136102544
7155250	0.372021632	0.129205584
7156000	0.377924288	0.136271184
7156750	0.3760032	0.134221392
7157500	0.37292288	0.128625576
7158250	0.378758432	0.135319536
7159000	0.371743744	0.128587184
7159750	0.374926208	0.127836944
7160500	0.3804504	0.1345404
7161250	0.373127552	0.127412424
7162000	0.378955072	0.13146572
7162750	0.38267632	0.132269744
7163500	0.374320064	0.125978096
7164250	0.380796576	0.133336768
7165000	0.38255264	0.13348244
7165750	0.3752128	0.12576784
7166500	0.381415648	0.132562
7167250	0.37630512	0.128121856
7168000	0.376547008	0.124584856
7168750	0.382763552	0.131213624
7169500	0.375675872	0.124326512
7170250	0.379936864	0.125986456
7171000	0.384876672	0.128695328
7171750	0.376709408	0.123252168
7172500	0.384188416	0.129758824
7173250	0.387503968	0.130751224
7174000	0.377836544	0.122540552
7174750	0.384588608	0.12900396
7175500	0.382526048	0.126449096
7176250	0.378906848	0.121813656
7177000	0.385645312	0.128497688
7177750	0.37772064	0.122022456
7178500	0.380873568	0.121128904
7179250	0.38696384	0.125694096
7180000	0.379483072	0.120299576
7180750	0.385657408	0.1247826
7181500	0.389958816	0.126917424
7182250	0.380527424	0.119301896
7183000	0.388014528	0.125567064
7183750	0.3897992	0.124529224
7184500	0.381602752	0.118681696
7185250	0.388578464	0.125027808
7186000	0.382966368	0.121161168
7186750	0.38238032	0.117678392
7187500	0.389289696	0.123506824
7188250	0.381838496	0.117382376
7189000	0.38666384	0.118916328
7189750	0.391809152	0.122793056
7190500	0.382817984	0.116242656
7191250	0.390833984	0.122267944
7192000	0.39365168	0.120985984
7192750	0.383652096	0.115120512
7193500	0.391239744	0.121726032
7194250	0.38961088	0.119811848
7195000	0.384523264	0.114592832
7195750	0.391695488	0.12068124
7196500	0.38327184	0.114643824
7197250	0.386314464	0.11354092
7198000	0.393821824	0.118947128
7198750	0.384939776	0.113058472
7199500	0.3915976	0.11605364
7200250	0.395392352	0.116572312
7201000	0.386151232	0.112009312
7201750	0.394142848	0.117983336
7202500	0.39645456	0.117982872
7203250	0.386826432	0.11114516
7204000	0.394646976	0.116890736
7204750	0.388775808	0.113457304
7205500	0.388306112	0.109817536
7206250	0.395793216	0.1156544
7207000	0.386786624	0.109725056
7207750	0.392028192	0.11036924
7208500	0.397283904	0.11303028
7209250	0.388075328	0.108546336
7210000	0.396742592	0.114219208
7210750	0.400144064	0.1139346
7211500	0.389136064	0.107816784
7212250	0.397427104	0.113379536
7213000	0.3952592	0.111206968
7213750	0.389666688	0.106387992
7214500	0.397691456	0.112583488
7215250	0.388384064	0.107044976
7216000	0.390994656	0.105087024
7216750	0.398804928	0.109692072
7217500	0.389909312	0.10518124
7218250	0.396666656	0.108327264
7219000	0.401890752	0.109994304
7219750	0.39044656	0.104255056
7220500	0.399493824	0.109443912
7221250	0.401618272	0.107963016
7222000	0.391271264	0.102736288
7222750	0.400105728	0.108479
7223500	0.393720416	0.10583444
7224250	0.391888384	0.102289008
7225000	0.40040112	0.106699936
7225750	0.391166528	0.102166344
7226500	0.396792576	0.102358928
7227250	0.402925888	0.10588596
7228000	0.391987808	0.099984984
7228750	0.40158336	0.105337704
7229500	0.404712096	0.1040292
7230250	0.393154496	0.099136392
7231000	0.40267072	0.104904088
7231750	0.400974944	0.103530608
7232500	0.393763936	0.098139704
7233250	0.402642592	0.10375748
7234000	0.392542176	0.099239648
7234750	0.39557808	0.09702664
7235500	0.404460096	0.101813944
7236250	0.394119392	0.097192032
7237000	0.40142	0.099113584
7237750	0.405657312	0.099761856
7238500	0.394715616	0.09584376
7239250	0.40463376	0.10084508
7240000	0.407568096	0.100383376
7240750	0.3951216	0.094555744
7241500	0.40485488	0.099770616
7242250	0.398172416	0.097235936
7243000	0.3961496	0.093193168
7243750	0.40557936	0.098596752
7244500	0.39495808	0.094024656
7245250	0.399944736	0.093929168
7246000	0.406610816	0.0956692
7246750	0.395759328	0.092127864
7247500	0.4062192	0.09656824
7248250	0.409656192	0.09614332
7249000	0.396557824	0.090744432
7249750	0.406769504	0.09592728
7250500	0.404922816	0.094567904
7251250	0.397043296	0.089855736
7252000	0.406970112	0.094700088
7252750	0.39616368	0.091756592
7253500	0.39857312	0.088570696
7254250	0.408435232	0.092812264
7255000	0.3973328	0.088717
7255750	0.405563744	0.090531832
7256500	0.411614912	0.091708736
7257250	0.398780768	0.087370368
7258000	0.409324512	0.091558616
7258750	0.411614688	0.09041704
7259500	0.399373184	0.085922528
7260250	0.409877376	0.090763
7261000	0.4032592	0.089075856
7261750	0.400242464	0.085037016
7262500	0.410593056	0.089093264
7263250	0.399336352	0.085535616
7264000	0.405222432	0.084706568
7264750	0.412951648	0.087245816
7265500	0.40047472	0.083582648
7266250	0.4113896	0.08684852
7267000	0.413862496	0.085532264
7267750	0.401257856	0.082171504
7268500	0.412279712	0.086332888
7269250	0.41061952	0.085758496
7270000	0.401922528	0.081103312
7270750	0.41283296	0.085268904
7271500	0.401653312	0.083353744
7272250	0.403596928	0.079419328
7273000	0.414674272	0.083254896
7273750	0.403077312	0.079925944
7274500	0.411865952	0.079881568
7275250	0.417148416	0.07975052
7276000	0.405922816	0.077254912
7276750	0.417370432	0.079989728
7277500	0.420290688	0.078683056
7278250	0.407223136	0.075201912
7279000	0.418244352	0.078561968
7279750	0.412204928	0.077908256
7280500	0.408987264	0.07358804
7281250	0.4191704	0.076648808
7282000	0.40785488	0.07479716
7282750	0.412506592	0.072952
7283500	0.420099072	0.073930912
7284250	0.408985184	0.072684528
7285000	0.419464448	0.07457756
7285750	0.423211808	0.073304432
7286500	0.409235744	0.07112932
7287250	0.42054704	0.073818632
7288000	0.41854656	0.072812688
7288750	0.410039392	0.070038704
7289500	0.420676736	0.073020744
7290250	0.409771008	0.072273168
7291000	0.411132256	0.068609728
7291750	0.420696928	0.070306152
7292500	0.409389312	0.06960224
7293250	0.417943264	0.069197808
7294000	0.422776128	0.068939896
7294750	0.409895296	0.068032768
7295500	0.421033824	0.0704216
7296250	0.422184064	0.068993528
7297000	0.407522176	0.0682344
7297750	0.41891856	0.071403032
7298500	0.411177536	0.071536032
7299250	0.40620032	0.067721632
7300000	0.41778976	0.070740672
