# Hz S RI R 50
3500000	-0.588120704	-0.164467712
3501250	-0.587843264	-0.1630928
3502500	-0.588346752	-0.162979936
3503750	-0.58793312	-0.160839696
3505000	-0.588642752	-0.16161904
3506250	-0.58844	-0.160302496
3507500	-0.588743616	-0.157470672
3508750	-0.588777216	-0.159242992
3510000	-0.588516288	-0.156979504
3511250	-0.588564352	-0.15515768
3512500	-0.589149248	-0.156978832
3513750	-0.588503296	-0.154490224
3515000	-0.589181376	-0.153410416
3516250	-0.589436736	-0.154445504
3517500	-0.588748672	-0.151885792
3518750	-0.589620992	-0.15275416
3520000	-0.589688192	-0.152001552
3521250	-0.589384448	-0.149890032
3522500	-0.58973888	-0.15056128
3523750	-0.589657536	-0.148519664
3525000	-0.588517952	-0.14576432
3526250	-0.59007424	-0.148376592
3527500	-0.589293248	-0.145791584
3528750	-0.589373248	-0.143492752
3530000	-0.590107136	-0.145777824
3531250	-0.58973376	-0.143468384
3532500	-0.589535872	-0.143120864
3533750	-0.590402816	-0.143453968
3535000	-0.590234112	-0.140785312
3536250	-0.590345344	-0.141855232
3537500	-0.590764032	-0.140704336
3538750	-0.589739648	-0.137938384
3540000	-0.590643136	-0.139358736
3541250	-0.59006528	-0.137129152
3542500	-0.590247232	-0.134763264
3543750	-0.590920384	-0.136853072
3545000	-0.590301248	-0.134812624
3546250	-0.590329344	-0.133631648
3547500	-0.591260224	-0.134576912
3548750	-0.590719808	-0.132320136
3550000	-0.591163456	-0.132870424
3551250	-0.591283008	-0.132095488
3552500	-0.590227008	-0.129955936
3553750	-0.591099456	-0.130521136
3555000	-0.59084672	-0.128787536
3556250	-0.59035584	-0.126719296
3557500	-0.591511936	-0.128161296
3558750	-0.590613632	-0.12622908
3560000	-0.590254208	-0.12433412
3561250	-0.5914096	-0.125650048
3562500	-0.590598784	-0.123627376
3563750	-0.59125472	-0.123491496
3565000	-0.591639488	-0.123689696
3566250	-0.590991872	-0.121631528
3567500	-0.591653696	-0.121800344
3568750	-0.591401728	-0.120508392
3570000	-0.590073728	-0.11789804
3571250	-0.5916896	-0.119470712
3572500	-0.591056064	-0.117496368
3573750	-0.591013632	-0.114493744
3575000	-0.591547008	-0.11686968
3576250	-0.590868096	-0.114463464
3577500	-0.59066624	-0.112788856
3578750	-0.591766208	-0.114620992
3580000	-0.590894272	-0.11205608
3581250	-0.591355136	-0.112844816
3582500	-0.59189728	-0.112440424
3583750	-0.591356224	-0.10967696
3585000	-0.591760896	-0.110667336
3586250	-0.591396096	-0.108897616
3587500	-0.590794304	-0.106450504
3588750	-0.592051072	-0.108482568
3590000	-0.59090144	-0.106046384
3591250	-0.591149312	-0.103944008
3592500	-0.591719424	-0.106133016
3593750	-0.590770112	-0.103707272
3595000	-0.59178336	-0.103444928
3596250	-0.591724352	-0.103718144
3597500	-0.590529856	-0.10065976
3598750	-0.591973632	-0.102121304
3600000	-0.591680704	-0.100767816
3601250	-0.590365504	-0.098469232
3602500	-0.591892608	-0.099821592
3603750	-0.591183552	-0.097137176
3605000	-0.590380352	-0.095414464
3606250	-0.591927744	-0.097486984
3607500	-0.591006656	-0.095017304
3608750	-0.591052544	-0.093793792
3610000	-0.591852736	-0.095017096
3611250	-0.591054528	-0.092576944
3612500	-0.591873344	-0.093216312
3613750	-0.591675648	-0.092427072
3615000	-0.590545088	-0.0900762
3616250	-0.591737536	-0.091190888
3617500	-0.590979904	-0.089061624
3618750	-0.590876672	-0.086311568
3620000	-0.591497792	-0.08876728
3621250	-0.590656256	-0.086204784
3622500	-0.590254976	-0.082898488
3623750	-0.59188768	-0.086436352
3625000	-0.590516864	-0.083535304
3626250	-0.591047872	-0.083612664
3627500	-0.591523456	-0.084113304
3628750	-0.59082784	-0.081543288
3630000	-0.59148256	-0.082501656
3631250	-0.591043456	-0.081077112
3632500	-0.590656128	-0.078507216
3633750	-0.591524736	-0.080089832
3635000	-0.590702208	-0.077548048
3636250	-0.590328704	-0.075160088
3637500	-0.591415552	-0.077651544
3638750	-0.590053824	-0.075096384
3640000	-0.591067648	-0.07379384
3641250	-0.591072832	-0.075480296
3642500	-0.59017888	-0.07241256
3643750	-0.591100608	-0.073502024
3645000	-0.59119616	-0.07274736
3646250	-0.589377792	-0.070146224
3647500	-0.591017344	-0.071402856
3648750	-0.590133952	-0.069319536
3650000	-0.589113856	-0.066684528
3651250	-0.591037504	-0.06888092
3652500	-0.589370048	-0.066060216
3653750	-0.589898304	-0.063357108
3655000	-0.590780096	-0.06657882
3656250	-0.5889296	-0.064311708
3657500	-0.590123648	-0.063799812
3658750	-0.590512064	-0.064265012
3660000	-0.588910656	-0.061354504
3661250	-0.590361472	-0.0626861
3662500	-0.590048576	-0.06044632
3663750	-0.588688192	-0.058426824
3665000	-0.590537408	-0.060453948
3666250	-0.588785536	-0.0577095
3667500	-0.58848672	-0.055429948
3668750	-0.590137216	-0.057673024
3670000	-0.5888336	-0.055922852
3671250	-0.589025856	-0.054344944
3672500	-0.589640704	-0.055777992
3673750	-0.587983104	-0.052520676
3675000	-0.589508032	-0.053668484
3676250	-0.589489856	-0.052721488
3677500	-0.588334528	-0.049813084
3678750	-0.589146048	-0.05142222
3680000	-0.588051264	-0.049453984
3681250	-0.586933952	-0.04719986
3682500	-0.58883584	-0.04936696
3683750	-0.587329216	-0.047274288
3685000	-0.586708928	-0.043676888
3686250	-0.588768704	-0.047042892
3687500	-0.587352576	-0.04422812
3688750	-0.58810624	-0.044049252
3690000	-0.588700288	-0.044509648
3691250	-0.586738496	-0.041409788
3692500	-0.588167424	-0.042978408
3693750	-0.587434432	-0.041416468
3695000	-0.585600704	-0.038154516
3696250	-0.5878752	-0.040813624
3697500	-0.586080448	-0.037774796
3698750	-0.586086656	-0.035542212
3700000	-0.587938304	-0.038379224
3701250	-0.585929728	-0.035706124
3702500	-0.586030144	-0.034304868
3703750	-0.587434496	-0.035998656
3705000	-0.58607552	-0.033737832
3706250	-0.587203776	-0.034511468
3707500	-0.5870336	-0.033481316
3708750	-0.585379072	-0.030581726
3710000	-0.586733312	-0.032190848
3711250	-0.585808064	-0.029622572
3712500	-0.584758336	-0.027029228
3713750	-0.58646752	-0.029854608
3715000	-0.584527616	-0.027108012
3716250	-0.584019264	-0.025044668
3717500	-0.586007808	-0.027788596
3718750	-0.584628992	-0.024578348
3720000	-0.585608192	-0.024851532
3721250	-0.585536	-0.025429986
3722500	-0.58372128	-0.022459358
3723750	-0.585665024	-0.023762328
3725000	-0.584117568	-0.022239162
3726250	-0.582506496	-0.019251032
3727500	-0.585095616	-0.021470706
3728750	-0.583248768	-0.018942622
3730000	-0.582374976	-0.015654421
3731250	-0.584705472	-0.019459986
3732500	-0.582520384	-0.016708913
3733750	-0.583173248	-0.015244074
3735000	-0.584549248	-0.01699482
3736250	-0.582836544	-0.01438655
3737500	-0.584323072	-0.0154116
3738750	-0.583346944	-0.014325256
3740000	-0.582293056	-0.012484289
3741250	-0.583743424	-0.013222866
3742500	-0.581990272	-0.010785178
3743750	-0.580834176	-0.007483031
3745000	-0.583332608	-0.01108436
3746250	-0.580839488	-0.00847236
3747500	-0.580484992	-0.005625366
3748750	-0.583031552	-0.008671751
3750000	-0.580613888	-0.006230277
3751250	-0.581525504	-0.006641097
3752500	-0.582166912	-0.006480372
3753750	-0.580817216	-0.004507271
3755000	-0.582091392	-0.004927534
3756250	-0.580911424	-0.003411187
3757500	-0.578670592	-0.000516975
3758750	-0.581726464	-0.002979019
3760000	-0.579679936	-0.000896342
3761250	-0.57774368	0.002539956
3762500	-0.581415616	-0.000715027
3763750	-0.578984832	0.001944116
3765000	-0.579599552	0.003082322
3766250	-0.580901312	0.001425562
3767500	-0.579180864	0.003777822
3768750	-0.580458816	0.003056502
3770000	-0.58008736	0.004142282
3771250	-0.577804544	0.007518498
3772500	-0.580017984	0.005545429
3773750	-0.577845824	0.007626823
3775000	-0.576551872	0.01102593
3776250	-0.578904128	0.008311957
3777500	-0.576352256	0.010857463
3778750	-0.576071872	0.013272411
3780000	-0.578521792	0.010552899
3781250	-0.575745408	0.013288159
3782500	-0.577152896	0.013503442
3783750	-0.577597632	0.013511853
3785000	-0.574750208	0.015910611
3786250	-0.577209536	0.01479893
3787500	-0.5762448	0.015941674
3788750	-0.574443584	0.019395644
3790000	-0.576640064	0.016864814
3791250	-0.574681024	0.019438072
3792500	-0.573093504	0.022359038
3793750	-0.576277632	0.019001802
3795000	-0.573750208	0.02124022
3796250	-0.574116352	0.022426004
3797500	-0.575849792	0.021250776
3798750	-0.573048384	0.02337804
3800000	-0.575069312	0.022629672
3801250	-0.5750912	0.023238474
3802500	-0.571985856	0.026208744
3803750	-0.57498688	0.024900706
3805000	-0.572855616	0.02665094
3806250	-0.571679616	0.02947898
3807500	-0.57436736	0.026715204
3808750	-0.57192864	0.028844098
3810000	-0.57121344	0.030734424
3811250	-0.573937792	0.028650176
3812500	-0.571162112	0.030559144
3813750	-0.572863808	0.030683968
3815000	-0.573769472	0.030453646
3816250	-0.571355968	0.03284599
3817500	-0.573993856	0.031452212
3818750	-0.572501952	0.032480274
3820000	-0.570530432	0.03540582
3821250	-0.573889728	0.032775804
3822500	-0.571180096	0.035333488
3823750	-0.570096128	0.038501172
3825000	-0.573468288	0.034726004
3826250	-0.570556672	0.037139196
3827500	-0.5708704	0.038136804
3828750	-0.572912448	0.036980164
3830000	-0.570698816	0.039169072
3831250	-0.572724032	0.038142132
3832500	-0.57240928	0.039266316
3833750	-0.569891904	0.041583608
3835000	-0.571941888	0.04020468
3836250	-0.570134656	0.042507852
3837500	-0.567912768	0.045663184
3838750	-0.571942912	0.042060588
3840000	-0.568927168	0.04403062
3841250	-0.56735488	0.047321136
3842500	-0.571448	0.04408558
3843750	-0.56872448	0.046143548
3845000	-0.570500096	0.046090392
3846250	-0.570674048	0.046265124
3847500	-0.56793312	0.04885818
3848750	-0.570642432	0.047405436
3850000	-0.569064768	0.04911356
3851250	-0.566932032	0.051854348
3852500	-0.570409088	0.049523788
3853750	-0.566810496	0.051284928
3855000	-0.565380864	0.054518308
3856250	-0.56986464	0.051376928
3857500	-0.567284928	0.053398008
3858750	-0.567964864	0.053964688
3860000	-0.569241152	0.053424584
3861250	-0.566610496	0.055790804
3862500	-0.568940288	0.054847168
3863750	-0.568234432	0.055727
3865000	-0.565220992	0.058641236
3866250	-0.568382144	0.056721548
3867500	-0.566030528	0.05856478
3868750	-0.563463872	0.061864508
3870000	-0.567797184	0.058913416
3871250	-0.56498016	0.060854384
3872500	-0.5637408	0.063815556
3873750	-0.56741984	0.061113544
3875000	-0.564269824	0.062650116
3876250	-0.566122176	0.063472496
3877500	-0.56693792	0.062889568
3878750	-0.563835136	0.065286176
3880000	-0.56640256	0.064369964
3881250	-0.564683584	0.066123128
3882500	-0.5615328	0.069085448
3883750	-0.56626752	0.06665828
3885000	-0.563270464	0.068595944
3886250	-0.560697536	0.072115016
3887500	-0.56549952	0.06866956
3888750	-0.562127168	0.070763968
3890000	-0.562986112	0.071661976
3891250	-0.564791552	0.070889408
3892500	-0.561890752	0.072573104
3893750	-0.564713216	0.072885296
3895000	-0.563672576	0.073491256
3896250	-0.560509568	0.076199808
3897500	-0.563967168	0.074430168
3898750	-0.561306752	0.075911824
3900000	-0.558289856	0.079592856
3901250	-0.563772416	0.076381624
3902500	-0.559993856	0.078470056
3903750	-0.559088576	0.080965384
3905000	-0.562776832	0.078553344
3906250	-0.55981248	0.080244456
3907500	-0.56205984	0.080241272
3908750	-0.562331776	0.080573576
3910000	-0.55860928	0.082342112
3911250	-0.561566656	0.082216272
3912500	-0.560154112	0.083500248
3913750	-0.556781568	0.086711256
3915000	-0.561280768	0.08418236
3916250	-0.557512576	0.086117088
3917500	-0.555583488	0.088646376
3918750	-0.55855328	0.086246568
3920000	-0.556853888	0.088437608
3921250	-0.557436544	0.089271456
3922500	-0.5596848	0.088614208
3923750	-0.556381248	0.08955588
3925000	-0.559351744	0.090157704
3926250	-0.55812608	0.09125612
3927500	-0.554866496	0.093089928
3928750	-0.558733312	0.091950272
3930000	-0.55565728	0.09333756
3931250	-0.552598656	0.096284688
3932500	-0.55814464	0.094007264
3933750	-0.554765504	0.094862904
3935000	-0.552441984	0.097884864
3936250	-0.55768128	0.096204136
3937500	-0.554059776	0.0974368
3938750	-0.556297088	0.098513712
3940000	-0.556747584	0.098254584
3941250	-0.553152256	0.100223072
3942500	-0.556463488	0.099873624
3943750	-0.554325824	0.100768144
3945000	-0.55014592	0.103512448
3946250	-0.555620672	0.101771552
3947500	-0.552500864	0.102866024
3948750	-0.548991744	0.10650852
3950000	-0.555223488	0.103813664
3951250	-0.551176832	0.105129728
3952500	-0.551580672	0.1064626
3953750	-0.55421216	0.106349616
3955000	-0.550962112	0.107217904
3956250	-0.553648384	0.107404872
3957500	-0.552718272	0.10869368
3958750	-0.545924992	0.112907056
3960000	-0.552299776	0.110657152
3961250	-0.549069056	0.111329648
3962500	-0.546670656	0.113777504
3963750	-0.551717504	0.112826696
3965000	-0.54773792	0.113607112
3966250	-0.550498112	0.11419876
3967500	-0.55102432	0.115054608
3968750	-0.547598336	0.11590448
3970000	-0.550169792	0.11630604
3971250	-0.548954752	0.117111704
3972500	-0.545389696	0.119030696
3973750	-0.549659072	0.118314256
3975000	-0.546328384	0.118766872
3976250	-0.542358144	0.121852568
3977500	-0.548862976	0.120362832
3978750	-0.5450656	0.121105272
3980000	-0.545262784	0.122435544
3981250	-0.548173824	0.122700416
3982500	-0.544756096	0.123206888
3983750	-0.546728448	0.124223712
3985000	-0.546431296	0.124489592
3986250	-0.542245568	0.12622292
3987500	-0.546799296	0.125825208
3988750	-0.544146112	0.126632792
3990000	-0.539411968	0.129066976
3991250	-0.545839936	0.128040568
3992500	-0.542590848	0.128217888
3993750	-0.54014656	0.131015136
3995000	-0.545159168	0.1302996
3996250	-0.541905024	0.13089752
3997500	-0.5439632	0.131893304
3998750	-0.54428256	0.13214624
4000000	-0.539970624	0.132759032
