# Hz S RI R 50
3500000	-0.577228032	-0.149485312
3565500	-0.578893568	-0.10643308
3631000	-0.578659328	-0.066722208
3696500	-0.57404	-0.025673046
3762000	-0.563091968	0.01589623
3827500	-0.557296256	0.049438148
3893000	-0.543687104	0.086820344
3958500	-0.53117568	0.1239806
4024000	-0.516664672	0.157440848
4089500	-0.494790112	0.190732912
4155000	-0.478599104	0.2240612
4220500	-0.454679296	0.25641232
4286000	-0.430601792	0.287311744
4351500	-0.395796224	0.312354496
4417000	-0.370251136	0.341367264
4482500	-0.332118816	0.359343584
4548000	-0.294968608	0.36952832
4613500	-0.262622272	0.394582656
4679000	-0.223476256	0.401635936
4744500	-0.184982208	0.407246784
4810000	-0.144305888	0.416168544
4875500	-0.104378224	0.406625696
4941000	-0.06283824	0.40541952
5006500	-0.023154964	0.39045568
5072000	0.003776363	0.36416688
5137500	0.044268308	0.344076224
5203000	0.061053884	0.304238144
5268500	0.062790216	0.275460448
5334000	0.083160208	0.231552592
5399500	0.058415452	0.202770816
5465000	0.036818684	0.19610056
5530500	0.028636998	0.172318288
5596000	0.007069054	0.184751904
5661500	-0.005189076	0.187672352
5727000	-0.012433363	0.195647696
5792500	-0.012554694	0.2178524
5858000	-0.013295392	0.225739472
5923500	-0.004538409	0.243163072
5989000	0.008264544	0.25927392
6054500	0.015486198	0.2701848
6120000	0.036354092	0.282447296
6185500	0.057058208	0.289583456
6251000	0.069261664	0.297309504
6316500	0.090447792	0.30395456
6382000	0.114277864	0.312105856
6447500	0.142687296	0.319324032
6513000	0.174295888	0.318177248
6578500	0.208965104	0.310556672
6644000	0.240619168	0.296928064
6709500	0.268704704	0.279524832
6775000	0.295205408	0.25689104
6840500	0.3152824	0.233295584
6906000	0.328696192	0.209147648
6971500	0.34019968	0.18375104
7037000	0.352674976	0.170516368
7102500	0.369582816	0.153611264
7168000	0.381489824	0.124817808
7233500	0.403599712	0.1036414
7299000	0.40887056	0.072237344
7364500	0.413593024	0.038612248
7430000	0.431164896	0.003807433
7495500	0.419538144	-0.016994336
7561000	0.420089856	-0.05692396
7626500	0.417350752	-0.099760136
7692000	0.413233344	-0.104563104
7757500	0.395698528	-0.151210336
7823000	0.379652864	-0.175726176
7888500	0.391780032	-0.1914668
7954000	0.360334752	-0.219665584
8019500	0.35178528	-0.245607232
8085000	0.345269952	-0.277543136
8150500	0.315255936	-0.285686816
8216000	0.296619104	-0.321821152
8281500	0.277944224	-0.336527328
8347000	0.264727824	-0.341744896
8412500	0.231239216	-0.372783008
8478000	0.217561312	-0.382309056
8543500	0.192232016	-0.406277568
8609000	0.156382208	-0.416012192
8674500	0.137991328	-0.430879008
8740000	0.09365176	-0.433852096
8805500	0.07062808	-0.444511648
8871000	0.042439756	-0.45756288
8936500	0.009050996	-0.452002624
9002000	-0.023468616	-0.454686496
9067500	-0.057650468	-0.4593328
9133000	-0.089056672	-0.4485864
9198500	-0.12193	-0.445631136
9264000	-0.153508672	-0.43686112
9329500	-0.184669856	-0.41897344
9395000	-0.221286224	-0.406214976
9460500	-0.246087296	-0.3912888
9526000	-0.273254304	-0.366183168
9591500	-0.306428416	-0.342278688
9657000	-0.327536832	-0.320061216
9722500	-0.34801856	-0.290329152
9788000	-0.374053856	-0.25510168
9853500	-0.387449312	-0.227055488
9919000	-0.40242096	-0.192421664
9984500	-0.413306176	-0.151251712
10050000	-0.417106784	-0.118217848
10115500	-0.42050176	-0.076675264
10181000	-0.420399968	-0.041878468
10246500	-0.41000272	-0.005984814
10312000	-0.395824736	0.03049318
10377500	-0.391139232	0.063802764
10443000	-0.364502752	0.091197704
10508500	-0.342997216	0.11577544
10574000	-0.324081568	0.142640336
10639500	-0.29869056	0.161781136
10705000	-0.274145728	0.183205616
10770500	-0.246317648	0.192473792
10836000	-0.216002256	0.208247792
10901500	-0.181370048	0.219062976
10967000	-0.159606256	0.213442496
11032500	-0.124449296	0.21493392
11098000	-0.092353624	0.207599216
11163500	-0.081214296	0.19680576
11229000	-0.053582392	0.182347168
11294500	-0.035691724	0.166220256
11360000	-0.029180532	0.152764944
11425500	-0.016533394	0.131871344
11491000	-0.01453155	0.120064552
11556500	-0.012818379	0.104258888
11622000	-0.011054327	0.08863508
11687500	-0.013378926	0.084328432
11753000	-0.013573742	0.07036772
11818500	-0.015444161	0.0574869
11884000	-0.017976562	0.058649764
11949500	-0.021247168	0.043774256
12015000	-0.025664706	0.032617044
12080500	-0.028867612	0.03685514
12146000	-0.039931056	0.022303782
12211500	-0.044958208	0.019135326
12277000	-0.05095936	0.01885891
12342500	-0.071424896	0.011972042
12408000	-0.07434056	0.013414185
12473500	-0.092562608	0.016243607
12539000	-0.112912984	0.02595377
12604500	-0.111087208	0.02893918
12670000	-0.129863736	0.044354944
12735500	-0.1406768	0.06337692
12801000	-0.137800256	0.0649805
12866500	-0.14674752	0.091068
12932000	-0.147008256	0.107922488
12997500	-0.145990096	0.113596312
13063000	-0.142053952	0.141780832
13128500	-0.13911168	0.151847056
13194000	-0.131644744	0.169198352
13259500	-0.115593888	0.190611456
13325000	-0.112144096	0.1989672
13390500	-0.09370056	0.216713504
13456000	-0.071248728	0.228434336
13521500	-0.067006028	0.237409056
13587000	-0.03935178	0.246122224
13652500	-0.016745607	0.251312048
13718000	-0.008820176	0.260490544
13783500	0.019337496	0.259008672
13849000	0.038232216	0.26009136
13914500	0.056794784	0.262249504
13980000	0.080715584	0.251753328
14045500	0.099173488	0.251856112
14111000	0.11937344	0.241540736
14176500	0.135310864	0.226325344
14242000	0.154842416	0.221576976
14307500	0.167790896	0.204139424
14373000	0.180313408	0.188622848
14438500	0.198569728	0.178107696
14504000	0.2069436	0.15987904
14569500	0.216357968	0.143242304
14635000	0.228893792	0.12589528
14700500	0.233370592	0.10736708
14766000	0.240831952	0.088080664
14831500	0.245334896	0.068028128
14897000	0.246199168	0.048637448
14962500	0.247753568	0.027762188
15028000	0.245341184	0.007478355
15093500	0.241466992	-0.012119602
15159000	0.236022656	-0.032764856
15224500	0.228006192	-0.051842624
15290000	0.218552416	-0.07035248
15355500	0.205800208	-0.0872706
15421000	0.19151952	-0.103150592
15486500	0.17614288	-0.11639456
15552000	0.158529232	-0.127003728
15617500	0.140376784	-0.135977968
15683000	0.122604072	-0.141746528
15748500	0.104387608	-0.145570272
15814000	0.085695584	-0.148939792
15879500	0.069301432	-0.147213968
15945000	0.051379988	-0.14664824
16010500	0.032121298	-0.1444172
16076000	0.019970726	-0.137149776
16141500	0.003057084	-0.130404744
16207000	-0.013341683	-0.12131356
16272500	-0.021637308	-0.111091608
16338000	-0.034280572	-0.098358024
16403500	-0.04203152	-0.085140568
16469000	-0.048878584	-0.072157984
16534500	-0.055174248	-0.055490456
16600000	-0.055612628	-0.042034036
16665500	-0.057874928	-0.028072396
16731000	-0.05663768	-0.008314795
16796500	-0.050829668	0.000649644
16862000	-0.04764602	0.016569632
16927500	-0.038857484	0.03464222
16993000	-0.030701998	0.03667968
17058500	-0.022216772	0.051187368
17124000	-0.008035401	0.05958804
17189500	0.002410099	0.063775608
17255000	0.01954471	0.073528536
17320500	0.030705214	0.072593752
17386000	0.046514548	0.075560176
17451500	0.06910904	0.074487184
17517000	0.07703584	0.070409616
17582500	0.098310584	0.064196
17648000	0.119824736	0.047706244
17713500	0.122792728	0.048848972
17779000	0.139949392	0.034025224
17844500	0.148839296	0.011425478
17910000	0.158158864	0.007013654
17975500	0.165105984	-0.015697292
18041000	0.169773744	-0.030117916
18106500	0.172904704	-0.047787924
18172000	0.16894168	-0.068725344
18237500	0.17020168	-0.08490964
18303000	0.163231392	-0.100754432
18368500	0.151820704	-0.114718144
18434000	0.153014128	-0.134092824
18499500	0.142887712	-0.14751456
18565000	0.13218644	-0.156163536
18630500	0.125719872	-0.177439408
18696000	0.11371184	-0.188493264
18761500	0.101348536	-0.20075672
18827000	0.087211864	-0.216552768
18892500	0.072742936	-0.225490928
18958000	0.055066436	-0.2380088
19023500	0.03898212	-0.245651408
19089000	0.02150164	-0.250111408
19154500	-0.003124937	-0.259071408
19220000	-0.021366322	-0.261823184
19285500	-0.038804132	-0.261344048
19351000	-0.066628328	-0.263272464
19416500	-0.084980176	-0.261446272
19482000	-0.103606576	-0.25670752
19547500	-0.130246832	-0.2507672
19613000	-0.148842144	-0.24443216
19678500	-0.169967232	-0.23455832
19744000	-0.189168	-0.224315344
19809500	-0.206363664	-0.213427632
19875000	-0.227550032	-0.196607728
19940500	-0.243624368	-0.183912688
20006000	-0.258068912	-0.16878184
20071500	-0.275549248	-0.143887776
20137000	-0.288236864	-0.126951856
20202500	-0.29864288	-0.108233704
20268000	-0.308734208	-0.07878184
20333500	-0.316890016	-0.058298944
20399000	-0.321684256	-0.034634056
20464500	-0.324563232	-0.007617194
20530000	-0.326965504	0.014971972
20595500	-0.32488432	0.04130688
20661000	-0.323364032	0.064352036
20726500	-0.31974496	0.086290216
20792000	-0.310639488	0.112149944
20857500	-0.304976448	0.133149896
20923000	-0.296172128	0.152978784
20988500	-0.282214208	0.176729888
21054000	-0.271981696	0.195075152
21119500	-0.25935856	0.212295872
21185000	-0.241968736	0.232910992
21250500	-0.228554096	0.248219088
21316000	-0.210094592	0.264652944
21381500	-0.19271016	0.279290944
21447000	-0.176692544	0.291414944
21512500	-0.153196624	0.304664736
21578000	-0.136786272	0.316113248
21643500	-0.118770184	0.323857536
21709000	-0.090277224	0.33188288
21774500	-0.072643552	0.339653568
21840000	-0.054275412	0.344492672
21905500	-0.023614338	0.346173568
21971000	-0.005049707	0.351063904
22036500	0.01746097	0.350314368
22102000	0.043843564	0.34700912
22167500	0.062967016	0.348408
22233000	0.087707648	0.340331552
22298500	0.108967944	0.339501056
22364000	0.127884328	0.3361376
22429500	0.151320416	0.320765504
22495000	0.17255112	0.318070048
22560500	0.190175184	0.312144512
22626000	0.210094624	0.291425152
22691500	0.23164192	0.28483472
22757000	0.248542496	0.274902752
22822500	0.264471232	0.252853568
22888000	0.284985184	0.241470416
22953500	0.297837216	0.223307104
23019000	0.315101312	0.204913808
23084500	0.3325184	0.188982576
23150000	0.340224896	0.164985024
23215500	0.357426496	0.145038768
23281000	0.371820128	0.127026128
23346500	0.372173952	0.09934244
23412000	0.385504448	0.075715752
23477500	0.39619024	0.054648792
23543000	0.3909392	0.02690174
23608500	0.399093952	0.000940327
23674000	0.400952832	-0.02196132
23739500	0.39543168	-0.048537252
23805000	0.397984832	-0.075557376
23870500	0.390199392	-0.097664264
23936000	0.387019232	-0.126286928
24001500	0.38492944	-0.1532292
24067000	0.369608288	-0.171881312
24132500	0.362330592	-0.202349248
24198000	0.354829472	-0.227671408
24263500	0.334691872	-0.241720864
24329000	0.321415232	-0.271022912
24394500	0.308326176	-0.29362704
24460000	0.286650912	-0.305107296
24525500	0.266407488	-0.33107616
24591000	0.24945944	-0.3453776
24656500	0.225462464	-0.360440544
24722000	0.201227568	-0.380734912
24787500	0.180712112	-0.388802368
24853000	0.149337152	-0.404474112
24918500	0.126148656	-0.419299136
24984000	0.10400148	-0.419903136
25049500	0.070233344	-0.42862928
25115000	0.044483364	-0.439675616
25180500	0.022113054	-0.436141184
25246000	-0.01232764	-0.436218816
25311500	-0.038196888	-0.441409056
25377000	-0.062220072	-0.43573728
25442500	-0.093232128	-0.429423104
25508000	-0.1180206	-0.4271272
25573500	-0.14685568	-0.4158512
25639000	-0.175952576	-0.410115328
25704500	-0.19644824	-0.399244608
25770000	-0.222455472	-0.382873376
25835500	-0.253397264	-0.373906112
25901000	-0.2693528	-0.357748992
25966500	-0.291378016	-0.338331584
26032000	-0.320287936	-0.32271712
26097500	-0.333539808	-0.303141824
26163000	-0.352378432	-0.281709216
26228500	-0.373287424	-0.260871776
26294000	-0.386764704	-0.236824992
26359500	-0.404814688	-0.212522576
26425000	-0.414441184	-0.18803144
26490500	-0.427879904	-0.162319552
26556000	-0.437993824	-0.136422544
26621500	-0.44481696	-0.108350672
26687000	-0.456500704	-0.076651816
26752500	-0.458057728	-0.053996392
26818000	-0.460476352	-0.026519304
26883500	-0.4621192	0.002528102
26949000	-0.46550064	0.038073936
27014500	-0.460728416	0.057993396
27080000	-0.458465344	0.094170112
27145500	-0.453202624	0.114678824
27211000	-0.446494208	0.14351512
27276500	-0.437824384	0.178569184
27342000	-0.429028768	0.197030096
27407500	-0.417360832	0.22492632
27473000	-0.402779264	0.255394096
27538500	-0.390073984	0.274224416
27604000	-0.374189792	0.299761664
27669500	-0.355868512	0.32294944
27735000	-0.332256	0.349725728
27800500	-0.317156192	0.36631088
27866000	-0.29435936	0.386846912
27931500	-0.266415232	0.40925552
27997000	-0.248076304	0.422033504
28062500	-0.221464832	0.439141728
28128000	-0.191491744	0.455466912
28193500	-0.168506864	0.46550224
28259000	-0.138479552	0.478054304
28324500	-0.109777712	0.48719472
28390000	-0.080561344	0.493885088
28455500	-0.0455868	0.500069792
28521000	-0.019212094	0.50349664
28586500	0.012803738	0.505491968
28652000	0.049915772	0.504392576
28717500	0.073707896	0.50227088
28783000	0.106681216	0.498778784
28848500	0.143223168	0.491246944
28914000	0.165887504	0.483808448
28979500	0.198414736	0.474240736
29045000	0.229354304	0.461219392
29110500	0.253849216	0.447987392
29176000	0.285866752	0.430804032
29241500	0.309834528	0.414720096
29307000	0.336772448	0.394854336
29372500	0.364591232	0.36811072
29438000	0.382342976	0.35185696
29503500	0.406709504	0.325834432
29569000	0.430778176	0.292757728
29634500	0.442742912	0.274865216
29700000	0.46200768	0.243643296
