# Hz S RI R 50
28000000	-0.007205029	-0.168833568
28004250	-0.009987527	-0.162859248
28008500	-0.008985094	-0.164998208
28012750	-0.010493105	-0.159658096
28017000	-0.012220919	-0.158893264
28021250	-0.011039638	-0.161676992
28025500	-0.013752098	-0.153337136
28029750	-0.013889533	-0.15549168
28034000	-0.013281581	-0.15637152
28038250	-0.016689072	-0.149470112
28042500	-0.01614583	-0.15043448
28046750	-0.015416248	-0.152529616
28051000	-0.016346379	-0.146544576
28055250	-0.015785877	-0.149311136
28059500	-0.016506328	-0.146711824
28063750	-0.017209942	-0.143998336
28068000	-0.016722011	-0.14717264
28072250	-0.017852168	-0.138565856
28076500	-0.018784928	-0.140137488
28080750	-0.01814071	-0.141586992
28085000	-0.020951686	-0.13344152
28089250	-0.020379374	-0.135517008
28093500	-0.01959245	-0.137313136
28097750	-0.021314472	-0.130179928
28102000	-0.020112584	-0.132605328
28106250	-0.020088934	-0.13198128
28110500	-0.02065789	-0.12831168
28114750	-0.020216472	-0.130710856
28119000	-0.01989997	-0.124614592
28123250	-0.021189668	-0.12535824
28127500	-0.02078781	-0.126203464
28131750	-0.022130556	-0.118167632
28136000	-0.022168792	-0.120148088
28140250	-0.021671606	-0.121932232
28144500	-0.023044496	-0.114019096
28148750	-0.021896676	-0.116812256
28153000	-0.022055956	-0.11716224
28157250	-0.02222727	-0.111745112
28161500	-0.021433494	-0.113648224
28165750	-0.021322752	-0.111645624
28170000	-0.021293044	-0.110018088
28174250	-0.02148468	-0.111492704
28178500	-0.020812238	-0.103792088
28182750	-0.021569042	-0.105101248
28187000	-0.021635904	-0.106849856
28191250	-0.021543984	-0.098507192
28195500	-0.021020114	-0.101394112
28199750	-0.021065294	-0.10194408
28204000	-0.021414652	-0.09474748
28208250	-0.02015871	-0.097044616
28212500	-0.020513066	-0.097502264
28216750	-0.019602004	-0.09375564
28221000	-0.019712702	-0.096077688
28225250	-0.018360204	-0.090303656
28229500	-0.018673394	-0.090341152
28233750	-0.01912373	-0.0922086
28238000	-0.017871778	-0.08354908
28242250	-0.017714356	-0.08678864
28246500	-0.017892306	-0.087065912
28250750	-0.017752308	-0.079057128
28255000	-0.016442707	-0.082163424
28259250	-0.016882496	-0.083427216
28263500	-0.015854156	-0.077944792
28267750	-0.015276395	-0.080762328
28272000	-0.014500692	-0.078151768
28276250	-0.013877704	-0.076397952
28280500	-0.014385182	-0.07822072
28284750	-0.01151127	-0.070368288
28289000	-0.012242209	-0.072969112
28293250	-0.012223262	-0.073484632
28297500	-0.010873752	-0.065526756
28301750	-0.010218324	-0.068889416
28306000	-0.010601522	-0.069580928
28310250	-0.009154622	-0.062742016
28314500	-0.008356745	-0.066998756
28318750	-0.008546365	-0.065531308
28323000	-0.006703297	-0.062638484
28327250	-0.006716598	-0.06462454
28331500	-0.003843408	-0.059443608
28335750	-0.00461392	-0.060080132
28340000	-0.004433339	-0.060862024
28344250	-0.001364518	-0.053041792
28348500	-0.002044502	-0.056477524
28352750	-0.002405929	-0.057361812
28357000	0.000094363	-0.049671752
28361250	0.000618687	-0.053922812
28365500	0.000157715	-0.053630452
28369750	0.002764337	-0.049313156
28374000	0.002894412	-0.052010176
28378250	0.004008751	-0.049832888
28382500	0.005164016	-0.049216652
28386750	0.004867555	-0.049762668
28391000	0.00978384	-0.043571724
28395250	0.008403569	-0.046373152
28399500	0.007751588	-0.0466859
28403750	0.012071129	-0.039098552
28408000	0.011186231	-0.044111436
28412250	0.011243538	-0.04352558
28416500	0.014550549	-0.03732994
28420750	0.014822208	-0.04130342
28425000	0.014788936	-0.0406517
28429250	0.01724436	-0.038928504
28433500	0.016903098	-0.040429432
28437750	0.021268698	-0.035869372
28442000	0.020509138	-0.037288156
28446250	0.019945784	-0.037904044
28450500	0.025934502	-0.030728588
28454750	0.02378483	-0.035737568
28459000	0.023878486	-0.03527136
28463250	0.02870228	-0.02850001
28467500	0.02793096	-0.033253928
28471750	0.027551592	-0.03335248
28476000	0.031065108	-0.02960446
28480250	0.030586206	-0.032901004
28484500	0.032849898	-0.031129558
28488750	0.034014368	-0.030737836
28493000	0.033659792	-0.03173341
28497250	0.040241032	-0.026466402
28501500	0.037702092	-0.029875446
28505750	0.038287812	-0.029499232
28510000	0.044004448	-0.023685656
28514250	0.042446616	-0.028135058
28518500	0.041977228	-0.028321614
28522750	0.046725816	-0.02341586
28527000	0.045728076	-0.02824106
28531250	0.046705584	-0.026650738
28535500	0.04931008	-0.025930916
28539750	0.048983828	-0.027807868
28544000	0.053916852	-0.024447688
28548250	0.053018904	-0.02621192
28552500	0.053309616	-0.026333384
28556750	0.060737676	-0.021349886
28561000	0.057423912	-0.025770034
28565250	0.05735384	-0.025821832
28569500	0.0637796	-0.020591944
28573750	0.061471876	-0.026022132
28578000	0.061779556	-0.025209236
28582250	0.06622888	-0.022902466
28586500	0.065474688	-0.02612286
28590750	0.068048056	-0.024600624
28595000	0.068818176	-0.02534259
28599250	0.069063448	-0.026131024
28603500	0.07668512	-0.02275075
28607750	0.073580872	-0.025874722
28612000	0.073546232	-0.02592679
28616250	0.081029536	-0.02188986
28620500	0.077537072	-0.026862434
28624750	0.078105544	-0.026355654
28629000	0.084148752	-0.022905884
28633250	0.082020816	-0.027618558
28637500	0.082856352	-0.02695331
28641750	0.085466128	-0.027207702
28646000	0.08531344	-0.028682524
28650250	0.090848744	-0.026969058
28654500	0.089440416	-0.028808318
28658750	0.089474968	-0.029355584
28663000	0.098491968	-0.02627912
28667250	0.093471712	-0.030736138
28671500	0.094335208	-0.030291426
28675750	0.101659808	-0.026954362
28680000	0.09842072	-0.031974458
28684250	0.098664712	-0.031837992
28688500	0.103369576	-0.030923708
28692750	0.101754872	-0.034111452
28697000	0.104336752	-0.033562052
28701250	0.105384896	-0.034939936
28705500	0.105318008	-0.035735796
28709750	0.113285576	-0.034346024
28714000	0.109253496	-0.037230156
28718250	0.110087688	-0.037333116
28722500	0.117334224	-0.034797872
28726750	0.113624256	-0.039413404
28731000	0.113993208	-0.039416644
28735250	0.120401424	-0.037513012
28739500	0.117078456	-0.04240544
28743750	0.118681152	-0.041634048
28748000	0.121184072	-0.042843812
28752250	0.120512464	-0.044968328
28756500	0.126808616	-0.044124684
28760750	0.124140064	-0.04647564
28765000	0.124739352	-0.047011524
28769250	0.13312504	-0.046151588
28773500	0.128153872	-0.049635732
28777750	0.128654064	-0.050089064
28782000	0.136236512	-0.04851802
28786250	0.131388056	-0.053564488
28790500	0.132450864	-0.05305348
28794750	0.136914576	-0.053531004
28799000	0.134577328	-0.056709544
28803250	0.13762536	-0.056569652
28807500	0.13778824	-0.058684212
28811750	0.138062176	-0.05971184
28816000	0.14571192	-0.060259996
28820250	0.140941168	-0.062458464
28824500	0.141328416	-0.063050204
28828750	0.149295168	-0.062854536
28833000	0.143824832	-0.066974036
28837250	0.144761888	-0.066920268
28841500	0.151098432	-0.06734244
28845750	0.146795248	-0.070974016
28850000	0.148141104	-0.071294824
28854250	0.150036208	-0.07324864
28858500	0.149355536	-0.075147136
28862750	0.15510872	-0.076475016
28867000	0.151966992	-0.078115416
28871250	0.152143072	-0.079013784
28875500	0.16054328	-0.080486208
28879750	0.154141664	-0.0830516
28884000	0.155215504	-0.083288168
28888250	0.162816528	-0.084287672
28892500	0.156749648	-0.087415968
28896750	0.157574736	-0.088051304
28901000	0.161688832	-0.089818784
28905250	0.158364896	-0.092525088
28909500	0.162050432	-0.093595912
28913750	0.160904048	-0.095335128
28918000	0.160577984	-0.09700096
28922250	0.168406752	-0.099593576
28926500	0.1625024	-0.100732624
28930750	0.163261584	-0.101641776
28935000	0.170553808	-0.103780016
28939250	0.164182	-0.105712552
28943500	0.164547696	-0.106675544
28947750	0.170746896	-0.108907264
28952000	0.165181648	-0.11137424
28956250	0.16691424	-0.112097872
28960500	0.16800712	-0.114513472
28964750	0.166413008	-0.116579784
28969000	0.172435104	-0.1191282
28973250	0.168142208	-0.120163512
28977500	0.168306448	-0.121268592
28981750	0.176170608	-0.126103864
28986000	0.168977488	-0.125740544
28990250	0.16906904	-0.126642736
28994500	0.176493408	-0.12986104
28998750	0.16926592	-0.131700736
29003000	0.170358496	-0.132209184
29007250	0.17344392	-0.135062288
29011500	0.169767024	-0.13699392
29015750	0.17286072	-0.138780368
29020000	0.171073488	-0.140619648
29024250	0.170734688	-0.14212488
29028500	0.1773076	-0.147637472
29032750	0.170954624	-0.146267168
29037000	0.170838928	-0.147521504
29041250	0.177886784	-0.152462032
29045500	0.170615536	-0.152438656
29049750	0.171036448	-0.1531044
29054000	0.176300976	-0.1572412
29058250	0.170354096	-0.157970896
29062500	0.171611968	-0.159347008
29066750	0.171907312	-0.162069712
29071000	0.169787488	-0.163704432
29075250	0.17467952	-0.167997152
29079500	0.17009936	-0.167654016
29083750	0.169529888	-0.169178064
29088000	0.17595736	-0.175616864
29092250	0.16889152	-0.173654352
29096500	0.168914864	-0.174399824
29100750	0.175022032	-0.179731424
29105000	0.1681244	-0.179156368
29109250	0.168064624	-0.180670672
29113500	0.170446512	-0.184125152
29117750	0.166244416	-0.185160816
29122000	0.16900664	-0.188359664
29126250	0.166488576	-0.189108528
29130500	0.164876352	-0.190706496
29134750	0.170578736	-0.197633728
29139000	0.164234256	-0.194972672
29143250	0.16398064	-0.196084752
29147500	0.16910688	-0.202395328
29151750	0.162569984	-0.200277456
29156000	0.162021264	-0.20148528
29160250	0.165906624	-0.206432608
29164500	0.159585584	-0.20634864
29168750	0.160728624	-0.2078688
29173000	0.160144912	-0.210429536
29177250	0.157337168	-0.211718432
29181500	0.161756336	-0.217242016
29185750	0.156751264	-0.215805328
29190000	0.155942784	-0.216780512
29194250	0.160335696	-0.224570048
29198500	0.154223792	-0.22086792
29202750	0.153123232	-0.221867024
29207000	0.157960736	-0.228210448
29211250	0.150780096	-0.226701312
29215500	0.150996736	-0.227565264
29219750	0.15195144	-0.231836624
29224000	0.147783792	-0.23171856
29228250	0.14988232	-0.235545648
29232500	0.146602112	-0.235696688
29236750	0.145322336	-0.236765392
29241000	0.148654528	-0.244770384
29245250	0.143207312	-0.240494656
29249500	0.14172384	-0.241217008
29253750	0.145374784	-0.249067392
29258000	0.138830768	-0.246142736
29262250	0.138831712	-0.246260208
29266500	0.141061584	-0.252225104
29270750	0.135714032	-0.250285712
29275000	0.135911216	-0.252204992
29279250	0.134451248	-0.25473312
29283500	0.1324414	-0.255224944
29287750	0.131090656	-0.255856128
29292000	0.132073952	-0.2608284
29296250	0.12738444	-0.259994272
29300500	0.12860076	-0.262839728
29304750	0.126183224	-0.263649344
29309000	0.12337096	-0.26415816
29313250	0.125880632	-0.272313888
29317500	0.120884728	-0.268182992
29321750	0.120228064	-0.268029296
29326000	0.122001784	-0.276048608
29330250	0.117439016	-0.272035488
29334500	0.115958864	-0.27183888
29338750	0.117417976	-0.278540672
29343000	0.111790344	-0.276456544
29347250	0.11204468	-0.277197568
29351500	0.110504688	-0.280524896
29355750	0.107423688	-0.279806688
29360000	0.108828208	-0.286083296
29364250	0.104768472	-0.283688736
29368500	0.103411008	-0.283437088
29372750	0.104024104	-0.29249872
29377000	0.10005892	-0.287129408
29381250	0.0985622	-0.286307136
29385500	0.099857624	-0.294572704
29389750	0.093953568	-0.291222464
29394000	0.09412092	-0.290475552
29398250	0.093210592	-0.296017824
29402500	0.089593264	-0.293626208
29406750	0.089412984	-0.296860544
29411000	0.086587016	-0.296959616
29415250	0.085340472	-0.296669376
29419500	0.084425528	-0.305201632
29423750	0.081754152	-0.300128192
29428000	0.080273744	-0.298919072
29432250	0.079854512	-0.307945984
29436500	0.075544456	-0.303469792
29440750	0.075741	-0.302394528
29445000	0.074962504	-0.308778496
29449250	0.070901248	-0.305625408
29453500	0.0701	-0.306495488
29457750	0.067737688	-0.30900432
29462000	0.065053984	-0.307460384
29466250	0.06476628	-0.314244192
29470500	0.06170258	-0.311024384
29474750	0.06040972	-0.309525248
29479000	0.059024452	-0.318948096
29483250	0.055409168	-0.313331936
29487500	0.056075884	-0.312048992
29491750	0.054669296	-0.319394784
29496000	0.051295388	-0.315746272
29500250	0.05070686	-0.314180512
29504500	0.048386892	-0.319372128
29508750	0.04517898	-0.316722752
29513000	0.0446401	-0.320213504
29517250	0.041582568	-0.319690784
29521500	0.040178912	-0.317860768
29525750	0.037637984	-0.327095776
29530000	0.035024992	-0.32122256
29534250	0.03566016	-0.31948256
29538500	0.03226082	-0.327187584
29542750	0.03013128	-0.3229192
29547000	0.03008225	-0.32067456
29551250	0.027376078	-0.327679776
29555500	0.023268204	-0.323564576
29559750	0.023733458	-0.323966368
29564000	0.02028264	-0.326749888
29568250	0.019368726	-0.324043712
29572500	0.016497337	-0.33146944
29576750	0.014191789	-0.327083264
29581000	0.015010495	-0.325449184
29585250	0.010842406	-0.332739904
29589500	0.00917141	-0.328468672
29593750	0.009900895	-0.325834176
29598000	0.006207398	-0.332819808
29602250	0.002009302	-0.328999296
29606500	0.003856246	-0.327770016
29610750	-0.000243565	-0.331610016
29615000	-0.001966718	-0.328668576
29619250	-0.004188292	-0.332328768
29623500	-0.006645029	-0.330800288
29627750	-0.006423026	-0.329283968
29632000	-0.012161109	-0.3371672
29636250	-0.012451694	-0.331295808
29640500	-0.011137396	-0.328878976
29644750	-0.016464968	-0.335744704
29649000	-0.019316728	-0.331418624
29653250	-0.016434001	-0.330475424
29657500	-0.021405894	-0.335263104
29661750	-0.023350202	-0.331630048
29666000	-0.023316908	-0.332674336
29670250	-0.02750174	-0.332812512
29674500	-0.027289546	-0.331099712
29678750	-0.032178398	-0.336185792
29683000	-0.03328278	-0.332752704
29687250	-0.031793808	-0.330682144
29691500	-0.037990688	-0.337243392
29695750	-0.039980476	-0.331981184
29700000	-0.03621974	-0.330655168
