# Hz S RI R 50
24890000	-0.17045184	0.510586688
24890250	-0.169197408	0.509357088
24890500	-0.169990672	0.510255232
24890750	-0.173347168	0.508612288
24891000	-0.1686332	0.509554432
24891250	-0.169825072	0.510825024
24891500	-0.172762096	0.509328128
24891750	-0.168293536	0.509321568
24892000	-0.170146048	0.51015616
24892250	-0.169970416	0.509362624
24892500	-0.168537184	0.51041776
24892750	-0.171681904	0.509526144
24893000	-0.167711312	0.509837344
24893250	-0.168730128	0.51085056
24893500	-0.171862064	0.509235968
24893750	-0.167163248	0.5101688
24894000	-0.168298048	0.51148224
24894250	-0.17105968	0.509843776
24894500	-0.16664384	0.510161952
24894750	-0.167684592	0.511278336
24895000	-0.16982904	0.509634624
24895250	-0.16674424	0.510278272
24895500	-0.169454288	0.51003568
24895750	-0.166582384	0.5100448
24896000	-0.16712656	0.510880768
24896250	-0.1697748	0.50976992
24896500	-0.165812112	0.510472352
24896750	-0.166655072	0.511301696
24897000	-0.169598624	0.509978656
24897250	-0.16516568	0.510426528
24897500	-0.166183888	0.511792
24897750	-0.169380624	0.509965408
24898000	-0.165024688	0.510636448
24898250	-0.167169024	0.511361824
24898500	-0.16631944	0.510804544
24898750	-0.165210416	0.511314944
24899000	-0.167968784	0.510606592
24899250	-0.164225136	0.510742496
24899500	-0.165468432	0.51168848
24899750	-0.168320896	0.510213664
24900000	-0.163954272	0.510584896
24900250	-0.164972064	0.511754048
24900500	-0.168066128	0.510088032
24900750	-0.163490944	0.510744448
24901000	-0.165071296	0.511848736
24901250	-0.166272448	0.510770336
24901500	-0.16353848	0.510854784
24901750	-0.165877936	0.510924928
24902000	-0.163266816	0.510963456
24902250	-0.163794352	0.511829376
24902500	-0.166672064	0.510692672
24902750	-0.162370624	0.511208416
24903000	-0.16321344	0.512244
24903250	-0.166460224	0.510844096
24903500	-0.161975168	0.511483968
24903750	-0.162968656	0.51264192
24904000	-0.1657204	0.511268736
24904250	-0.161533792	0.511190944
24904500	-0.163396704	0.511854656
24904750	-0.163189792	0.511157696
24905000	-0.161954624	0.511857024
24905250	-0.165047312	0.51107776
24905500	-0.161111424	0.511207392
24905750	-0.16190232	0.51232672
24906000	-0.164662032	0.510992288
24906250	-0.160463984	0.511366432
24906500	-0.161508448	0.512461312
24906750	-0.164443728	0.51113696
24907000	-0.159901312	0.511214144
24907250	-0.161107088	0.512504352
24907500	-0.163027744	0.5113824
24907750	-0.159895616	0.51175536
24908000	-0.162766912	0.512020288
24908250	-0.159749056	0.511796288
24908500	-0.160142592	0.512880192
24908750	-0.163050352	0.511603168
24909000	-0.159048112	0.512136448
24909250	-0.159989216	0.513158144
24909500	-0.163050272	0.511402304
24909750	-0.158484368	0.511615232
24910000	-0.159446592	0.512917152
24910250	-0.162769696	0.511512992
24910500	-0.158337824	0.51191312
24910750	-0.160466016	0.512608288
24911000	-0.159629824	0.511816032
24911250	-0.158577024	0.512583552
24911500	-0.161400512	0.511972192
24911750	-0.157588672	0.512282368
24912000	-0.158615312	0.51351552
24912250	-0.161371456	0.512089376
24912500	-0.156896448	0.512340128
24912750	-0.15803992	0.513578528
24913000	-0.16140368	0.511783072
24913250	-0.156588432	0.512448544
24913500	-0.158110416	0.513556672
24913750	-0.159351952	0.512380128
24914000	-0.156472192	0.512461056
24914250	-0.159060272	0.512437216
24914500	-0.15643984	0.51235968
24914750	-0.157085952	0.513108608
24915000	-0.159917696	0.512132512
24915250	-0.155621152	0.51236784
24915500	-0.15657232	0.513647424
24915750	-0.159699712	0.512077152
24916000	-0.15516616	0.512526144
24916250	-0.156344752	0.513896096
24916500	-0.159024352	0.512591904
24916750	-0.15463856	0.5126248
24917000	-0.156562768	0.513429056
24917250	-0.156357168	0.51282352
24917500	-0.155154976	0.51360016
24917750	-0.158165264	0.512990944
24918000	-0.154289392	0.51302624
24918250	-0.155096128	0.51402848
24918500	-0.157985248	0.512685728
24918750	-0.153746576	0.512948224
24919000	-0.154878416	0.514126304
24919250	-0.157662112	0.512646272
24919500	-0.153233088	0.51265072
24919750	-0.154345712	0.514033088
24920000	-0.156228576	0.512416416
24920250	-0.153020192	0.512957088
24920500	-0.156009952	0.51315136
24920750	-0.152871504	0.512734944
24921000	-0.153802832	0.5136184
24921250	-0.155854512	0.512938016
24921500	-0.152087264	0.513267328
24921750	-0.153200176	0.514295392
24922000	-0.15608376	0.513067648
24922250	-0.151690832	0.51327664
24922500	-0.152575328	0.51457488
24922750	-0.155966784	0.513044416
24923000	-0.151486688	0.51344656
24923250	-0.153557632	0.514405312
24923500	-0.1526908	0.513451104
24923750	-0.151610624	0.514080512
24924000	-0.154603728	0.51332032
24924250	-0.150716368	0.513368256
24924500	-0.151667664	0.514383328
24924750	-0.154564288	0.513198208
24925000	-0.15008464	0.513379936
24925250	-0.151204496	0.514460384
24925500	-0.154511184	0.513166368
24925750	-0.149927792	0.51338656
24926000	-0.151224944	0.514686048
24926250	-0.152496016	0.513723488
24926500	-0.149642416	0.514019072
24926750	-0.152356896	0.514102112
24927000	-0.1494264	0.513913632
24927250	-0.150006112	0.514739456
24927500	-0.152984208	0.513915488
24927750	-0.148649072	0.514000288
24928000	-0.149568272	0.51490848
24928250	-0.152915376	0.513358176
24928500	-0.14842256	0.513847584
24928750	-0.149360912	0.515147552
24929000	-0.152191216	0.513748832
24929250	-0.148091888	0.513715136
24929500	-0.149875952	0.514369024
24929750	-0.149553856	0.513773216
24930000	-0.148416832	0.514524416
24930250	-0.151343184	0.513814336
24930500	-0.147295488	0.513995776
24930750	-0.14818176	0.51515232
24931000	-0.151074784	0.513741728
24931250	-0.14684024	0.51408208
24931500	-0.148044528	0.515370656
24931750	-0.150740112	0.513888608
24932000	-0.146272272	0.513865472
24932250	-0.147294336	0.515268992
24932500	-0.149365344	0.513901408
24932750	-0.14642904	0.5140568
24933000	-0.14928512	0.5143808
24933250	-0.146082816	0.513994944
24933500	-0.146850752	0.515088864
24933750	-0.149609216	0.514127072
24934000	-0.14537568	0.514221312
24934250	-0.146468832	0.515410592
24934500	-0.149440928	0.51420032
24934750	-0.144841488	0.51407408
24935000	-0.145868688	0.51554096
24935250	-0.149272096	0.514069984
24935500	-0.144700592	0.514342144
24935750	-0.146698944	0.515282976
24936000	-0.145813632	0.514336768
24936250	-0.145099936	0.515025152
24936500	-0.147746256	0.514415872
24936750	-0.143915824	0.514563264
24937000	-0.144975216	0.515561824
24937250	-0.147691792	0.514429504
24937500	-0.143320192	0.514451968
24937750	-0.144263744	0.51540464
24938000	-0.147536768	0.514208736
24938250	-0.142987264	0.514492864
24938500	-0.144541376	0.515587328
24938750	-0.14526552	0.51470608
24939000	-0.142875664	0.514721088
24939250	-0.145463616	0.51511328
24939500	-0.142611216	0.514605152
24939750	-0.142889024	0.515450464
24940000	-0.146204512	0.514745888
24940250	-0.14187392	0.514855552
24940500	-0.142715104	0.516012192
24940750	-0.145921568	0.51483024
24941000	-0.141422272	0.51516336
24941250	-0.142643344	0.516512704
24941500	-0.145085616	0.51523632
24941750	-0.141060512	0.514979232
24942000	-0.143153472	0.515705632
24942250	-0.142534544	0.514931808
24942500	-0.14146448	0.515791648
24942750	-0.14457904	0.515168416
24943000	-0.140643088	0.514987872
24943250	-0.141591616	0.516265504
24943500	-0.144155376	0.51520432
24943750	-0.140098512	0.515226848
24944000	-0.141299856	0.51632272
24944250	-0.143759568	0.515225664
24944500	-0.13966104	0.515076704
24944750	-0.140608096	0.516298816
24945000	-0.142377072	0.515113888
24945250	-0.139470944	0.515648192
24945500	-0.142632256	0.5157224
24945750	-0.139174832	0.51536864
24946000	-0.1398572	0.516321248
24946250	-0.142930672	0.515416864
24946500	-0.13875728	0.515726624
24946750	-0.13968544	0.51670128
24947000	-0.142773344	0.51546448
24947250	-0.13823552	0.515326848
24947500	-0.139153408	0.516865504
24947750	-0.142486848	0.51541824
24948000	-0.138150016	0.51558304
24948250	-0.140252272	0.5165016
24948500	-0.139162336	0.515855616
24948750	-0.13830096	0.51632976
24949000	-0.141319968	0.516030496
24949250	-0.137481152	0.515889952
24949500	-0.13838312	0.51713104
24949750	-0.141029728	0.51589936
24950000	-0.136882304	0.515826752
24950250	-0.137900176	0.517053856
24950500	-0.14082376	0.515807456
24950750	-0.136474096	0.516066912
24951000	-0.137819472	0.517652448
24951250	-0.138807744	0.51639472
24951500	-0.136493888	0.516086624
24951750	-0.139046704	0.51667744
24952000	-0.13608872	0.516312896
24952250	-0.136704352	0.517186944
24952500	-0.139757344	0.516257216
24952750	-0.135560496	0.51617312
24953000	-0.136236944	0.51724768
24953250	-0.139695632	0.516153888
24953500	-0.135079312	0.516347776
24953750	-0.135964608	0.51773424
24954000	-0.138800432	0.516613376
24954250	-0.134586432	0.51643104
24954500	-0.136466048	0.517357824
24954750	-0.135864064	0.51641088
24955000	-0.13493456	0.516941664
24955250	-0.13802712	0.516561088
24955500	-0.134132464	0.516466272
24955750	-0.135069824	0.517588864
24956000	-0.138066336	0.5165208
24956250	-0.133519112	0.516665696
24956500	-0.134645648	0.518051616
24956750	-0.137569856	0.516638272
24957000	-0.133371768	0.516416192
24957250	-0.134240432	0.5176016
24957500	-0.135998048	0.516619136
24957750	-0.13312028	0.516901248
24958000	-0.136153472	0.516947104
24958250	-0.132740256	0.516777216
24958500	-0.133315472	0.517972064
24958750	-0.13619376	0.517107968
24959000	-0.132073608	0.51725936
24959250	-0.132985024	0.518268352
24959500	-0.136044912	0.517205888
24959750	-0.131652176	0.516931072
24960000	-0.13244024	0.51834512
24960250	-0.135897424	0.51705952
24960500	-0.13144624	0.517211552
24960750	-0.133415344	0.517980224
24961000	-0.132314336	0.517284928
24961250	-0.131820456	0.51766096
24961500	-0.134619664	0.51731264
24961750	-0.130636736	0.517175808
24962000	-0.131758032	0.51824928
24962250	-0.134682032	0.51718336
24962500	-0.130315632	0.5170704
24962750	-0.131215352	0.51836784
24963000	-0.134639616	0.516881536
24963250	-0.129965424	0.51704992
24963500	-0.131271392	0.518494176
24963750	-0.132268192	0.517284992
24964000	-0.129906432	0.51720272
24964250	-0.132228968	0.517850112
24964500	-0.129225688	0.517478592
24964750	-0.130166304	0.518667392
24965000	-0.13300376	0.517548384
24965250	-0.128521592	0.51734448
24965500	-0.130056112	0.518411584
24965750	-0.13096984	0.51749152
24966000	-0.128628432	0.518191168
24966250	-0.131673752	0.518088512
24966500	-0.127947584	0.517714976
24966750	-0.128754392	0.518687488
24967000	-0.13165164	0.517753728
24967250	-0.12738188	0.517900064
24967500	-0.128448096	0.518954272
24967750	-0.131530928	0.517532576
24968000	-0.126867696	0.517186592
24968250	-0.127690968	0.518590816
24968500	-0.131043256	0.517398944
24968750	-0.126879168	0.517404384
24969000	-0.129310264	0.518249856
24969250	-0.127473384	0.5174544
24969500	-0.127132088	0.518043808
24969750	-0.129980136	0.517684992
24970000	-0.126008672	0.517756768
24970250	-0.126757664	0.518732128
24970500	-0.1298648	0.517682144
24970750	-0.12543672	0.5173672
24971000	-0.126398144	0.518860768
24971250	-0.129747704	0.517486144
24971500	-0.125041632	0.517675328
24971750	-0.126840112	0.518782784
24972000	-0.127226936	0.51780624
24972250	-0.125245616	0.518054656
24972500	-0.127902688	0.51808304
24972750	-0.124573936	0.517850272
24973000	-0.125284952	0.518922144
24973250	-0.128423216	0.517961696
24973500	-0.124108536	0.517670208
24973750	-0.124897496	0.518949568
24974000	-0.128193496	0.517831136
24974250	-0.123646336	0.517862496
24974500	-0.1245038	0.519260352
24974750	-0.127245872	0.518039776
24975000	-0.123413936	0.517766048
24975250	-0.125503824	0.5187992
24975500	-0.124005368	0.518026048
24975750	-0.123422016	0.519012032
24976000	-0.12665372	0.518437312
24976250	-0.122397416	0.517973792
24976500	-0.123344192	0.519002368
24976750	-0.126681272	0.518164992
24977000	-0.1222458	0.518143904
24977250	-0.123186008	0.519621088
24977500	-0.12599228	0.518478816
24977750	-0.121882536	0.517913088
24978000	-0.123358368	0.5191248
24978250	-0.124261896	0.518194272
24978500	-0.121795208	0.518821056
24978750	-0.125154448	0.518755008
24979000	-0.121312672	0.51823424
24979250	-0.122024696	0.519457056
24979500	-0.124968568	0.51840192
24979750	-0.120648136	0.518731296
24980000	-0.121581456	0.519911776
24980250	-0.124589032	0.518776064
24980500	-0.120114952	0.518424288
24980750	-0.120913672	0.51991104
24981000	-0.124120048	0.518734048
24981250	-0.12014228	0.518669728
24981500	-0.12251872	0.519300416
24981750	-0.120755136	0.518545696
24982000	-0.120471496	0.519195424
24982250	-0.12328664	0.518909984
24982500	-0.119387712	0.51890032
24982750	-0.120189944	0.519836192
24983000	-0.123422176	0.51876896
24983250	-0.118964608	0.518524992
24983500	-0.11981372	0.520008928
24983750	-0.123208232	0.518714912
24984000	-0.118463776	0.518641664
24984250	-0.12011104	0.519854784
24984500	-0.120383792	0.518973344
24984750	-0.118470936	0.5192808
24985000	-0.121262528	0.51944976
24985250	-0.117723584	0.519236736
24985500	-0.11847284	0.520342592
24985750	-0.12162116	0.519258144
24986000	-0.117335976	0.519037952
24986250	-0.118023928	0.520307968
24986500	-0.121623632	0.518905056
24986750	-0.116938096	0.518756256
24987000	-0.117808888	0.520402144
24987250	-0.120505528	0.5192488
24987500	-0.116715048	0.518745184
24987750	-0.118934392	0.519646272
24988000	-0.117367192	0.518927168
24988250	-0.116989624	0.519820992
24988500	-0.120138024	0.519450656
24988750	-0.1158678	0.519082592
24989000	-0.116674448	0.520453696
24989250	-0.11992132	0.519433216
24989500	-0.115290136	0.519383264
24989750	-0.116368144	0.520827008
24990000	-0.119362016	0.519684448
