# Hz S RI R 50
21000000	0.03629416	-0.179387392
21001125	0.034292708	-0.177017584
21002250	0.036650396	-0.177963664
21003375	0.033559184	-0.170483552
21004500	0.034106492	-0.17546496
21005625	0.036807672	-0.177521376
21006750	0.033854536	-0.169115056
21007875	0.03455074	-0.17437832
21009000	0.035893492	-0.172972544
21010125	0.032860544	-0.169581296
21011250	0.035004968	-0.1720028
21012375	0.034930496	-0.168021616
21013500	0.03482648	-0.172078112
21014625	0.037719712	-0.17213896
21015750	0.034893648	-0.166261472
21016875	0.035567364	-0.171349232
21018000	0.038020536	-0.173306816
21019125	0.035202528	-0.165007552
21020250	0.035826976	-0.170330384
21021375	0.037725336	-0.171397872
21022500	0.03497274	-0.164515792
21023625	0.036133036	-0.168414768
21024750	0.036385732	-0.165345376
21025875	0.03545238	-0.166373376
21027000	0.037892044	-0.167735088
21028125	0.036381312	-0.162228944
21029250	0.036936004	-0.16707648
21030375	0.039430568	-0.168690784
21031500	0.036693008	-0.160876752
21032625	0.037260344	-0.166260896
21033750	0.039625452	-0.168470016
21034875	0.036871592	-0.159796176
21036000	0.037548064	-0.16467184
21037125	0.038737648	-0.163766688
21038250	0.036741096	-0.160267584
21039375	0.038336784	-0.163288304
21040500	0.038076664	-0.158470208
21041625	0.03755212	-0.162043168
21042750	0.040428488	-0.163147936
21043875	0.038484884	-0.157175328
21045000	0.038959652	-0.162416512
21046125	0.041399976	-0.164271856
21047250	0.038789096	-0.155766672
21048375	0.039229528	-0.160814016
21049500	0.041203136	-0.162441728
21050625	0.039019552	-0.15500224
21051750	0.040130824	-0.159800016
21052875	0.04054946	-0.156334704
21054000	0.038721444	-0.156634016
21055125	0.041460556	-0.158272768
21056250	0.04056054	-0.153292224
21057375	0.041134984	-0.158528464
21058500	0.043262888	-0.160095136
21059625	0.040814872	-0.151861776
21060750	0.04124572	-0.157150128
21061875	0.04368116	-0.159636624
21063000	0.041466288	-0.150639696
21064125	0.041857188	-0.156149808
21065250	0.043293164	-0.15528968
21066375	0.040738172	-0.151043984
21067500	0.042815524	-0.15407152
21068625	0.042705292	-0.14994912
21069750	0.04242186	-0.15390792
21070875	0.044617152	-0.155519552
21072000	0.0430745	-0.148273632
21073125	0.043457444	-0.153496528
21074250	0.045851684	-0.155803584
21075375	0.043664112	-0.147035328
21076500	0.04383224	-0.152762816
21077625	0.04604338	-0.154254848
21078750	0.043828072	-0.146435824
21079875	0.044691996	-0.150822544
21081000	0.045437328	-0.147964784
21082125	0.04438056	-0.148542736
21083250	0.046308292	-0.150568096
21084375	0.045603292	-0.144792848
21085500	0.045860252	-0.149662784
21086625	0.048019884	-0.152002832
21087750	0.04620208	-0.143666208
21088875	0.046415084	-0.149241088
21090000	0.048690912	-0.151822336
21091125	0.04669226	-0.142552656
21092250	0.047026116	-0.14757696
21093375	0.048422084	-0.147304752
21094500	0.046788216	-0.142953536
21095625	0.048150592	-0.14647112
21096750	0.0484892	-0.141761712
21097875	0.047656716	-0.14509008
21099000	0.050171564	-0.14693376
21100125	0.048950348	-0.140391712
21101250	0.049044796	-0.14602936
21102375	0.0512014	-0.148486736
21103500	0.049365456	-0.139402688
21104625	0.049561352	-0.144566112
21105750	0.051417704	-0.146638208
21106875	0.04996478	-0.138508432
21108000	0.050411788	-0.143705792
21109125	0.051418492	-0.140417856
21110250	0.04978264	-0.14025096
21111375	0.052210888	-0.142725024
21112500	0.0517783	-0.137440672
21113625	0.051813592	-0.14286168
21114750	0.053963744	-0.144862624
21115875	0.052290204	-0.136125024
21117000	0.052449596	-0.14155424
21118125	0.05465862	-0.144605392
21119250	0.053184048	-0.13523464
21120375	0.053396976	-0.140852688
21121500	0.054647064	-0.140412528
21122625	0.052870796	-0.135342656
21123750	0.054418932	-0.139111184
21124875	0.054869424	-0.134848832
21126000	0.054248584	-0.138792272
21127125	0.05637526	-0.140806336
21128250	0.055344936	-0.133355008
21129375	0.055474552	-0.13874216
21130500	0.057876408	-0.141381152
21131625	0.056205316	-0.132586312
21132750	0.056303552	-0.138182624
21133875	0.05803056	-0.140389008
21135000	0.056759952	-0.131905256
21136125	0.057137468	-0.13669112
21137250	0.058236844	-0.134239184
21138375	0.05732548	-0.1341368
21139500	0.058957904	-0.136654768
21140625	0.058900128	-0.13080388
21141750	0.058671064	-0.135796144
21142875	0.060702032	-0.138153216
21144000	0.059693304	-0.129674656
21145125	0.059493668	-0.135467264
21146250	0.06147012	-0.138707008
21147375	0.060343848	-0.12896104
21148500	0.060422116	-0.134186032
21149625	0.061897144	-0.134382512
21150750	0.060637072	-0.129328328
21151875	0.061779948	-0.133426664
21153000	0.062558116	-0.128665952
21154125	0.061442392	-0.131886528
21155250	0.063768096	-0.134364576
21156375	0.063193924	-0.12744048
21157500	0.062900312	-0.13309088
21158625	0.064840736	-0.13598592
21159750	0.063944728	-0.12635024
21160875	0.063852168	-0.131825376
21162000	0.06545204	-0.134561984
21163125	0.06483078	-0.126007352
21164250	0.06497428	-0.131420064
21165375	0.06605444	-0.128405944
21166500	0.064843072	-0.1275464
21167625	0.06657134	-0.130504488
21168750	0.066876048	-0.125381424
21169875	0.066559984	-0.130949888
21171000	0.06821372	-0.133245928
21172125	0.067706016	-0.124242216
21173250	0.067388536	-0.129842608
21174375	0.069110104	-0.133292912
21175500	0.06870972	-0.12352116
21176625	0.068455864	-0.129453184
21177750	0.069788232	-0.129320112
21178875	0.068676152	-0.123597896
21180000	0.06982384	-0.12772784
21181125	0.070749328	-0.123740624
21182250	0.069841912	-0.127335192
21183375	0.071443184	-0.129729568
21184500	0.07146468	-0.122297592
21185625	0.0710624	-0.127850024
21186750	0.072727136	-0.131299752
21187875	0.072552272	-0.121656592
21189000	0.07199312	-0.127399328
21190125	0.073336192	-0.1301872
21191250	0.073200424	-0.121122328
21192375	0.07333224	-0.126248848
21193500	0.074525664	-0.123975224
21194625	0.073591424	-0.123380024
21195750	0.074971048	-0.126654712
21196875	0.075616808	-0.120603088
21198000	0.074721792	-0.125552728
21199125	0.076397472	-0.12851644
21200250	0.076639112	-0.1200424
21201375	0.075801728	-0.125858264
21202500	0.077540608	-0.129018576
21203625	0.077454936	-0.119180672
21204750	0.077000072	-0.124660104
21205875	0.07837968	-0.125345096
21207000	0.077891536	-0.119584568
21208125	0.078413096	-0.124032488
21209250	0.079738088	-0.119418304
21210375	0.0784242	-0.122290776
21211500	0.080282648	-0.12556504
21212625	0.080558632	-0.118498112
21213750	0.07975064	-0.124186304
21214875	0.081166728	-0.127682688
21216000	0.08162844	-0.117764112
21217125	0.08090324	-0.123444096
21218250	0.082109784	-0.126585664
21219375	0.082709872	-0.11755052
21220500	0.081988608	-0.12301588
21221625	0.083652232	-0.120595928
21222750	0.082605112	-0.119034616
21223875	0.0840688	-0.12255868
21225000	0.084891424	-0.117426512
21226125	0.083789928	-0.122937456
21227250	0.085110944	-0.125486552
21228375	0.085786576	-0.116469568
21229500	0.0847434	-0.122120008
21230625	0.086016984	-0.125997784
21231750	0.08700648	-0.116104976
21232875	0.086011504	-0.121864792
21234000	0.087389248	-0.122499048
21235125	0.087308232	-0.11620376
21236250	0.08759088	-0.120806768
21237375	0.089208224	-0.116842312
21238500	0.087830192	-0.120430176
21239625	0.089224304	-0.122873552
21240750	0.090090376	-0.115581104
21241875	0.089016216	-0.12115084
21243000	0.090019176	-0.124884368
21244125	0.091400752	-0.115236088
21245250	0.090002152	-0.121199416
21246375	0.091171992	-0.124341536
21247500	0.092200072	-0.114889976
21248625	0.09159644	-0.120213144
21249750	0.09306676	-0.118345208
21250875	0.09249828	-0.11732232
21252000	0.093229544	-0.120925288
21253125	0.094505496	-0.115049744
21254250	0.093469032	-0.120069112
21255375	0.095389464	-0.115697312
21256500	0.094017296	-0.11779424
21257625	0.095164832	-0.121203088
21258750	0.096550688	-0.11474984
21259875	0.094829592	-0.120618704
21261000	0.096030768	-0.12391688
21262125	0.097373768	-0.114190736
21263250	0.096323504	-0.119723536
21264375	0.097218392	-0.12368116
21265500	0.098705128	-0.114003816
21266625	0.09738536	-0.11973452
21267750	0.099187256	-0.11798636
21268875	0.098820584	-0.1150702
21270000	0.099397232	-0.119207408
21271125	0.100939704	-0.11460492
21272250	0.099256864	-0.119547528
21273375	0.100257328	-0.122381344
21274500	0.101915864	-0.11376388
21275625	0.100621584	-0.119544768
21276750	0.101305984	-0.123567968
21277875	0.103335968	-0.113657552
21279000	0.10163964	-0.119327736
21280125	0.10294308	-0.120810832
21281250	0.10387824	-0.113855152
21282375	0.103550056	-0.118662816
21283500	0.1053282	-0.115120496
21284625	0.10382532	-0.117595976
21285750	0.104783616	-0.120953264
21286875	0.106646536	-0.113819864
21288000	0.104892672	-0.11939284
21289125	0.105492112	-0.123340976
21290250	0.107795256	-0.11359952
21291375	0.106028824	-0.119601536
21292500	0.106651968	-0.12338356
21293625	0.108908208	-0.11347
21294750	0.107613208	-0.118827384
21295875	0.1091582	-0.11803628
21297000	0.109121312	-0.115507552
21298125	0.109163928	-0.119436752
21299250	0.11122432	-0.114325128
21300375	0.109534344	-0.118657544
21301500	0.110137824	-0.122341584
21302625	0.112395008	-0.113970952
21303750	0.110468656	-0.119716944
21304875	0.110898648	-0.12367648
21306000	0.113501672	-0.113712584
21307125	0.111989216	-0.119334784
21308250	0.112778584	-0.1212152
21309375	0.114420528	-0.114096944
21310500	0.11329664	-0.11944952
21311625	0.115715608	-0.115484432
21312750	0.114372376	-0.117284176
21313875	0.114955224	-0.120708984
21315000	0.117013704	-0.114544456
21316125	0.114880072	-0.120139392
21317250	0.115286752	-0.123959024
21318375	0.118067128	-0.114234928
21319500	0.116396608	-0.11977984
21320625	0.116654024	-0.124301736
21321750	0.119563704	-0.114612528
21322875	0.117422056	-0.120187856
21324000	0.119336336	-0.119099024
21325125	0.11964904	-0.115856048
21326250	0.11940576	-0.120124472
21327375	0.1217154	-0.115638424
21328500	0.119384352	-0.12042264
21329625	0.11994056	-0.123222344
21330750	0.12273872	-0.115195
21331875	0.120645472	-0.120786032
21333000	0.12078972	-0.124940504
21334125	0.12405328	-0.11555024
21335250	0.121893328	-0.121058112
21336375	0.122763408	-0.12278888
21337500	0.124940464	-0.115674056
21338625	0.123861808	-0.120719784
21339750	0.126168472	-0.117524344
21340875	0.124444608	-0.119657472
21342000	0.124587512	-0.123026264
21343125	0.127474352	-0.11640608
21344250	0.125141008	-0.121779928
21345375	0.125019152	-0.125770808
21346500	0.1287394	-0.116542688
21347625	0.126217424	-0.122088808
21348750	0.126190288	-0.126235232
21349875	0.129816264	-0.116520648
21351000	0.12794192	-0.121957824
21352125	0.129562424	-0.12136636
21353250	0.130047056	-0.118773584
21354375	0.129358816	-0.122541688
21355500	0.132107152	-0.118014032
21356625	0.129965528	-0.122006688
21357750	0.12988652	-0.125750184
21358875	0.133391664	-0.1179978
21360000	0.130649376	-0.123430064
21361125	0.130476776	-0.12772344
21362250	0.134548464	-0.117981872
21363375	0.13225308	-0.1234364
21364500	0.132694736	-0.125593528
21365625	0.13547784	-0.118800672
21366750	0.133539304	-0.12395024
21367875	0.136541552	-0.120445512
21369000	0.135114128	-0.121696656
21370125	0.13503536	-0.125630528
21371250	0.13798512	-0.119878632
21372375	0.1348188	-0.125231328
21373500	0.134763776	-0.128982712
21374625	0.139144416	-0.119754496
21375750	0.136593056	-0.125323344
21376875	0.13599416	-0.129539968
21378000	0.140467776	-0.120189352
21379125	0.137689232	-0.125805128
21380250	0.139531488	-0.125285656
21381375	0.140707952	-0.121698416
21382500	0.139779344	-0.126224504
21383625	0.142601104	-0.122018832
21384750	0.139624336	-0.126431856
21385875	0.139576592	-0.12970336
21387000	0.143737264	-0.121811992
21388125	0.14081848	-0.127190072
21389250	0.140206	-0.131268632
21390375	0.144937664	-0.1222454
21391500	0.1418924	-0.127804768
21392625	0.142503952	-0.129811912
21393750	0.145901152	-0.122965552
21394875	0.14389608	-0.12790032
21396000	0.146723792	-0.124986032
21397125	0.14491104	-0.126949576
21398250	0.144462416	-0.13018888
21399375	0.148260848	-0.124187528
21400500	0.145119856	-0.129287736
21401625	0.144461776	-0.13327336
21402750	0.149505168	-0.124614408
21403875	0.146144224	-0.130093544
21405000	0.145524912	-0.13419248
21406125	0.150690256	-0.125033512
21407250	0.147886784	-0.130238576
21408375	0.149492752	-0.130179864
21409500	0.150711904	-0.127518896
21410625	0.149293744	-0.13119392
21411750	0.1526768	-0.12706532
21412875	0.15008272	-0.13065344
21414000	0.14931856	-0.134293072
21415125	0.15392504	-0.127282784
21416250	0.150408288	-0.132546144
21417375	0.14949496	-0.136471808
21418500	0.155114048	-0.127639744
21419625	0.152050176	-0.132961048
21420750	0.15213152	-0.13541264
21421875	0.156037888	-0.128765912
21423000	0.153275408	-0.133629528
21424125	0.156671536	-0.130604256
21425250	0.15537296	-0.131720576
21426375	0.154281056	-0.13567168
21427500	0.158255824	-0.130357144
21428625	0.154462192	-0.13530632
21429750	0.15370136	-0.138963264
21430875	0.159392016	-0.130445328
21432000	0.156178944	-0.135694608
21433125	0.154834176	-0.14002232
21434250	0.160712784	-0.131281984
21435375	0.15717688	-0.136506976
21436500	0.158956624	-0.136260864
21437625	0.16086368	-0.13283448
21438750	0.159224336	-0.13713472
21439875	0.162446336	-0.133654328
21441000	0.159055904	-0.13747968
21442125	0.158360224	-0.140672544
21443250	0.163604272	-0.133745744
21444375	0.160243648	-0.13870704
21445500	0.158615936	-0.142844432
21446625	0.164807872	-0.134579488
21447750	0.161084624	-0.139700128
21448875	0.16115024	-0.142125472
21450000	0.165685232	-0.1353976
