# Hz S RI R 50
18068000	0.074015928	0.505186432
18068250	0.078059904	0.527331712
18068500	0.075365224	0.504869568
18068750	0.071455272	0.508053376
18069000	0.077952528	0.528343072
18069250	0.074514216	0.504898784
18069500	0.070672032	0.494864
18069750	0.07883728	0.528141024
18070000	0.075374464	0.505168608
18070250	0.072268072	0.501660576
18070500	0.078440504	0.523482208
18070750	0.073964184	0.50907344
18071000	0.07870144	0.523359776
18071250	0.077200144	0.507423584
18071500	0.07489304	0.517202304
18071750	0.080692792	0.52626736
18072000	0.075573904	0.505411264
18072250	0.072291616	0.49563376
18072500	0.08014208	0.52793552
18072750	0.076323544	0.504372224
18073000	0.072093032	0.494851968
18073250	0.07993572	0.528695808
18073500	0.076102928	0.505603136
18073750	0.077165016	0.511284352
18074000	0.079438944	0.515342464
18074250	0.07584196	0.51334352
18074500	0.081765656	0.52582592
18074750	0.077047728	0.50614752
18075000	0.073638152	0.508246304
18075250	0.081135456	0.527516896
18075500	0.077839528	0.503965504
18075750	0.073478336	0.495154816
18076000	0.081207376	0.52859248
18076250	0.077348192	0.50484544
18076500	0.074729616	0.500160768
18076750	0.081921688	0.523053632
18077000	0.077571672	0.508339776
18077250	0.08177808	0.52131904
18077500	0.079743992	0.50805968
18077750	0.077072632	0.515337888
18078000	0.083184904	0.526705376
18078250	0.07932104	0.503965248
18078500	0.074658384	0.507900192
18078750	0.082629592	0.527983712
18079000	0.07872556	0.504216256
18079250	0.074365016	0.494106368
18079500	0.083945824	0.52743376
18079750	0.079092872	0.504783872
18080000	0.079692832	0.511069536
18080250	0.082010968	0.51630448
18080500	0.078451336	0.511605504
18080750	0.084880352	0.526532352
18081000	0.080758016	0.504242912
18081250	0.076781704	0.510993536
18081500	0.084421544	0.5268104
18081750	0.079579576	0.504612928
18082000	0.07585436	0.494611136
18082250	0.084958192	0.527636992
18082500	0.080624856	0.504355264
18082750	0.077336216	0.49942112
18083000	0.084543096	0.523832384
18083250	0.0802744	0.507441824
18083500	0.084809408	0.521927232
18083750	0.08304372	0.50784624
18084000	0.078745288	0.510243232
18084250	0.08643224	0.526406048
18084500	0.081446208	0.505494176
18084750	0.077239704	0.500278176
18085000	0.086289304	0.52732896
18085250	0.082196352	0.503522144
18085500	0.077281312	0.49445792
18085750	0.086056584	0.527896992
18086000	0.08164972	0.505025024
18086250	0.082341336	0.509184704
18086500	0.085690176	0.515899648
18086750	0.081625408	0.512106848
18087000	0.088426872	0.525381376
18087250	0.083230192	0.504782912
18087500	0.079335264	0.50994368
18087750	0.087564312	0.526686016
18088000	0.083437768	0.50320624
18088250	0.078806536	0.495008096
18088500	0.087497152	0.527672
18088750	0.08272968	0.504483712
18089000	0.079807392	0.498260128
18089250	0.08836044	0.523499072
18089500	0.083236088	0.506862688
18089750	0.08674468	0.519940672
18090000	0.085883192	0.508872992
18090250	0.081456144	0.514867008
18090500	0.089224136	0.526626944
18090750	0.085189424	0.503584736
18091000	0.08039712	0.505447552
18091250	0.089210592	0.527208096
18091500	0.084071792	0.503971936
18091750	0.079664496	0.494119808
18092000	0.089917248	0.526935456
18092250	0.084859944	0.50410544
18092500	0.084640176	0.508391968
18092750	0.0882946	0.516804096
18093000	0.08411868	0.510792448
18093250	0.090754496	0.52586592
18093500	0.08646224	0.50372176
18093750	0.083046072	0.514489472
18094000	0.090986296	0.526478752
18094250	0.085726336	0.504004832
18094500	0.081243248	0.496969792
18094750	0.091099264	0.52681536
18095000	0.08615744	0.503580576
18095250	0.082044784	0.49794816
18095500	0.090868552	0.524404512
18095750	0.085491768	0.50611072
18096000	0.089857648	0.517971584
18096250	0.08914456	0.508922272
18096500	0.085381256	0.51493328
18096750	0.092630664	0.525670944
18097000	0.087415968	0.50480736
18097250	0.082946664	0.50207664
18097500	0.09239992	0.526912736
18097750	0.087547872	0.50300704
18098000	0.08288072	0.494151008
18098250	0.092481888	0.527312352
18098500	0.0872504	0.504274496
18098750	0.087955664	0.5085584
18099000	0.092346416	0.515905664
18099250	0.087964088	0.510237024
18099500	0.094278136	0.524173216
18099750	0.089099592	0.504198624
18100000	0.085606272	0.511159712
18100250	0.093985192	0.526373152
18100500	0.089222248	0.50283152
18100750	0.084307928	0.497964192
18101000	0.09387076	0.527426592
18101250	0.08864196	0.503886336
18101500	0.084758104	0.496539296
18101750	0.094840016	0.524296448
18102000	0.088752592	0.505635904
18102250	0.09215204	0.518162304
18102500	0.09228624	0.509643072
18102750	0.088626192	0.513585504
18103000	0.09560952	0.525797312
18103250	0.090995112	0.503197248
18103500	0.086463168	0.504517792
18103750	0.095626432	0.526800224
18104000	0.08997684	0.503684512
18104250	0.085518752	0.493512576
18104500	0.096796576	0.526433408
18104750	0.09065292	0.503981408
18105000	0.089697784	0.506340608
18105250	0.095303816	0.517531232
18105500	0.09058192	0.510121216
18105750	0.097663376	0.525401824
18106000	0.092684336	0.503639232
18106250	0.089840544	0.512928672
18106500	0.097383136	0.525854304
18106750	0.091703648	0.504091744
18107000	0.087039576	0.497775456
18107250	0.09790048	0.526621632
18107500	0.09245168	0.503016
18107750	0.087954136	0.495959328
18108000	0.097965936	0.525771872
18108250	0.092012712	0.505281024
18108500	0.095556144	0.516203712
18108750	0.095672	0.50976592
18109000	0.091909736	0.513876096
18109250	0.099704032	0.52499824
18109500	0.09344608	0.503724224
18109750	0.089116504	0.50422912
18110000	0.099128504	0.526355968
18110250	0.093748832	0.502475136
18110500	0.0895388	0.498036704
18110750	0.101211544	0.525102912
18111000	0.093315504	0.50401264
18111250	0.092463016	0.505372288
18111500	0.09899376	0.517496
18111750	0.09430576	0.5096168
18112000	0.1007658	0.524295104
18112250	0.09537944	0.503640288
18112500	0.091866784	0.512694784
18112750	0.1010344	0.525633024
18113000	0.095277032	0.502621056
18113250	0.09024344	0.499254496
18113500	0.10082004	0.526727968
18113750	0.094890072	0.50322592
18114000	0.090066456	0.49403856
18114250	0.102171344	0.52529728
18114500	0.09545504	0.50505568
18114750	0.098366024	0.514514432
18115000	0.0986484	0.510805792
18115250	0.09468356	0.512951744
18115500	0.102601192	0.525276608
18115750	0.097025408	0.502996576
18116000	0.09226564	0.506941984
18116250	0.102622168	0.526374752
18116500	0.09623228	0.50348496
18116750	0.091288048	0.49308464
18117000	0.103144672	0.525934272
18117250	0.096924408	0.503612096
18117500	0.095849248	0.50386368
18117750	0.10195952	0.5184816
18118000	0.096587448	0.507476576
18118250	0.104245096	0.52449424
18118500	0.098710576	0.5035
18118750	0.096349632	0.511030976
18119000	0.104646256	0.525407136
18119250	0.098125976	0.503314688
18119500	0.093171848	0.495416576
18119750	0.104419456	0.526145152
18120000	0.098540392	0.502420736
18120250	0.09353728	0.49496208
18120500	0.105066056	0.526331712
18120750	0.098279688	0.504144384
18121000	0.101054296	0.513757632
18121250	0.102230176	0.510506624
18121500	0.098963608	0.512751584
18121750	0.10642468	0.524720736
18122000	0.099776008	0.503172288
18122250	0.095349328	0.5068016
18122500	0.10601612	0.525992032
18122750	0.100044656	0.501930112
18123000	0.095625576	0.495478528
18123250	0.107141488	0.525480736
18123500	0.09973944	0.50338544
18123750	0.097875904	0.501868672
18124000	0.104857424	0.519656608
18124250	0.100078704	0.507887904
18124500	0.106542384	0.521566688
18124750	0.101428136	0.503624032
18125000	0.098564048	0.509530432
18125250	0.107473224	0.52554656
18125500	0.101621464	0.502108576
18125750	0.096601104	0.49566176
18126000	0.10754312	0.526296544
18126250	0.101003696	0.503126272
18126500	0.095694808	0.49279824
18126750	0.10886028	0.52506864
18127000	0.101194328	0.504191584
18127250	0.103785336	0.512303648
18127500	0.105279736	0.511500768
18127750	0.10137728	0.510721376
18128000	0.109439128	0.524712032
18128250	0.10339184	0.502510784
18128500	0.099724528	0.505607136
18128750	0.10889588	0.526178912
18129000	0.102607616	0.502936896
18129250	0.097369112	0.492659424
18129500	0.110318792	0.526201248
18129750	0.103814664	0.502943808
18130000	0.101435736	0.501756064
18130250	0.109873784	0.520504
18130500	0.104202624	0.50647168
18130750	0.1116538	0.522931936
18131000	0.106210816	0.504378496
18131250	0.103803304	0.513107552
18131500	0.112015144	0.526319616
18131750	0.105412608	0.50321888
18132000	0.100508976	0.496920608
18132250	0.112984544	0.52688992
18132500	0.106013352	0.502548224
18132750	0.100293752	0.492852384
18133000	0.11306268	0.527571552
18133250	0.105745384	0.50443088
18133500	0.108793104	0.511976832
18133750	0.110223416	0.512169248
18134000	0.106768768	0.511674688
18134250	0.114432056	0.525076032
18134500	0.107275152	0.503261376
18134750	0.103628832	0.503074944
18135000	0.114058552	0.526702112
18135250	0.107230504	0.50231056
18135500	0.10172424	0.492845376
18135750	0.11407456	0.527445088
18136000	0.106626456	0.503112448
18136250	0.104817784	0.500096256
18136500	0.113872088	0.519744864
18136750	0.108000976	0.507136896
18137000	0.114529496	0.521510784
18137250	0.109172192	0.504495456
18137500	0.106405584	0.5123136
18137750	0.115182976	0.525137312
18138000	0.10815488	0.501808768
18138250	0.102958576	0.497259392
18138500	0.114287288	0.525721952
18138750	0.106623568	0.5024448
18139000	0.101004888	0.492081536
18139250	0.115051872	0.524204544
18139500	0.10698828	0.503077088
18139750	0.109760368	0.50949472
18140000	0.111369496	0.511046048
18140250	0.107102408	0.509421056
18140500	0.11552312	0.52316832
18140750	0.108645296	0.501239968
18141000	0.105333848	0.507081216
18141250	0.11486484	0.523167008
18141500	0.107776808	0.501148928
18141750	0.102345456	0.491936064
18142000	0.115701848	0.52351504
18142250	0.108451304	0.50080192
18142500	0.10709404	0.500229472
18142750	0.115039904	0.517439776
18143000	0.108238136	0.503205312
18143250	0.11411344	0.517876576
18143500	0.110130648	0.5029664
18143750	0.107783456	0.509817184
18144000	0.116955216	0.522028864
18144250	0.109122112	0.500576672
18144500	0.104220944	0.49775056
18144750	0.116635448	0.522503424
18145000	0.109191656	0.499504416
18145250	0.103491912	0.49162592
18145500	0.116664488	0.523083328
18145750	0.109103728	0.501232672
18146000	0.110953528	0.507876864
18146250	0.114081952	0.509590336
18146500	0.110351	0.50885856
18146750	0.118469304	0.520379648
18147000	0.110346264	0.5004192
18147250	0.107137416	0.50396912
18147500	0.117868272	0.521644064
18147750	0.110427376	0.498978112
18148000	0.10480264	0.491679296
18148250	0.117877448	0.522293088
18148500	0.11035636	0.500233344
18148750	0.107257432	0.496646496
18149000	0.117441696	0.516470144
18149250	0.111006128	0.50431424
18149500	0.117393336	0.516272192
18149750	0.112846136	0.502469184
18150000	0.110374304	0.510390176
18150250	0.119270904	0.520720608
18150500	0.112106432	0.498885088
18150750	0.107153816	0.498731424
18151000	0.11921236	0.521443552
18151250	0.111000864	0.499767008
18151500	0.105290264	0.490580672
18151750	0.120285984	0.52059568
18152000	0.11190092	0.500021696
18152250	0.113286912	0.505383424
18152500	0.116385856	0.509601728
18152750	0.112444256	0.505930976
18153000	0.120602288	0.5198648
18153250	0.113694432	0.498987584
18153500	0.110241616	0.504555776
18153750	0.120975016	0.520393792
18154000	0.112627896	0.498804
18154250	0.106823104	0.491157024
18154500	0.121289304	0.52038144
18154750	0.113209416	0.498529952
18155000	0.109300376	0.495678496
18155250	0.120149896	0.516622656
18155500	0.113263016	0.501555136
18155750	0.119734744	0.515205984
18156000	0.116126936	0.501808288
18156250	0.113973104	0.51036912
18156500	0.122282856	0.519828128
18156750	0.114246432	0.498923776
18157000	0.109642112	0.499596064
18157250	0.122290288	0.520286688
18157500	0.1144072	0.497861632
18157750	0.108497944	0.490659904
18158000	0.122603344	0.520724544
18158250	0.114265168	0.499503232
18158500	0.1159752	0.504446976
18158750	0.12004776	0.508825312
18159000	0.116153624	0.506108576
18159250	0.1239444	0.518447392
18159500	0.115858976	0.498959392
18159750	0.113567024	0.505319008
18160000	0.123761128	0.51987792
18160250	0.11590652	0.497628992
18160500	0.110064032	0.49082112
18160750	0.123985264	0.520408704
18161000	0.115216672	0.499507392
18161250	0.113173848	0.496175104
18161500	0.123939744	0.51484048
18161750	0.11671364	0.501400544
18162000	0.122085248	0.512692928
18162250	0.1191608	0.502259616
18162500	0.116564488	0.508808672
18162750	0.125265208	0.518063424
18163000	0.116668744	0.500414208
18163250	0.121596032	0.51100992
18163500	0.119997416	0.50470656
18163750	0.116854184	0.508309472
18164000	0.126111968	0.519420576
18164250	0.118185816	0.498315392
18164500	0.113678552	0.501557216
18164750	0.12587072	0.52049792
18165000	0.11708336	0.49827232
18165250	0.111358128	0.490197088
18165500	0.126672432	0.51996816
18165750	0.118103752	0.498473472
18166000	0.118612416	0.502532672
18166250	0.124603752	0.510620064
18166500	0.118992416	0.50362576
18166750	0.127544016	0.5187704
18167000	0.11973056	0.498263808
18167250	0.117988384	0.507981376
18167500	0.127507968	0.519038208
18167750	0.118611976	0.498021792
18168000	0.113322848	0.493169184
