# Hz S RI R 50
14000000	-0.057814596	0.043963268
14000875	-0.05448624	0.047276352
14001750	-0.056788252	0.043852596
14002625	-0.056522488	0.047632228
14003500	-0.052651316	0.046810252
14004375	-0.054288492	0.043149176
14005250	-0.054627132	0.047117312
14006125	-0.050700472	0.045930944
14007000	-0.052016612	0.044666036
14007875	-0.051777636	0.0464749
14008750	-0.049232316	0.044533452
14009625	-0.05082072	0.045830324
14010500	-0.04750622	0.045126772
14011375	-0.049058816	0.042029544
14012250	-0.049291948	0.045481072
14013125	-0.045353192	0.044744264
14014000	-0.0473908	0.04082368
14014875	-0.047542552	0.044874824
14015750	-0.043591436	0.043675372
14016625	-0.044555428	0.040763268
14017500	-0.045317716	0.044084084
14018375	-0.041771748	0.042812164
14019250	-0.043173036	0.04296044
14020125	-0.041157436	0.04290442
14021000	-0.041037928	0.040536236
14021875	-0.042086528	0.043072432
14022750	-0.038151872	0.042148944
14023625	-0.040829916	0.038234184
14024500	-0.040222552	0.042350568
14025375	-0.0362718	0.041288692
14026250	-0.038343352	0.037519632
14027125	-0.038334124	0.041777744
14028000	-0.034701988	0.040320528
14028875	-0.03592454	0.039264168
14029750	-0.035025284	0.040966348
14030625	-0.032938644	0.038418876
14031500	-0.034709684	0.040311968
14032375	-0.03158943	0.039755244
14033250	-0.033530664	0.036324248
14034125	-0.032975122	0.039830876
14035000	-0.029171766	0.038588264
14035875	-0.031713918	0.034979712
14036750	-0.03133613	0.039209804
14037625	-0.027389346	0.03795834
14038500	-0.029117084	0.03526854
14039375	-0.029025182	0.03848686
14040250	-0.0256769	0.03670306
14041125	-0.027115498	0.037146636
14042000	-0.025545908	0.03704
14042875	-0.025128448	0.03430344
14043750	-0.02586648	0.036888292
14044625	-0.022278396	0.0355108
14045500	-0.025510924	0.032264468
14046375	-0.024276394	0.03645742
14047250	-0.02025807	0.035228512
14048125	-0.022632176	0.031346542
14049000	-0.022410842	0.035731052
14049875	-0.018593296	0.034306356
14050750	-0.02031525	0.033158362
14051625	-0.019657322	0.034641896
14052500	-0.017554774	0.032253016
14053375	-0.019019472	0.033634588
14054250	-0.015643364	0.032666584
14055125	-0.018262108	0.029660176
14056000	-0.017465344	0.033480198
14056875	-0.013832926	0.031878226
14057750	-0.016656198	0.028175744
14058625	-0.01565956	0.032489416
14059500	-0.011749303	0.030862518
14060375	-0.013596719	0.028123086
14061250	-0.013537172	0.031689116
14062125	-0.010274133	0.029714074
14063000	-0.011772854	0.030059298
14063875	-0.00954693	0.029778612
14064750	-0.010177354	0.027012534
14065625	-0.010846094	0.02978548
14066500	-0.007011335	0.028459336
14067375	-0.010402658	0.025030932
14068250	-0.008924278	0.028977716
14069125	-0.005212677	0.027569948
14070000	-0.007761244	0.023849534
14070875	-0.007232635	0.028428336
14071750	-0.003271554	0.026522098
14072625	-0.005811296	0.025771246
14073500	-0.003264099	0.027104168
14074375	-0.002947158	0.023883344
14075250	-0.004264216	0.026304252
14076125	-0.001171427	0.025483542
14077000	-0.003215654	0.021918748
14077875	-0.002506161	0.02557814
14078750	0.001283063	0.023946102
14079625	-0.001847827	0.020141284
14080500	-0.000737937	0.024680958
14081375	0.002928855	0.023025032
14082250	0.000993158	0.019997158
14083125	0.001314689	0.023490656
14084000	0.004424007	0.021016896
14084875	0.002777859	0.022240076
14085750	0.004758304	0.02189915
14086625	0.004019271	0.02263984
14087500	0.006413398	0.022604464
14088375	0.00534422	0.019414296
14089250	0.005188774	0.022346152
14090125	0.008994368	0.020534022
14091000	0.005813704	0.017089882
14091875	0.006701097	0.021568752
14092750	0.010612523	0.019839512
14093625	0.008180153	0.016085133
14094500	0.008478784	0.0202069
14095375	0.012178081	0.018272222
14096250	0.010950923	0.017568896
14097125	0.012577007	0.01857894
14098000	0.013145782	0.016184759
14098875	0.011647936	0.018416844
14099750	0.014883692	0.016422
14100625	0.012262413	0.013583538
14101500	0.01277242	0.017237574
14102375	0.016742427	0.015493162
14103250	0.01373715	0.011551198
14104125	0.014391723	0.016265145
14105000	0.018340992	0.014124256
14105875	0.016279389	0.011952458
14106750	0.01662496	0.015098502
14107625	0.019510562	0.012521107
14108500	0.01799178	0.01352752
14109375	0.020458148	0.012558282
14110250	0.019219718	0.009887156
14111125	0.018813278	0.012874376
14112000	0.022456244	0.011179979
14112875	0.019261184	0.00766253
14113750	0.020451152	0.011667292
14114625	0.024175264	0.009591937
14115500	0.02179931	0.006168395
14116375	0.021811754	0.010706502
14117250	0.025601688	0.008629694
14118125	0.023816476	0.007507921
14119000	0.025049268	0.008749594
14119875	0.026008746	0.005986621
14120750	0.024735318	0.008327858
14121625	0.027980244	0.006748873
14122500	0.025062824	0.003335727
14123375	0.026171278	0.007192549
14124250	0.029835492	0.005196271
14125125	0.026614896	0.001284488
14126000	0.027389552	0.005957604
14126875	0.031219556	0.004109481
14127750	0.02907726	0.001076237
14128625	0.029755388	0.004720823
14129500	0.032424748	0.001628147
14130375	0.030555684	0.0030014
14131250	0.032952242	0.002577818
14132125	0.03186182	-0.000779831
14133000	0.031620372	0.00246155
14133875	0.035368116	0.000317694
14134750	0.03161078	-0.003024731
14135625	0.032758442	0.001274464
14136500	0.036583912	-0.000445086
14137375	0.033807452	-0.004696904
14138250	0.034392844	-0.000068099
14139125	0.038102944	-0.003087569
14140000	0.036247016	-0.003240686
14140875	0.037234236	-0.00174346
14141750	0.038260332	-0.005473208
14142625	0.037140728	-0.002642107
14143500	0.040511892	-0.004786985
14144375	0.037313996	-0.007797239
14145250	0.038096412	-0.003726039
14146125	0.042018296	-0.005934003
14147000	0.038303344	-0.009854202
14147875	0.039412196	-0.005028844
14148750	0.043329712	-0.007901415
14149625	0.040793052	-0.009986722
14150500	0.041474476	-0.006489864
14151375	0.0441481	-0.009527503
14152250	0.04223264	-0.008234083
14153125	0.044847988	-0.009678716
14154000	0.043192516	-0.012503021
14154875	0.043101876	-0.009073113
14155750	0.04678968	-0.011056859
14156625	0.04290736	-0.014739442
14157500	0.04447762	-0.010465221
14158375	0.048184196	-0.01285488
14159250	0.045236048	-0.0166412
14160125	0.045600976	-0.011686696
14161000	0.049389564	-0.014349924
14161875	0.047230244	-0.015428866
14162750	0.048880528	-0.014198664
14163625	0.04967258	-0.017423214
14164500	0.048110424	-0.014344852
14165375	0.051246216	-0.016316077
14166250	0.047987868	-0.02003555
14167125	0.04906264	-0.016021288
14168000	0.052792256	-0.018583486
14168875	0.049252612	-0.021949744
14169750	0.05019496	-0.017207678
14170625	0.053768392	-0.01971175
14171500	0.051739072	-0.02244658
14172375	0.052191176	-0.018943326
14173250	0.054714056	-0.02228515
14174125	0.052824408	-0.020628808
14175000	0.055290624	-0.021328974
14175875	0.053976272	-0.024493474
14176750	0.053788008	-0.021525162
14177625	0.057198104	-0.024130216
14178500	0.052987772	-0.027124764
14179375	0.054729176	-0.022878132
14180250	0.058474228	-0.025307672
14181125	0.054924988	-0.029091288
14182000	0.05595694	-0.024472938
14182875	0.059284556	-0.027814284
14183750	0.057359636	-0.027874752
14184625	0.058737068	-0.026516114
14185500	0.059371016	-0.030037024
14186375	0.058219572	-0.027387328
14187250	0.0612495	-0.030259162
14188125	0.057616248	-0.03263937
14189000	0.05900534	-0.028575982
14189875	0.062645136	-0.031114084
14190750	0.058644208	-0.035067012
14191625	0.060080548	-0.030112828
14192500	0.063652324	-0.03314143
14193375	0.060945692	-0.035558908
14194250	0.061675804	-0.031881962
14195125	0.064242072	-0.035285904
14196000	0.06261138	-0.033721872
14196875	0.065045888	-0.035189804
14197750	0.0630404	-0.038410484
14198625	0.062878228	-0.034616068
14199500	0.066482216	-0.037111752
14200375	0.0621193	-0.040615896
14201250	0.063798384	-0.036156776
14202125	0.067701968	-0.039246624
14203000	0.064012356	-0.042939808
14203875	0.064861516	-0.037595088
14204750	0.068330832	-0.040797136
14205625	0.066301608	-0.04146584
14206500	0.067892016	-0.040379808
14207375	0.06821248	-0.044173656
14208250	0.066791132	-0.040865896
14209125	0.070030272	-0.042967672
14210000	0.066576192	-0.0466805
14210875	0.067621752	-0.042083364
14211750	0.07134776	-0.045270876
14212625	0.067201264	-0.048929864
14213500	0.068503216	-0.043659908
14214375	0.071953352	-0.046455016
14215250	0.069237192	-0.049320072
14216125	0.070352808	-0.045740856
14217000	0.07257092	-0.049911244
14217875	0.070661632	-0.047227516
14218750	0.07285208	-0.04854488
14219625	0.070490936	-0.05230002
14220500	0.0710802	-0.048560964
14221375	0.074211128	-0.052051752
14222250	0.069803416	-0.054846544
14223125	0.07178136	-0.050002316
14224000	0.075325216	-0.053112888
14224875	0.07176612	-0.057132564
14225750	0.072964464	-0.051786672
14226625	0.076297712	-0.055388336
14227500	0.07379232	-0.055734376
14228375	0.075158224	-0.054140136
14229250	0.075920472	-0.058149208
14230125	0.074536008	-0.054813548
14231000	0.077407016	-0.058054552
14231875	0.073368096	-0.060889172
14232750	0.074914512	-0.05638248
14233625	0.078345392	-0.059358316
14234500	0.074042192	-0.063229144
14235375	0.075801512	-0.05802276
14236250	0.079271184	-0.061704064
14237125	0.07614504	-0.064107024
14238000	0.07750752	-0.060047992
14238875	0.079631632	-0.063432396
14239750	0.077949528	-0.06249016
14240625	0.080159992	-0.06368938
14241500	0.078000432	-0.067535376
14242375	0.078053064	-0.062819848
14243250	0.081373712	-0.06561578
14244125	0.0765194	-0.069223104
14245000	0.078582264	-0.06453926
14245875	0.081997792	-0.068293584
14246750	0.078087704	-0.071992112
14247625	0.079221968	-0.066271404
14248500	0.082493816	-0.069606368
14249375	0.080239824	-0.070602944
14250250	0.081924504	-0.06942892
14251125	0.08181068	-0.073032024
14252000	0.080676816	-0.06953964
14252875	0.083779504	-0.072060272
14253750	0.07959768	-0.075511944
14254625	0.081122296	-0.071148416
14255500	0.08455016	-0.074867856
14256375	0.079745488	-0.078496632
14257250	0.081652328	-0.072663784
14258125	0.084977456	-0.076077872
14259000	0.082009552	-0.078776712
14259875	0.083319824	-0.074943456
14260750	0.084919216	-0.080110808
14261625	0.083294336	-0.076771672
14262500	0.08558888	-0.078234744
14263375	0.082472928	-0.082615904
14264250	0.083524872	-0.078215648
14265125	0.086412768	-0.081748488
14266000	0.081541984	-0.083807656
14266875	0.083915824	-0.07946188
14267750	0.087241384	-0.082907136
14268625	0.083026944	-0.086756856
14269500	0.084501856	-0.081308888
14270375	0.087682704	-0.085503488
14271250	0.085303408	-0.085327672
14272125	0.086502328	-0.084170976
14273000	0.086835624	-0.088686208
14273875	0.08552648	-0.084717592
14274750	0.088540624	-0.088423064
14275625	0.084122416	-0.090707816
14276500	0.085897984	-0.086266584
14277375	0.089260856	-0.089778816
14278250	0.084386224	-0.0931008
14279125	0.086433648	-0.087833328
14280000	0.089388392	-0.091861312
14280875	0.086096272	-0.094089216
14281750	0.087740408	-0.089967936
14282625	0.089452608	-0.09455156
14283500	0.087443664	-0.092327824
14284375	0.090188928	-0.094350208
14285250	0.087008016	-0.097787016
14286125	0.08771852	-0.093030536
14287000	0.090743608	-0.096432528
14287875	0.085594688	-0.098847192
14288750	0.087946496	-0.094754864
14289625	0.091310056	-0.09885924
14290500	0.086727824	-0.102431664
14291375	0.088553184	-0.09635732
14292250	0.091288856	-0.100463528
14293125	0.088645136	-0.101277504
14294000	0.090728696	-0.100103968
14294875	0.090087888	-0.103683024
14295750	0.089319752	-0.100114856
14296625	0.09196284	-0.102944824
14297500	0.08719964	-0.105663512
14298375	0.089208544	-0.10162116
14299250	0.092429824	-0.106135224
14300125	0.087245696	-0.10879248
14301000	0.089644808	-0.10335016
14301875	0.092466744	-0.107029752
14302750	0.089397904	-0.109899968
14303625	0.090874928	-0.105850288
14304500	0.092170456	-0.11100264
14305375	0.090609544	-0.107436288
14306250	0.092799192	-0.109277584
14307125	0.089471952	-0.11304892
14308000	0.09055588	-0.108581992
14308875	0.093781328	-0.11281
14309750	0.088176592	-0.1147072
14310625	0.090518472	-0.110108272
14311500	0.09365264	-0.114170544
14312375	0.088987472	-0.117815392
14313250	0.09094872	-0.111929864
14314125	0.093753592	-0.116674464
14315000	0.091242736	-0.116161664
14315875	0.092798192	-0.115066376
14316750	0.092273104	-0.119782376
14317625	0.09161872	-0.115645
14318500	0.09386332	-0.120167488
14319375	0.089604304	-0.12169984
14320250	0.091307336	-0.117176696
14321125	0.09443788	-0.120595896
14322000	0.08889396	-0.124022832
14322875	0.091643304	-0.118826576
14323750	0.094591616	-0.123436968
14324625	0.090934688	-0.12490496
14325500	0.092547432	-0.12078572
14326375	0.093994104	-0.125457288
14327250	0.092384288	-0.122729704
14328125	0.09470676	-0.124930888
14329000	0.091088768	-0.1278536
14329875	0.091814456	-0.122979816
14330750	0.094803064	-0.12664664
14331625	0.089771128	-0.128903136
14332500	0.091899	-0.124610376
14333375	0.09509496	-0.128903944
14334250	0.090124504	-0.132529576
14335125	0.092215168	-0.126365704
14336000	0.095094768	-0.130580904
14336875	0.09245892	-0.131042304
14337750	0.094397864	-0.130193296
14338625	0.092759616	-0.134460864
14339500	0.09216596	-0.129882456
14340375	0.095331968	-0.132954136
14341250	0.090251872	-0.136386384
14342125	0.092205016	-0.131530448
14343000	0.095202424	-0.136182432
14343875	0.089768928	-0.139182736
14344750	0.091990408	-0.133213592
14345625	0.095162104	-0.137271632
14346500	0.091180992	-0.13942272
14347375	0.093295536	-0.135993712
14348250	0.09398972	-0.141479808
14349125	0.092441784	-0.137420688
14350000	0.09462316	-0.139487472
