# Hz S RI R 50
10100000	-0.01235224	0.581789184
10100125	0.012970349	0.577991936
10100250	-0.008532413	0.584437376
10100375	0.017014404	0.576817408
10100500	0.005373437	0.582360384
10100625	-0.014798346	0.58349728
10100750	0.018546522	0.57826656
10100875	0.002030149	0.587526144
10101000	-0.014667999	0.591149504
10101125	0.020110796	0.581401024
10101250	0.007074754	0.588373696
10101375	-0.007750701	0.591080448
10101500	0.018863334	0.583734144
10101625	0.003881085	0.591586496
10101750	0.012346011	0.585087424
10101875	0.011848892	0.587489664
10102000	-0.004295409	0.591137152
10102125	0.02030563	0.585485696
10102250	0.005870917	0.593673152
10102375	-0.007962449	0.59511808
10102500	0.02120458	0.585527296
10102625	0.010425264	0.592186304
10102750	-0.008332895	0.59531168
10102875	0.02172672	0.586316672
10103000	0.008609638	0.593001024
10103125	0.005703502	0.589953152
10103250	0.017419206	0.586751808
10103375	0.001890052	0.591629888
10103500	0.02030737	0.585999488
10103625	0.009198755	0.592558144
10103750	-0.006844652	0.595608384
10103875	0.02223073	0.586766912
10104000	0.01139512	0.592851264
10104125	-0.005843218	0.5968304
10104250	0.022573336	0.586664512
10104375	0.009892306	0.592430976
10104500	-0.001668035	0.594306752
10104625	0.021782348	0.585940736
10104750	0.007946022	0.591959296
10104875	0.015912524	0.586895424
10105000	0.012337382	0.589221568
10105125	-0.00375678	0.592708096
10105250	0.022185072	0.584585408
10105375	0.010876453	0.590858688
10105500	-0.008624482	0.593228608
10105625	0.022050416	0.581517248
10105750	0.006430705	0.587084864
10105875	-0.011995974	0.588766144
10106000	0.021405676	0.578344
10106125	0.008506865	0.583702336
10106250	-0.000602614	0.580011648
10106375	0.015001704	0.578099328
10106500	-0.003589353	0.581987712
10106625	0.019981912	0.575339648
10106750	0.009057167	0.580950208
10106875	-0.014233465	0.58328672
10107000	0.022142502	0.575783296
10107125	0.005181447	0.581942656
10107250	-0.014879996	0.583740096
10107375	0.022977386	0.575209152
10107500	0.007856037	0.58010752
10107625	-0.007899178	0.581077824
10107750	0.0207992	0.574639488
10107875	-0.001485415	0.582302784
10108000	0.015063651	0.573735552
10108125	0.011659301	0.577161664
10108250	-0.011348854	0.577972928
10108375	0.022371592	0.573430272
10108500	0.003406987	0.581663616
10108625	-0.014428584	0.581279936
10108750	0.02373096	0.57332544
10108875	0.008927329	0.579760512
10109000	-0.013890811	0.58169088
10109125	0.023489746	0.572725824
10109250	0.006064778	0.579287936
10109375	0.00404297	0.574731008
10109500	0.017321878	0.572134656
10109625	-0.00353504	0.574574144
10109750	0.021922334	0.57119616
10109875	0.00653702	0.578008256
10110000	-0.015380786	0.577752
10110125	0.024440244	0.571789632
10110250	0.009743836	0.577061248
10110375	-0.014315437	0.57904064
10110500	0.024520174	0.571468224
10110625	0.00743878	0.577311552
10110750	-0.008933429	0.575231104
10110875	0.023190388	0.57074912
10111000	0.004772281	0.575166336
10111125	0.014662768	0.569041344
10111250	0.010826699	0.574053312
10111375	-0.009190808	0.57423392
10111500	0.025087174	0.570262336
10111625	0.010131821	0.575955968
10111750	-0.012784339	0.576851136
10111875	0.026019798	0.57019456
10112000	0.007881724	0.576288576
10112125	-0.014803198	0.575817344
10112250	0.026107514	0.569666048
10112375	0.009720202	0.573494592
10112500	0.006150879	0.570036352
10112625	0.017243836	0.571285568
10112750	-0.005568841	0.57438208
10112875	0.024649018	0.568361728
10113000	0.012006253	0.574230272
10113125	-0.011453813	0.573362368
10113250	0.026250136	0.569169536
10113375	0.006509794	0.576258368
10113500	-0.013980693	0.575525888
10113625	0.026886274	0.569368512
10113750	0.010367556	0.574951104
10113875	-0.005195657	0.572892864
10114000	0.023873672	0.568687424
10114125	0.003252189	0.575099776
10114250	0.021911304	0.56801216
10114375	0.014040958	0.57184608
10114500	-0.010263449	0.571063808
10114625	0.026642792	0.569042112
10114750	0.006905802	0.576314304
10114875	-0.011973299	0.575211072
10115000	0.027955064	0.569454208
10115125	0.01261569	0.574670656
10115250	-0.012277965	0.575238976
10115375	0.027573338	0.569072064
10115500	0.00849219	0.574153984
10115625	0.008947495	0.569944256
10115750	0.02111508	0.569363136
10115875	-0.001572265	0.571734208
10116000	0.026343414	0.56800448
10116125	0.00939974	0.574936768
10116250	-0.011304146	0.573299008
10116375	0.027987702	0.569095552
10116500	0.012824544	0.574821056
10116625	-0.01178995	0.57779744
10116750	0.028174182	0.56872192
10116875	0.010412136	0.574638336
10117000	-0.004576073	0.571426624
10117125	0.025864196	0.568922496
10117250	0.004954295	0.573822208
10117375	0.01930923	0.567211072
10117500	0.013373719	0.573232768
10117625	-0.00287851	0.574151424
10117750	0.027990602	0.569021888
10117875	0.013505498	0.575528256
10118000	-0.011016954	0.576379904
10118125	0.028470372	0.569308672
10118250	0.011412883	0.575696128
10118375	-0.011363402	0.577700416
10118500	0.02952685	0.56948832
10118625	-0.004700196	0.57149088
10118750	0.028848118	0.567368896
10118875	0.009655828	0.575954688
10119000	-0.009037369	0.57296032
10119125	0.03020297	0.568080256
10119250	0.013215375	0.57380288
10119375	-0.012013701	0.574849152
10119500	0.030410958	0.568114496
10119625	0.010687145	0.573161472
10119750	0.003007522	0.571731072
10119875	0.026706658	0.568280512
10120000	0.008022581	0.570938944
10120125	0.026874132	0.566943744
10120250	0.012196135	0.57302752
10120375	-0.00628605	0.5722848
10120500	0.030398386	0.56793056
10120625	0.015000664	0.573753216
10120750	-0.009651644	0.574431232
10120875	0.031314284	0.568184
10121000	0.013486612	0.573856384
10121125	-0.00863487	0.574533632
10121250	0.030661886	0.568468032
10121375	0.013140694	0.57293664
10121500	0.015208109	0.569809088
10121625	0.019630696	0.570379328
10121750	-0.004506522	0.572040576
10121875	0.030213164	0.567609408
10122000	0.016455852	0.574082752
10122125	-0.007975004	0.572940864
10122250	0.03194188	0.56800768
10122375	0.013971189	0.574377984
10122500	-0.008382238	0.575683264
10122625	0.031934478	0.568520128
10122750	0.016076919	0.573515712
10122875	0.002140519	0.572006784
10123000	0.02655474	0.568145088
10123125	0.006496581	0.574368896
10123250	0.02681577	0.567247232
10123375	0.01793877	0.57229056
10123500	-0.004983421	0.569492608
10123625	0.031128032	0.568335936
10123750	0.014300379	0.575157568
10123875	-0.007855039	0.575549184
10124000	0.032799088	0.568595136
10124125	0.0173461	0.573296576
10124250	-0.006778046	0.574587136
10124375	0.031866652	0.568204672
10124500	0.008146991	0.57467744
10124625	0.019113904	0.567985216
10124750	0.0238285	0.570101952
10124875	-0.004068379	0.57249024
10125000	0.032150358	0.567921664
10125125	0.014929954	0.57570368
10125250	-0.006974058	0.575691584
10125375	0.033320562	0.568819328
10125500	0.017457466	0.574668672
10125625	-0.007512669	0.57513152
10125750	0.033605268	0.56875776
10125875	0.012757151	0.575228096
10126000	0.007549904	0.571380352
10126125	0.029208886	0.568500864
10126250	0.007213578	0.5718128
10126375	0.030782244	0.56713632
10126500	0.013385396	0.573963008
10126625	-0.003626492	0.573457472
10126750	0.03363364	0.568623872
10126875	0.018696606	0.575277696
10127000	-0.005348583	0.57618144
10127125	0.034170224	0.568768704
10127250	0.016842698	0.575404416
10127375	-0.004282033	0.574777088
10127500	0.033173808	0.56916256
10127625	0.01572167	0.574359936
10127750	0.020619056	0.569753216
10127875	0.02183149	0.572019072
10128000	0.001424979	0.573725184
10128125	0.034234296	0.56868032
10128250	0.019127628	0.576040896
10128375	-0.004493086	0.575665664
10128500	0.034905168	0.569150592
10128625	0.016607274	0.575430592
10128750	-0.005810781	0.578017088
10128875	0.034699336	0.569431936
10129000	0.019523066	0.573886912
10129125	0.007322227	0.571117696
10129250	0.028367658	0.569356736
10129375	0.008141118	0.573248704
10129500	0.031969454	0.5682576
10129625	0.021924768	0.573358912
10129750	-0.00419036	0.573391872
10129875	0.035314752	0.569571648
10130000	0.017498698	0.576551872
10130125	-0.004256854	0.578499456
10130250	0.035968716	0.569789312
10130375	0.020760912	0.57516352
10130500	-0.001657512	0.576426496
10130625	0.034323672	0.569459648
10130750	0.013689545	0.576959936
10130875	0.024214662	0.56948288
10131000	0.025417256	0.571580928
10131125	-0.000387277	0.574685504
10131250	0.034863816	0.569457792
10131375	0.017718546	0.577311744
10131500	-0.002760327	0.576860928
10131625	0.036459588	0.570098752
10131750	0.021540866	0.577049792
10131875	-0.001416598	0.578401536
10132000	0.036452996	0.57051776
10132125	0.016141283	0.578182848
10132250	0.014104171	0.573159808
10132375	0.031711146	0.57055904
10132500	0.007526108	0.574791424
10132625	0.034067976	0.570490624
10132750	0.020547182	0.576450432
10132875	-0.000415884	0.578614784
10133000	0.0367751	0.570897664
10133125	0.0208643	0.578180352
10133250	-0.000905311	0.580363968
10133375	0.036884524	0.571064
10133500	0.019062886	0.577454976
10133625	0.003133037	0.577777984
10133750	0.035596848	0.571433088
10133875	0.01887566	0.577543872
10134000	0.027248248	0.571267584
10134125	0.023399074	0.575335296
10134250	0.004389719	0.576150848
10134375	0.036897844	0.571554048
10134500	0.02306854	0.578988736
10134625	0.001354469	0.580408576
10134750	0.037056164	0.5719584
10134875	0.020760414	0.579995584
10135000	0.001316103	0.582839296
10135125	0.037510428	0.572400064
10135250	0.022881788	0.578275776
10135375	0.016851136	0.576062912
10135500	0.030981854	0.573709696
10135625	0.010996297	0.578040384
10135750	0.035726084	0.571872256
10135875	0.02498558	0.578189312
10136000	0.000768247	0.58025312
10136125	0.037422028	0.573241152
10136250	0.02116918	0.581134912
10136375	0.000321647	0.583400384
10136500	0.038473476	0.57391744
10136625	0.025051774	0.58056
10136750	0.005537689	0.581249024
10136875	0.035594068	0.573144576
10137000	0.020633918	0.581084864
10137125	0.02950698	0.574000768
10137250	0.02916977	0.57717664
10137375	0.007175225	0.580712896
10137500	0.037605888	0.573870784
10137625	0.02197734	0.582281216
10137750	0.003337064	0.584298176
10137875	0.039429952	0.574324544
10138000	0.02525008	0.581737728
10138125	0.003857726	0.583306304
10138250	0.039224216	0.57457248
10138375	0.02075565	0.583003776
10138500	0.018967356	0.577478848
10138625	0.0338557	0.574999424
10138750	0.010429593	0.5797728
10138875	0.037261256	0.574301632
10139000	0.024709212	0.581365952
10139125	0.003744751	0.584060608
10139250	0.039649288	0.574914432
10139375	0.02590994	0.581866176
10139500	0.004903233	0.584656256
10139625	0.039483504	0.575158784
10139750	0.02271779	0.582884928
10139875	0.009493518	0.581464512
10140000	0.038384548	0.575070592
10140125	0.022542268	0.581745536
10140250	0.032764014	0.574186752
10140375	0.026186626	0.580300352
10140500	0.00857374	0.582987392
10140625	0.039895404	0.574909888
10140750	0.026952638	0.5833408
10140875	0.006164288	0.58632832
10141000	0.040879848	0.575541504
10141125	0.024853968	0.582784256
10141250	0.005860287	0.587252544
10141375	0.041101852	0.575928896
10141500	0.02610856	0.582196032
10141625	0.021311164	0.579107456
10141750	0.033363946	0.577427392
10141875	0.015179906	0.581854272
10142000	0.03895048	0.57513888
10142125	0.028656414	0.58118784
10142250	0.005999491	0.583544
10142375	0.040652304	0.57577792
10142500	0.025842062	0.58377728
10142625	0.006290687	0.586158144
10142750	0.041526744	0.576024192
10142875	0.02878581	0.582134528
10143000	0.011307934	0.583203136
10143125	0.039471996	0.576207296
10143250	0.021773472	0.586778368
10143375	0.03550776	0.574757952
10143500	0.0313348	0.579516736
10143625	0.012439688	0.584245952
10143750	0.041298008	0.575843712
10143875	0.02586858	0.5842544
10144000	0.008691359	0.587070592
10144125	0.042655244	0.576331904
10144250	0.029789628	0.582521344
10144375	0.009406015	0.586069312
10144500	0.04179374	0.576412544
10144625	0.024166736	0.585047872
10144750	0.02587267	0.57979936
10144875	0.036684116	0.57788832
10145000	0.011626366	0.583010944
10145125	0.041845716	0.5760816
10145250	0.028322728	0.584524608
10145375	0.00820655	0.584774592
10145500	0.042911228	0.576865536
10145625	0.02911026	0.583928256
10145750	0.009005898	0.588449792
10145875	0.04336126	0.576475008
10146000	0.028205138	0.58436224
10146125	0.01691254	0.583993664
10146250	0.040949952	0.576695296
10146375	0.025121222	0.582760512
10146500	0.037970108	0.576021952
10146625	0.029295292	0.582713344
10146750	0.012282148	0.584334016
10146875	0.043504012	0.576774976
10147000	0.031468772	0.585070784
10147125	0.010722257	0.587502464
10147250	0.043903136	0.57692352
10147375	0.029346608	0.585366208
10147500	0.010268845	0.588504576
10147625	0.044592952	0.576787072
10147750	0.030344528	0.58401696
10147875	0.02771658	0.580278784
10148000	0.036173036	0.579941824
10148125	0.017886656	0.58472928
10148250	0.043371016	0.5769024
10148375	0.032361098	0.583968832
10148500	0.012482456	0.58536672
10148625	0.044551752	0.577777152
10148750	0.030393356	0.585896512
10148875	0.012182992	0.589556032
10149000	0.045093332	0.577871808
10149125	0.032488346	0.584681664
10149250	0.016767014	0.58614624
10149375	0.041597504	0.578125184
10149500	0.023716876	0.587113536
10149625	0.03881236	0.577664192
10149750	0.034989076	0.5827856
10149875	0.01274711	0.58649472
10150000	0.045175072	0.57851904
