# Hz S RI R 50
7000000	0.025997078	-0.103763864
7000750	0.029177558	-0.107319256
7001500	0.024642354	-0.104568664
7002250	0.023951358	-0.116789136
7003000	0.029231224	-0.108820336
7003750	0.026312788	-0.105568248
7004500	0.02432	-0.119316376
7005250	0.029630532	-0.109871248
7006000	0.027174234	-0.106613536
7006750	0.029352584	-0.116486304
7007500	0.028054586	-0.110396128
7008250	0.032109366	-0.113804784
7009000	0.029557378	-0.11245268
7009750	0.026894328	-0.10936548
7010500	0.027882364	-0.119740016
7011250	0.02965835	-0.113378112
7012000	0.027988734	-0.110866392
7012750	0.02378066	-0.12258868
7013500	0.029756578	-0.114584704
7014250	0.026728226	-0.110819144
7015000	0.02581465	-0.122764384
7015750	0.029751548	-0.115569864
7016500	0.030384342	-0.114807008
7017250	0.031448388	-0.118499296
7018000	0.02796692	-0.115142088
7018750	0.03090469	-0.122791136
7019500	0.029873336	-0.118365736
7020250	0.027225112	-0.114007872
7021000	0.02315077	-0.126624392
7021750	0.030030246	-0.119412688
7022500	0.027093914	-0.115684232
7023250	0.024650576	-0.128238184
7024000	0.029769878	-0.121122888
7024750	0.029176414	-0.118712024
7025500	0.029198142	-0.125310496
7026250	0.02930959	-0.12150884
7027000	0.032611214	-0.12550856
7027750	0.030081228	-0.12304528
7028500	0.028189486	-0.120503912
7029250	0.027029438	-0.130677656
7030000	0.029826122	-0.124059128
7030750	0.027069414	-0.120228064
7031500	0.024518326	-0.131733496
7032250	0.02993644	-0.12542732
7033000	0.028976504	-0.122201936
7033750	0.02679881	-0.1325478
7034500	0.02996802	-0.126567152
7035250	0.030518698	-0.125487584
7036000	0.03067457	-0.129320416
7036750	0.029082774	-0.125533568
7037500	0.030093672	-0.132249672
7038250	0.03015775	-0.129066808
7039000	0.027033026	-0.124658928
7039750	0.023974956	-0.137503856
7040500	0.029870494	-0.130645272
7041250	0.028353766	-0.126373544
7042000	0.02452705	-0.138127424
7042750	0.029987874	-0.131556928
7043500	0.02761684	-0.128381832
7044250	0.030932724	-0.137540992
7045000	0.02892643	-0.131476224
7045750	0.031288464	-0.133789
7046500	0.030042312	-0.133740872
7047250	0.027046396	-0.130004824
7048000	0.027247048	-0.139857408
7048750	0.029210168	-0.13507992
7049500	0.028224452	-0.131148024
7050250	0.023084452	-0.142460992
7051000	0.02929435	-0.136155808
7051750	0.028046462	-0.132619472
7052500	0.026215748	-0.141709088
7053250	0.029260892	-0.137080368
7054000	0.032571786	-0.137501056
7054750	0.030535428	-0.139120736
7055500	0.027932246	-0.135741536
7056250	0.029089436	-0.143428592
7057000	0.029240542	-0.139847552
7057750	0.028158152	-0.136391312
7058500	0.023267218	-0.146129664
7059250	0.02918624	-0.141051824
7060000	0.027413336	-0.136977008
7060750	0.02386986	-0.148130176
7061500	0.028820122	-0.142138768
7062250	0.028296656	-0.139205936
7063000	0.028523576	-0.146802672
7063750	0.028154164	-0.142581648
7064500	0.031906124	-0.146968592
7065250	0.028780548	-0.14454736
7066000	0.027912518	-0.140988864
7066750	0.02598303	-0.150019424
7067500	0.028604706	-0.14546472
7068250	0.02683507	-0.141132608
7069000	0.021678778	-0.152401408
7069750	0.028322726	-0.147116304
7070500	0.027461764	-0.143415184
7071250	0.025676206	-0.152072064
7072000	0.028008136	-0.147785632
7072750	0.029249148	-0.148053312
7073500	0.028840424	-0.150638944
7074250	0.027086292	-0.14656336
7075000	0.028352482	-0.153963456
7075750	0.027959098	-0.150530064
7076500	0.025810758	-0.145583488
7077250	0.022345324	-0.156434464
7078000	0.0275295	-0.151686512
7078750	0.027009188	-0.14760848
7079500	0.022667694	-0.158553664
7080250	0.02756257	-0.153092544
7081000	0.027160838	-0.149431392
7081750	0.025695254	-0.156053264
7082500	0.026558826	-0.152251232
7083250	0.028305944	-0.154747456
7084000	0.027077358	-0.15536856
7084750	0.025454612	-0.1513036
7085500	0.024710238	-0.161089248
7086250	0.026553446	-0.156572256
7087000	0.026487524	-0.153191856
7087750	0.022576834	-0.1633024
7088500	0.026434666	-0.157516192
7089250	0.025866308	-0.154331424
7090000	0.025458392	-0.162407936
7090750	0.026340244	-0.15863872
7091500	0.029638238	-0.158845216
7092250	0.026349242	-0.160116224
7093000	0.02528858	-0.156963312
7093750	0.028159618	-0.164952416
7094500	0.025232678	-0.161268176
7095250	0.026316312	-0.157795024
7096000	0.020638558	-0.166793136
7096750	0.025838212	-0.162189184
7097500	0.025100506	-0.157911264
7098250	0.021576298	-0.16817272
7099000	0.024847434	-0.163586064
7099750	0.025755666	-0.160795264
7100500	0.025660906	-0.166691408
7101250	0.024121002	-0.1633304
7102000	0.02852709	-0.1671156
7102750	0.024558334	-0.165267904
7103500	0.024538624	-0.160954864
7104250	0.023227332	-0.170477536
7105000	0.024660352	-0.166301424
7105750	0.023814998	-0.162063408
7106500	0.019922394	-0.171333328
7107250	0.024029076	-0.167301008
7108000	0.0250085	-0.163758336
7108750	0.024496576	-0.173522896
7109500	0.02417885	-0.167743184
7110250	0.02672377	-0.168335504
7111000	0.024561892	-0.171156736
7111750	0.023843956	-0.166207456
7112500	0.024020574	-0.174703616
7113250	0.023550644	-0.170205648
7114000	0.023016028	-0.1664136
7114750	0.020108958	-0.177460416
7115500	0.02314738	-0.171984192
7116250	0.02366168	-0.168202688
7117000	0.021056422	-0.17744152
7117750	0.022794366	-0.172717632
7118500	0.02415052	-0.172427808
7119250	0.022870706	-0.17649384
7120000	0.02239701	-0.17235968
7120750	0.025592212	-0.178043552
7121500	0.022082432	-0.175311792
7122250	0.02130923	-0.171398976
7123000	0.020563952	-0.180612416
7123750	0.021275628	-0.176403632
7124500	0.023200036	-0.173281056
7125250	0.017442328	-0.181134896
7126000	0.020993158	-0.177911552
7126750	0.021678778	-0.173922032
7127500	0.019701784	-0.182323456
7128250	0.020467386	-0.178547024
7129000	0.02379187	-0.178365104
7129750	0.020013292	-0.180383888
7130500	0.01933255	-0.177735984
7131250	0.020872828	-0.185119168
7132000	0.018931386	-0.181752912
7132750	0.019822612	-0.177966656
7133500	0.015629869	-0.185064
7134250	0.018366984	-0.183392176
7135000	0.018765536	-0.179686912
7135750	0.016753683	-0.187153456
7136500	0.017658264	-0.184273568
7137250	0.020238744	-0.181958896
7138000	0.018985222	-0.188990096
7138750	0.017882248	-0.184255584
7139500	0.021205232	-0.188578656
7140250	0.017118754	-0.187047232
7141000	0.017603378	-0.183341056
7141750	0.016392574	-0.191863824
7142500	0.016365	-0.188586368
7143250	0.016691601	-0.183907952
7144000	0.012684998	-0.191045552
7144750	0.015515701	-0.189646896
7145500	0.017188598	-0.185518224
7146250	0.01434456	-0.19370688
7147000	0.015351511	-0.190264272
7147750	0.019129032	-0.192456192
7148500	0.01478086	-0.192183232
7149250	0.015960141	-0.189332368
7150000	0.016824122	-0.195946848
7150750	0.014223023	-0.193022464
7151500	0.015122376	-0.189336368
7152250	0.011970319	-0.197157744
7153000	0.013465247	-0.194382896
7153750	0.01606964	-0.191416912
7154500	0.011878909	-0.197948528
7155250	0.013133682	-0.195358384
7156000	0.015277116	-0.193489776
7156750	0.012638557	-0.198027952
7157500	0.013952039	-0.194821696
7158250	0.016211963	-0.199276432
7159000	0.012173515	-0.197642336
7159750	0.012231065	-0.193617344
7160500	0.011419897	-0.201771568
7161250	0.01120875	-0.198978656
7162000	0.013750648	-0.195534336
7162750	0.008054091	-0.202327744
7163500	0.010560417	-0.200652288
7164250	0.012183982	-0.19602456
7165000	0.009997928	-0.203091712
7165750	0.010213338	-0.20041784
7166500	0.013787473	-0.201468032
7167250	0.009962515	-0.20266096
7168000	0.010060103	-0.199798944
7168750	0.010910412	-0.205812848
7169500	0.008796222	-0.203841264
7170250	0.011274066	-0.200310768
7171000	0.006835336	-0.206877184
7171750	0.008080602	-0.20513904
7172500	0.009802916	-0.20092176
7173250	0.00641318	-0.210155856
7174000	0.007052949	-0.206152592
7174750	0.011314759	-0.203994176
7175500	0.007152367	-0.209263632
7176250	0.007180354	-0.20548872
7177000	0.011711884	-0.210985728
7177750	0.006285624	-0.208513792
7178500	0.008508151	-0.204831632
7179250	0.006837915	-0.211269744
7180000	0.005315908	-0.209463024
7180750	0.007441331	-0.205531872
7181500	0.003896841	-0.212155216
7182250	0.004499913	-0.210835472
7183000	0.008374473	-0.208227296
7183750	0.004162796	-0.21346312
7184500	0.004502111	-0.211036608
7185250	0.007982182	-0.211964896
7186000	0.003555486	-0.212447104
7186750	0.006109781	-0.211126176
7187500	0.006508272	-0.21662232
7188250	0.003123181	-0.213702976
7189000	0.004335234	-0.209857168
7189750	0.001381705	-0.2157332
7190500	0.001668626	-0.214565616
7191250	0.004956162	-0.211676752
7192000	0.002630992	-0.217948368
7192750	0.001334396	-0.215877712
7193500	0.004701949	-0.214489392
7194250	0.001487618	-0.21857904
7195000	0.002259159	-0.214925888
7195750	0.004318882	-0.219974064
7196500	-0.00027401	-0.218156256
7197250	0.001701476	-0.214054752
7198000	-0.000198436	-0.220620928
7198750	-0.001066342	-0.219198048
7199500	0.002568211	-0.215889536
7200250	-0.000298717	-0.222192256
7201000	-0.001607353	-0.220399184
7201750	0.000804226	-0.217431312
7202500	-0.000226701	-0.2247224
7203250	-0.001904004	-0.220516704
7204000	0.001722993	-0.221818816
7204750	-0.002573399	-0.222849792
7205500	-0.001574671	-0.219281008
7206250	-0.000041322	-0.223954096
7207000	-0.004218296	-0.223167056
7207750	-0.000633022	-0.220199152
7208500	-0.004505567	-0.225304656
7209250	-0.004903867	-0.224409712
7210000	-0.002793101	-0.220842176
7210750	-0.004659101	-0.228044896
7211500	-0.005432992	-0.225131232
7212250	-0.000689978	-0.226912992
7213000	-0.004085079	-0.227161952
7213750	-0.00573834	-0.225653648
7214500	-0.000349884	-0.228889744
7215250	-0.006809597	-0.227266096
7216000	-0.005781626	-0.224086832
7216750	-0.003094974	-0.23181256
7217500	-0.008174754	-0.228064048
7218250	-0.003947897	-0.225874272
7219000	-0.00752436	-0.231486848
7219750	-0.008729458	-0.229221008
7220500	-0.005436261	-0.225935312
7221250	-0.007494929	-0.233025968
7222000	-0.009536015	-0.229675728
7222750	-0.005348924	-0.229606064
7223500	-0.008427324	-0.232808944
7224250	-0.009721016	-0.229130624
7225000	-0.004024548	-0.235260192
7225750	-0.011480843	-0.232203648
7226500	-0.007442133	-0.229495632
7227250	-0.009361792	-0.233881952
7228000	-0.01240728	-0.23306752
7228750	-0.009211313	-0.229899872
7229500	-0.012572255	-0.23604032
7230250	-0.013183957	-0.23377232
7231000	-0.00897914	-0.231668416
7231750	-0.011967889	-0.236785264
7232500	-0.013143418	-0.23415304
7233250	-0.00689364	-0.236493744
7234000	-0.013898423	-0.236320992
7234750	-0.011353767	-0.233653856
7235500	-0.010801673	-0.239911616
7236250	-0.015481927	-0.236918352
7237000	-0.01291724	-0.233143552
7237750	-0.013194719	-0.238531568
7238500	-0.016854012	-0.237537152
7239250	-0.011922099	-0.23657976
7240000	-0.015768372	-0.240876688
7240750	-0.017149502	-0.238530704
7241500	-0.012734239	-0.2379964
7242250	-0.01761482	-0.23965696
7243000	-0.016077795	-0.237623488
7243750	-0.012752209	-0.243495136
7244500	-0.019248096	-0.240113936
7245250	-0.016331312	-0.236502112
7246000	-0.017178386	-0.24291936
7246750	-0.020144872	-0.240913408
7247500	-0.015288144	-0.239022832
7248250	-0.01929732	-0.24394792
7249000	-0.021217196	-0.241882928
7249750	-0.017731166	-0.240320176
7250500	-0.019883344	-0.24533784
7251250	-0.020605834	-0.242355664
7252000	-0.016382987	-0.245882528
7252750	-0.022623222	-0.243885664
7253500	-0.019863348	-0.241088976
7254250	-0.01876741	-0.248009536
7255000	-0.023943666	-0.24469168
7255750	-0.019125958	-0.242933968
7256500	-0.020553134	-0.248013616
7257250	-0.025094554	-0.245715408
7258000	-0.02103453	-0.243080528
7258750	-0.022893506	-0.248817632
7259500	-0.02562626	-0.24622304
7260250	-0.020467318	-0.246599264
7261000	-0.024806618	-0.248265968
7261750	-0.0251889	-0.246238032
7262500	-0.020726834	-0.253670992
7263250	-0.02797265	-0.248191856
7264000	-0.023201458	-0.246372304
7264750	-0.024078984	-0.251917984
7265500	-0.02892937	-0.24935176
7266250	-0.026161916	-0.24682856
7267000	-0.026645668	-0.252481904
7267750	-0.030173026	-0.250085296
7268500	-0.024872582	-0.24989952
7269250	-0.02874489	-0.253280608
7270000	-0.029804006	-0.25052408
7270750	-0.023782544	-0.25497488
7271500	-0.032054804	-0.251466928
7272250	-0.027858432	-0.251049904
7273000	-0.02764881	-0.255635344
7273750	-0.032892928	-0.252563568
7274500	-0.02907102	-0.249788176
7275250	-0.029578832	-0.255035072
7276000	-0.03424178	-0.253349392
7276750	-0.028983648	-0.252730992
7277500	-0.030981038	-0.2568632
7278250	-0.03489216	-0.25408208
7279000	-0.029860414	-0.255615232
7279750	-0.034831856	-0.257173504
7280500	-0.03285576	-0.254990304
7281250	-0.029179384	-0.261083536
7282000	-0.037194712	-0.255595984
7282750	-0.03296793	-0.252893232
7283500	-0.035280944	-0.259422544
7284250	-0.038481084	-0.257064976
7285000	-0.032926564	-0.25497416
7285750	-0.035419296	-0.260308624
7286500	-0.03984212	-0.257869088
7287250	-0.034302516	-0.256687936
7288000	-0.037121896	-0.259986528
7288750	-0.038651796	-0.258215248
7289500	-0.03385136	-0.263834688
7290250	-0.041442124	-0.25921816
7291000	-0.038025296	-0.256670928
7291750	-0.03433122	-0.263990848
7292500	-0.043006004	-0.26014048
7293250	-0.037135436	-0.258707024
7294000	-0.038273792	-0.26352128
7294750	-0.043998608	-0.260590288
7295500	-0.039334808	-0.2581032
7296250	-0.03963134	-0.263860496
7297000	-0.044377784	-0.260939008
7297750	-0.03852136	-0.263787184
7298500	-0.043928772	-0.263888992
7299250	-0.04291526	-0.261341216
7300000	-0.03989224	-0.267743376
