# Hz S RI R 50
3500000	0.688914112	0.25322304
3501250	0.690561216	0.250275824
3502500	0.68975232	0.251559792
3503750	0.691043072	0.247989664
3505000	0.691947968	0.24613008
3506250	0.690847488	0.248915136
3507500	0.691991616	0.24498464
3508750	0.693343168	0.24421936
3510000	0.692306688	0.246043616
3511250	0.693390208	0.243281856
3512500	0.693216064	0.244594688
3513750	0.694254464	0.241020208
3515000	0.695445568	0.239292848
3516250	0.694446976	0.241945408
3517500	0.695366144	0.238023552
3518750	0.696314432	0.236489952
3520000	0.695707904	0.239216224
3521250	0.696737024	0.235394496
3522500	0.696816832	0.236419712
3523750	0.697318208	0.234413648
3525000	0.697893696	0.233253104
3526250	0.6976832	0.234734864
3527500	0.698410112	0.230928432
3528750	0.69958944	0.229817984
3530000	0.6990384	0.231099152
3531250	0.699894656	0.22889336
3532500	0.699635712	0.23015624
3533750	0.700393216	0.226070544
3535000	0.701259648	0.227223968
3536250	0.701243968	0.225521936
3537500	0.701771712	0.224642208
3538750	0.701892416	0.22587224
3540000	0.702228864	0.221804768
3541250	0.703425152	0.220565744
3542500	0.703034688	0.223138976
3543750	0.70368896	0.21902496
3545000	0.70438656	0.216565472
3546250	0.704252032	0.220269936
3547500	0.704657088	0.216398848
3548750	0.705345856	0.216303152
3550000	0.7051392	0.216387712
3551250	0.70598208	0.21446208
3552500	0.706316672	0.215883984
3553750	0.706398976	0.211976112
3555000	0.707445952	0.210827552
3556250	0.707272576	0.21326608
3557500	0.707595904	0.208905824
3558750	0.708535424	0.207215424
3560000	0.708108736	0.210517968
3561250	0.708712768	0.20583072
3562500	0.709691328	0.204645792
3563750	0.70948	0.20749528
3565000	0.709754496	0.20404592
3566250	0.710486848	0.204666
3567500	0.710393088	0.202402144
3568750	0.710886336	0.201646848
3570000	0.71111328	0.203138288
3571250	0.711680896	0.198960752
3572500	0.712514432	0.197308832
3573750	0.712453824	0.200230272
3575000	0.712348352	0.19583144
3576250	0.713393856	0.194114224
3577500	0.712985344	0.197484384
3578750	0.713646144	0.193157264
3580000	0.71431232	0.1932896
3581250	0.714136	0.193544208
3582500	0.714421184	0.191206992
3583750	0.714868864	0.192928976
3585000	0.715552384	0.188865488
3586250	0.716020352	0.18778048
3587500	0.716217728	0.190164768
3588750	0.71600384	0.185567072
3590000	0.717413504	0.184341392
3591250	0.717156288	0.187241504
3592500	0.716968704	0.182936544
3593750	0.717857024	0.18134984
3595000	0.71818496	0.18411192
3596250	0.718201024	0.180221776
3597500	0.719096768	0.181430864
3598750	0.718832896	0.179285968
3600000	0.719238528	0.178720944
3601250	0.719651072	0.179679456
3602500	0.71994944	0.175837616
3603750	0.72025632	0.174709792
3605000	0.720701376	0.177024752
3606250	0.72065216	0.172825312
3607500	0.72107296	0.170654544
3608750	0.721781376	0.174298672
3610000	0.721502784	0.169890032
3611250	0.722035712	0.169744416
3612500	0.722337216	0.169959984
3613750	0.722398528	0.168065456
3615000	0.72336896	0.169224304
3616250	0.723077568	0.165354528
3617500	0.723822656	0.164645088
3618750	0.724229312	0.166667024
3620000	0.72372864	0.16237256
3621250	0.724711104	0.160235008
3622500	0.725130496	0.163742016
3623750	0.724723648	0.159555888
3625000	0.725458304	0.158026464
3626250	0.725842944	0.160428128
3627500	0.72586816	0.157079952
3628750	0.726663616	0.15796816
3630000	0.726439616	0.155696272
3631250	0.726732864	0.154171552
3632500	0.727381056	0.156345072
3633750	0.72674464	0.151951872
3635000	0.728274496	0.150579312
3636250	0.728555264	0.153465984
3637500	0.727779648	0.149156896
3638750	0.728209536	0.146539728
3640000	0.729167424	0.150760048
3641250	0.728790912	0.146513376
3642500	0.729522816	0.145968128
3643750	0.729620992	0.146260528
3645000	0.72973568	0.143944848
3646250	0.730498048	0.145838864
3647500	0.730095552	0.141577296
3648750	0.73055616	0.14126024
3650000	0.731407808	0.142857504
3651250	0.730650816	0.138620448
3652500	0.731852928	0.136791312
3653750	0.732340672	0.140070128
3655000	0.731445824	0.135749824
3656250	0.732193408	0.134363792
3657500	0.73270752	0.13667088
3658750	0.7323568	0.133658944
3660000	0.733202368	0.134386048
3661250	0.732786624	0.131993576
3662500	0.733636928	0.13086364
3663750	0.734276608	0.132422728
3665000	0.733500096	0.128196744
3666250	0.733913728	0.12676676
3667500	0.7350432	0.129558072
3668750	0.734134208	0.12515424
3670000	0.734702016	0.123058624
3671250	0.735946304	0.126713096
3672500	0.734978304	0.12249308
3673750	0.735905664	0.12210332
3675000	0.736030912	0.122232472
3676250	0.735962176	0.120272616
3677500	0.737104384	0.12164436
3678750	0.736130432	0.117949488
3680000	0.736489088	0.116981232
3681250	0.738001664	0.118937352
3682500	0.736815104	0.114850032
3683750	0.736970752	0.113047368
3685000	0.738700288	0.11598268
3686250	0.737677248	0.112023112
3687500	0.738066752	0.1103438
3688750	0.739225472	0.112688208
3690000	0.738160064	0.109189536
3691250	0.739509248	0.110210304
3692500	0.7387072	0.107550064
3693750	0.739339456	0.106801408
3695000	0.740426624	0.108352824
3696250	0.739257664	0.104540856
3697500	0.739371776	0.102351016
3698750	0.741104896	0.105427968
3700000	0.739939904	0.101320056
3701250	0.740685632	0.098861272
3702500	0.741668416	0.102558744
3703750	0.74051008	0.098303
3705000	0.74186368	0.09792108
3706250	0.741681408	0.0975786
3707500	0.741480192	0.096500376
3708750	0.742696	0.097288304
3710000	0.741291776	0.093679912
3711250	0.741722752	0.092271472
3712500	0.743510656	0.094610176
3713750	0.741980672	0.090456944
3715000	0.74215296	0.088466096
3716250	0.744029312	0.091786368
3717500	0.742381632	0.087659328
3718750	0.743348608	0.08605728
3720000	0.74421376	0.088032776
3721250	0.743447936	0.084878648
3722500	0.744737408	0.086279536
3723750	0.74380512	0.083148912
3725000	0.744696	0.082482272
3726250	0.745586816	0.083824928
3727500	0.744320256	0.079748992
3728750	0.743925184	0.078572904
3730000	0.746151424	0.081018616
3731250	0.744563264	0.076494088
3732500	0.744518336	0.074396888
3733750	0.746567744	0.078149392
3735000	0.745092352	0.073764112
3736250	0.74586496	0.074222368
3737500	0.746299968	0.073453144
3738750	0.746531456	0.071615216
3740000	0.747716992	0.07286072
3741250	0.745982592	0.06940656
3742500	0.746810688	0.067789016
3743750	0.747957184	0.0701618
3745000	0.74621536	0.065806836
3746250	0.74602688	0.063728108
3747500	0.748620224	0.067298616
3748750	0.746627584	0.062881364
3750000	0.747090944	0.062314084
3751250	0.748774528	0.063215836
3752500	0.747608832	0.060541912
3753750	0.749097856	0.06163096
3755000	0.747753472	0.058423868
3756250	0.748472064	0.057531432
3757500	0.75003168	0.059087184
3758750	0.747627136	0.055130728
3760000	0.747723648	0.05299646
3761250	0.75047808	0.056083328
3762500	0.748310144	0.052204656
3763750	0.747461376	0.05033466
3765000	0.750676864	0.053059056
3766250	0.748792896	0.049219368
3767500	0.74928224	0.048943836
3768750	0.749876672	0.048447192
3770000	0.74989952	0.046766404
3771250	0.751502528	0.047919452
3772500	0.749401792	0.04453656
3773750	0.749888256	0.043553188
3775000	0.751791424	0.045001084
3776250	0.749521792	0.041406432
3777500	0.749427904	0.039726472
3778750	0.752163264	0.042299696
3780000	0.750097664	0.038248332
3781250	0.75042336	0.036587204
3782500	0.751895808	0.038377788
3783750	0.750530368	0.035841836
3785000	0.752633536	0.036300512
3786250	0.750862272	0.033540316
3787500	0.751389632	0.032775722
3788750	0.753120256	0.033920272
3790000	0.751244928	0.030197124
3791250	0.75092448	0.029171458
3792500	0.75368864	0.031034966
3793750	0.751049344	0.027211274
3795000	0.7503728	0.02491971
3796250	0.75409696	0.027961356
3797500	0.751446912	0.02413296
3798750	0.752571072	0.024251926
3800000	0.7528592	0.02332698
3801250	0.752532416	0.022354718
3802500	0.754354112	0.022994182
3803750	0.752036736	0.019382782
3805000	0.752479808	0.018103484
3806250	0.754598464	0.01990811
3807500	0.751865664	0.016429373
3808750	0.75143616	0.014127218
3810000	0.755123712	0.016958384
3811250	0.752474432	0.013282328
3812500	0.753268032	0.01177447
3813750	0.754605632	0.013027715
3815000	0.752989056	0.010453645
3816250	0.755425536	0.011592339
3817500	0.7527888	0.00842149
3818750	0.753341824	0.007762889
3820000	0.755590976	0.008768472
3821250	0.752881216	0.005186507
3822500	0.752155008	0.003396207
3823750	0.756030528	0.005824806
3825000	0.752842176	0.002284864
3826250	0.753248128	-0.000578523
3827500	0.756180608	0.002491476
3828750	0.753161088	-0.0009884
3830000	0.754569344	-0.000162681
3831250	0.754472384	-0.001604201
3832500	0.754192512	-0.003345066
3833750	0.756514816	-0.002719996
3835000	0.753716928	-0.005973025
3836250	0.75346944	-0.006951056
3837500	0.75680192	-0.005379364
3838750	0.753501952	-0.008718551
3840000	0.753259904	-0.010831736
3841250	0.756943808	-0.008414134
3842500	0.753687616	-0.011826468
3843750	0.753797312	-0.013274663
3845000	0.756031104	-0.012652575
3846250	0.75426464	-0.014871371
3847500	0.756845376	-0.013765869
3848750	0.754016768	-0.01685125
3850000	0.754545216	-0.017816536
3851250	0.756991104	-0.01677664
3852500	0.754060672	-0.020029194
3853750	0.754021952	-0.021402074
3855000	0.757447808	-0.019952264
3856250	0.75360064	-0.022811122
3857500	0.753317056	-0.02469583
3858750	0.75725888	-0.02302765
3860000	0.754170496	-0.02608539
3861250	0.755775232	-0.026231078
3862500	0.755343168	-0.027460146
3863750	0.755262272	-0.028586376
3865000	0.757579712	-0.028220554
3866250	0.754090304	-0.031037872
3867500	0.754172416	-0.032673148
3868750	0.757400256	-0.031155074
3870000	0.75411168	-0.034277968
3871250	0.752988992	-0.036227452
3872500	0.757699648	-0.034128664
3873750	0.754150592	-0.0371822
3875000	0.75476864	-0.038455456
3876250	0.756620736	-0.03804546
3877500	0.75489632	-0.039892364
3878750	0.757595328	-0.039631092
3880000	0.75418176	-0.041919324
3881250	0.754534528	-0.04322462
3882500	0.757545984	-0.042505056
3883750	0.753417216	-0.045507084
3885000	0.753083712	-0.04709962
3886250	0.757731904	-0.045722072
3887500	0.75371136	-0.048270956
3888750	0.753610944	-0.050474816
3890000	0.75737664	-0.048798296
3891250	0.753894976	-0.051228784
3892500	0.756189376	-0.051591688
3893750	0.755042432	-0.052828244
3895000	0.754913216	-0.054190792
3896250	0.757533824	-0.053807408
3897500	0.754171584	-0.056578256
3898750	0.75377984	-0.058133632
3900000	0.757448064	-0.057007652
3901250	0.753487808	-0.059798868
3902500	0.752123264	-0.061576888
3903750	0.757416384	-0.060114924
3905000	0.753105152	-0.06227276
3906250	0.753939008	-0.06371858
3907500	0.755852992	-0.06387532
3908750	0.753990912	-0.065074512
3910000	0.75682304	-0.065596292
3911250	0.753287744	-0.067752736
3912500	0.753639488	-0.068564448
3913750	0.75687904	-0.068478128
3915000	0.752984512	-0.070778448
3916250	0.751853952	-0.072527144
3917500	0.75665984	-0.071408288
3918750	0.752620544	-0.073564208
3920000	0.75154048	-0.074744248
3921250	0.756557888	-0.074618944
3922500	0.753070208	-0.076649832
3923750	0.754625024	-0.077333992
3925000	0.753592768	-0.078240728
3926250	0.753711552	-0.079476664
3927500	0.756211072	-0.07990428
3928750	0.752108928	-0.08177288
3930000	0.752086976	-0.083640728
3931250	0.756074688	-0.083007048
3932500	0.752059776	-0.084622568
3933750	0.751404928	-0.086266872
3935000	0.756059392	-0.085760048
3936250	0.751579136	-0.08776496
3937500	0.75268672	-0.089480088
3938750	0.75371072	-0.089585888
3940000	0.75250688	-0.0909442
3941250	0.755441216	-0.091300832
3942500	0.751713728	-0.09311276
3943750	0.752102848	-0.09420096
3945000	0.755128128	-0.094179744
3946250	0.75075872	-0.09594608
3947500	0.749660608	-0.097041688
3948750	0.755048512	-0.097242296
3950000	0.750729664	-0.098869304
3951250	0.74970112	-0.101126568
3952500	0.754411008	-0.10049204
3953750	0.750456704	-0.102407712
3955000	0.754787264	-0.097469488
3956250	0.75068768	-0.098934296
3957500	0.754477504	-0.099691984
3958750	0.750322368	-0.101359384
3960000	0.747848384	-0.103111312
3961250	0.754216704	-0.103103432
3962500	0.749646016	-0.104400536
3963750	0.7497696	-0.106304752
3965000	0.753359104	-0.106538224
3966250	0.749547072	-0.107390528
3967500	0.752896192	-0.108813968
3968750	0.750042496	-0.109906016
3970000	0.750480384	-0.111077808
3971250	0.752906432	-0.111407272
3972500	0.74904704	-0.112476216
3973750	0.74788832	-0.113996864
3975000	0.752735232	-0.11472004
3976250	0.748296	-0.115626352
3977500	0.746416384	-0.117306416
3978750	0.752434496	-0.117460432
3980000	0.748212608	-0.118542432
3981250	0.74916768	-0.119973912
3982500	0.749804608	-0.120708968
3983750	0.748132544	-0.12198868
3985000	0.751655104	-0.12277108
3986250	0.74781472	-0.123873328
3987500	0.746922688	-0.12540336
3988750	0.751293696	-0.125817184
3990000	0.746858688	-0.12693268
3991250	0.745825984	-0.128212896
3992500	0.750992576	-0.128814264
3993750	0.746644928	-0.129605816
3995000	0.745901248	-0.130824088
3996250	0.749614848	-0.132129448
3997500	0.746199552	-0.132944632
3998750	0.748808832	-0.134395328
4000000	0.746484864	-0.135135632
