# Hz S RI R 50
28000000	0.253984448	-0.304256672
28004250	0.248927264	-0.31285904
28008500	0.252341776	-0.302829344
28012750	0.245384304	-0.313897376
28017000	0.24258896	-0.316460896
28021250	0.2459744	-0.308554368
28025500	0.241211824	-0.31585888
28029750	0.23852744	-0.318524256
28034000	0.240952976	-0.305474976
28038250	0.236256384	-0.318284192
28042500	0.234175872	-0.320294912
28046750	0.236421216	-0.31554304
28051000	0.23265112	-0.320228288
28055250	0.234734464	-0.315778624
28059500	0.229613824	-0.318874912
28063750	0.226165584	-0.323968288
28068000	0.229598752	-0.317876992
28072250	0.223043056	-0.323615968
28076500	0.2200548	-0.326191456
28080750	0.224720624	-0.313793632
28085000	0.218357392	-0.325477824
28089250	0.215623168	-0.32750912
28093500	0.21957808	-0.321097696
28097750	0.214705824	-0.327517088
28102000	0.214120144	-0.327024832
28106250	0.214307232	-0.321744512
28110500	0.208621648	-0.329821216
28114750	0.216420912	-0.324045568
28119000	0.205133152	-0.330098592
28123250	0.20143696	-0.332275264
28127500	0.208933232	-0.321547488
28131750	0.199972752	-0.331978688
28136000	0.19735248	-0.333615264
28140250	0.201871936	-0.32852864
28144500	0.196362096	-0.333245568
28148750	0.192630544	-0.334713184
28153000	0.20022712	-0.324570496
28157250	0.191887408	-0.334406464
28161500	0.19574456	-0.33310096
28165750	0.188361808	-0.335198336
28170000	0.18446136	-0.33663632
28174250	0.193185104	-0.328356416
28178500	0.181644048	-0.33682672
28182750	0.178755248	-0.33847088
28187000	0.185167648	-0.33365392
28191250	0.177804672	-0.338132
28195500	0.174767136	-0.339250944
28199750	0.18342296	-0.329371872
28204000	0.17338288	-0.339090016
28208250	0.173772416	-0.340242496
28212500	0.173111872	-0.338410528
28216750	0.16844224	-0.340743968
28221000	0.177489984	-0.335726272
28225250	0.164327584	-0.34045952
28229500	0.16130776	-0.34162576
28233750	0.168261776	-0.338579808
28238000	0.159889024	-0.341384224
28242250	0.156896224	-0.342661024
28246500	0.166827968	-0.334680896
28250750	0.155764992	-0.342532928
28255000	0.1522244	-0.343181696
28259250	0.157526912	-0.341020224
28263500	0.151985264	-0.344003936
28267750	0.155784928	-0.342159488
28272000	0.151291696	-0.342200448
28276250	0.144149152	-0.343728864
28280500	0.152228288	-0.342969856
28284750	0.142380272	-0.343964256
28289000	0.139005184	-0.344698912
28293250	0.151103536	-0.338648928
28297500	0.137861984	-0.344607072
28301750	0.135064976	-0.345205792
28306000	0.140499712	-0.344266816
28310250	0.134186952	-0.345934208
28314500	0.133844736	-0.345866272
28318750	0.138854528	-0.34225408
28323000	0.129672232	-0.346429184
28327250	0.135615248	-0.346548896
28331500	0.125228984	-0.345783456
28335750	0.122149344	-0.345574144
28340000	0.134477008	-0.343195808
28344250	0.120819616	-0.34607504
28348500	0.118001704	-0.3464472
28352750	0.124094784	-0.346280928
28357000	0.116950808	-0.346728416
28361250	0.113434424	-0.346539616
28365500	0.126379192	-0.342851232
28369750	0.113340264	-0.34717264
28374000	0.11658284	-0.348869824
28378250	0.110427136	-0.34751856
28382500	0.106391464	-0.346260928
28386750	0.118585632	-0.346597408
28391000	0.104022968	-0.346388416
28395250	0.10109184	-0.346154464
28399500	0.10874588	-0.347861696
28403750	0.100495104	-0.346668992
28408000	0.09737196	-0.346334496
28412250	0.110107344	-0.34453104
28416500	0.09687172	-0.34680688
28420750	0.09570052	-0.348296448
28425000	0.096494808	-0.347759136
28429250	0.091718168	-0.347075648
28433500	0.100492288	-0.34904528
28437750	0.089111496	-0.346982144
28442000	0.085805632	-0.345813536
28446250	0.093510352	-0.349241952
28450500	0.084244112	-0.345941344
28454750	0.081640328	-0.345691424
28459000	0.09410048	-0.346189824
28463250	0.080338496	-0.346086496
28467500	0.077717728	-0.345248224
28471750	0.082513568	-0.349121408
28476000	0.076985272	-0.346486752
28480250	0.07953048	-0.348121888
28484500	0.078228608	-0.346310976
28488750	0.071704856	-0.344728192
28493000	0.078391488	-0.349915328
28497250	0.068856888	-0.344537408
28501500	0.06621418	-0.343667008
28505750	0.078324408	-0.34704832
28510000	0.064824036	-0.344447136
28514250	0.062864116	-0.3440408
28518500	0.067096868	-0.34712144
28522750	0.06123128	-0.344918624
28527000	0.060596288	-0.34507168
28531250	0.067895792	-0.346798368
28535500	0.056170468	-0.344852608
28539750	0.06220398	-0.349887808
28544000	0.054037544	-0.343281792
28548250	0.051036972	-0.342536288
28552500	0.062564096	-0.347720096
28556750	0.049969072	-0.342478688
28561000	0.048034392	-0.342184832
28565250	0.05238252	-0.346558048
28569500	0.04645922	-0.34247552
28573750	0.044926532	-0.341153568
28578000	0.055831288	-0.346310816
28582250	0.042789876	-0.343514144
28586500	0.04510306	-0.34605792
28590750	0.040707404	-0.34327232
28595000	0.038160724	-0.340712096
28599250	0.046637116	-0.348305024
28603500	0.035595084	-0.339551072
28607750	0.033474916	-0.339017792
28612000	0.038262936	-0.345181504
28616250	0.032267348	-0.339547552
28620500	0.031041016	-0.338655776
28624750	0.041092716	-0.345238688
28629000	0.029025738	-0.340084736
28633250	0.02824299	-0.339970048
28637500	0.028382792	-0.342341152
28641750	0.024810034	-0.339132864
28646000	0.02930426	-0.345424032
28650250	0.023334566	-0.338606752
28654500	0.019854794	-0.336356416
28658750	0.02451628	-0.343584768
28663000	0.018528994	-0.336433408
28667250	0.01707813	-0.3358024
28671500	0.025971766	-0.343673632
28675750	0.015441293	-0.336505088
28680000	0.014723105	-0.334727808
28684250	0.014393495	-0.340601376
28688500	0.012068287	-0.336249632
28692750	0.012893647	-0.339178048
28697000	0.013625359	-0.339029824
28701250	0.007339775	-0.333467104
28705500	0.011520456	-0.343517344
28709750	0.005762215	-0.33269776
28714000	0.003684299	-0.331457056
28718250	0.011220626	-0.341354496
28722500	0.002202267	-0.331913312
28726750	0.001711332	-0.331476096
28731000	0.001782638	-0.335830432
28735250	-0.001578703	-0.332448256
28739500	-0.001516364	-0.332008
28743750	0.002374825	-0.339449632
28748000	-0.004808627	-0.332444032
28752250	-0.004220382	-0.3383576
28756500	-0.007276005	-0.330354528
28760750	-0.008943674	-0.328320128
28765000	-0.003518836	-0.339296608
28769250	-0.01045541	-0.32826352
28773500	-0.011443529	-0.327811808
28777750	-0.011166272	-0.333750784
28782000	-0.013074181	-0.327779136
28786250	-0.013228091	-0.3269312
28790500	-0.00900457	-0.337154816
28794750	-0.01712194	-0.328437152
28799000	-0.017442954	-0.331459328
28803250	-0.019823656	-0.328223392
28807500	-0.02022126	-0.325238848
28811750	-0.018807126	-0.335734112
28816000	-0.02248798	-0.323815328
28820250	-0.023772404	-0.322817056
28824500	-0.024772662	-0.330953248
28828750	-0.025116022	-0.323602528
28833000	-0.025431748	-0.323335616
28837250	-0.02243708	-0.33390864
28841500	-0.029365442	-0.323022112
28845750	-0.028607652	-0.323163168
28850000	-0.03067297	-0.326363296
28854250	-0.032718946	-0.322446912
28858500	-0.032246534	-0.329176544
28862750	-0.033555268	-0.322680608
28867000	-0.035145088	-0.319448
28871250	-0.036878996	-0.326694176
28875500	-0.0365914	-0.319061792
28879750	-0.037649704	-0.318599552
28884000	-0.035942016	-0.329854144
28888250	-0.040204436	-0.318042656
28892500	-0.039140736	-0.318015776
28896750	-0.042802912	-0.322018976
28901000	-0.043712684	-0.317448
28905250	-0.043613492	-0.321107808
28909500	-0.044482636	-0.322775136
28913750	-0.045790128	-0.315121696
28918000	-0.048939872	-0.324654112
28922250	-0.047650308	-0.314533888
28926500	-0.049081588	-0.313350624
28930750	-0.049114912	-0.325246816
28935000	-0.050875788	-0.313708512
28939250	-0.05060652	-0.313790176
28943500	-0.054657648	-0.319143488
28947750	-0.05454738	-0.312847488
28952000	-0.053482804	-0.313271456
28956250	-0.055551408	-0.322415808
28960500	-0.05848884	-0.312465984
28964750	-0.06076816	-0.316637888
28969000	-0.059552596	-0.310736096
28973250	-0.060096388	-0.308870432
28977500	-0.062866376	-0.320165696
28981750	-0.061630052	-0.308713728
28986000	-0.062200076	-0.308448544
28990250	-0.067057536	-0.313097504
28994500	-0.06475752	-0.307556832
28998750	-0.063513636	-0.30852736
29003000	-0.067449104	-0.318196288
29007250	-0.068812696	-0.30670896
29011500	-0.069440584	-0.309652384
29015750	-0.0709972	-0.307598688
29020000	-0.070359816	-0.304684192
29024250	-0.075572008	-0.313918144
29028500	-0.07193288	-0.30318448
29032750	-0.072664032	-0.302408352
29037000	-0.076858184	-0.308575424
29041250	-0.074532976	-0.302574912
29045500	-0.07469672	-0.30327248
29049750	-0.078953	-0.312313888
29054000	-0.077966856	-0.301561376
29058250	-0.076689448	-0.302620992
29062500	-0.082843184	-0.302763872
29066750	-0.081051712	-0.300765856
29071000	-0.084746864	-0.305623072
29075250	-0.083687008	-0.301440928
29079500	-0.08199316	-0.299187776
29083750	-0.088955576	-0.30260016
29088000	-0.084304824	-0.297073152
29092250	-0.084142784	-0.297935648
29096500	-0.09080156	-0.30613696
29100750	-0.087287016	-0.296214656
29105000	-0.086561192	-0.297868832
29109250	-0.09255148	-0.29846
29113500	-0.089972896	-0.294589536
29117750	-0.09237012	-0.297620832
29122000	-0.095724176	-0.29931136
29126250	-0.093333184	-0.293065568
29130500	-0.100504328	-0.297259744
29134750	-0.093971056	-0.291551712
29139000	-0.093896536	-0.291989632
29143250	-0.10199088	-0.299695488
29147500	-0.097289824	-0.29009552
29151750	-0.096693216	-0.291774208
29156000	-0.103388944	-0.292831296
29160250	-0.100115208	-0.289020096
29164500	-0.099126488	-0.291518208
29168750	-0.107723208	-0.296774848
29173000	-0.103375872	-0.28836512
29177250	-0.107191152	-0.290543648
29181500	-0.105302016	-0.286302432
29185750	-0.103436656	-0.28635424
29190000	-0.113242488	-0.292327168
29194250	-0.106047304	-0.284562848
29198500	-0.10573004	-0.28631728
29202750	-0.112911592	-0.285055264
29207000	-0.108878776	-0.283777632
29211250	-0.108795648	-0.286496672
29215500	-0.117774704	-0.290510368
29219750	-0.11306244	-0.282409408
29224000	-0.114238624	-0.284942432
29228250	-0.116269936	-0.281379904
29232500	-0.113884792	-0.280785088
29236750	-0.122589704	-0.28458816
29241000	-0.115232608	-0.278793376
29245250	-0.114824656	-0.280301664
29249500	-0.123291152	-0.280635584
29253750	-0.117527664	-0.277992384
29258000	-0.118421608	-0.28003904
29262250	-0.127491656	-0.282703328
29266500	-0.12087032	-0.27647536
29270750	-0.12064252	-0.279704064
29275000	-0.126663592	-0.275852352
29279250	-0.123198856	-0.274547872
29283500	-0.128346592	-0.277521504
29287750	-0.127221544	-0.275029632
29292000	-0.124104008	-0.275053504
29296250	-0.13262428	-0.274174752
29300500	-0.12586428	-0.272185696
29304750	-0.12675832	-0.274259744
29309000	-0.136751824	-0.275624672
29313250	-0.129353744	-0.270515488
29317500	-0.130056784	-0.274232352
29321750	-0.136035344	-0.269139552
29326000	-0.131520224	-0.26877904
29330250	-0.134531744	-0.271538112
29334500	-0.139604944	-0.27033856
29338750	-0.134292496	-0.268193392
29343000	-0.139944176	-0.266841536
29347250	-0.134405168	-0.266055408
29351500	-0.135120048	-0.268159392
29355750	-0.14553528	-0.267726608
29360000	-0.13743192	-0.264599648
29364250	-0.139116544	-0.267567152
29368500	-0.143718656	-0.26299024
29372750	-0.139989744	-0.263138944
29377000	-0.142031952	-0.266828544
29381250	-0.150394064	-0.26457912
29385500	-0.143380848	-0.26117096
29389750	-0.148201792	-0.262042608
29394000	-0.144469456	-0.25978672
29398250	-0.144113952	-0.259766544
29402500	-0.15386992	-0.259527744
29406750	-0.145562512	-0.258441536
29411000	-0.147439952	-0.259484528
29415250	-0.151854576	-0.256254368
29419500	-0.148450032	-0.25755056
29423750	-0.151117904	-0.260671264
29428000	-0.158808176	-0.25760696
29432250	-0.151188576	-0.25506216
29436500	-0.15476704	-0.257726528
29440750	-0.154612624	-0.252087984
29445000	-0.153444992	-0.2536828
29449250	-0.15867864	-0.251917568
29453500	-0.154331888	-0.253364864
29457750	-0.157791648	-0.255862736
29462000	-0.164780608	-0.25227448
29466250	-0.157655648	-0.250726288
29470500	-0.160341072	-0.254470432
29474750	-0.1606832	-0.248246752
29479000	-0.15959808	-0.249535696
29483250	-0.165874048	-0.24808864
29487500	-0.161977344	-0.247737328
29491750	-0.1612852	-0.249118912
29496000	-0.165812224	-0.24448168
29500250	-0.162687408	-0.247512736
29504500	-0.165949232	-0.247562816
29508750	-0.172605104	-0.244705056
29513000	-0.165707968	-0.244909792
29517250	-0.169240736	-0.248654432
29521500	-0.169939856	-0.240303072
29525750	-0.167768752	-0.24358496
29530000	-0.172270656	-0.243565232
29534250	-0.173381008	-0.240706528
29538500	-0.1698136	-0.241125344
29542750	-0.176433584	-0.237272544
29547000	-0.170641152	-0.240674288
29551250	-0.172713216	-0.23993472
29555500	-0.180246944	-0.236519296
29559750	-0.17358528	-0.23839128
29564000	-0.177970224	-0.24038464
29568250	-0.1774004	-0.234625552
29572500	-0.175902384	-0.2366776
29576750	-0.180382592	-0.239022688
29581000	-0.184016352	-0.232237888
29585250	-0.178825392	-0.233465232
29589500	-0.183816448	-0.231509184
29593750	-0.17904872	-0.233034544
29598000	-0.180347792	-0.233084864
29602250	-0.187202192	-0.228249008
29606500	-0.181379568	-0.231480576
29610750	-0.185244288	-0.231608896
29615000	-0.185857056	-0.226849056
29619250	-0.184404848	-0.229933136
29623500	-0.189390464	-0.231633232
29627750	-0.191855392	-0.224640144
29632000	-0.18652304	-0.227010432
29636250	-0.191604736	-0.227006928
29640500	-0.187324608	-0.224353376
29644750	-0.188619808	-0.225750848
29649000	-0.193725616	-0.219812224
29653250	-0.188974848	-0.22415976
29657500	-0.191750368	-0.223130032
29661750	-0.192944448	-0.218514272
29666000	-0.192227648	-0.222560992
29670250	-0.19714008	-0.222306528
29674500	-0.19848312	-0.216278784
29678750	-0.194598624	-0.219596848
29683000	-0.20018944	-0.221528016
29687250	-0.195665184	-0.21537536
29691500	-0.196886752	-0.217589312
29695750	-0.200523504	-0.2144644
29700000	-0.198474656	-0.214869456
