# Hz S RI R 50
24890000	-0.21250792	0.284245824
24890250	-0.212210304	0.283208896
24890500	-0.211854432	0.284238112
24890750	-0.213357152	0.281631776
24891000	-0.210888304	0.285157056
24891250	-0.213134416	0.284001216
24891500	-0.213245616	0.28161104
24891750	-0.21063424	0.284821792
24892000	-0.212894512	0.28366432
24892250	-0.213282032	0.281918208
24892500	-0.210555232	0.284964896
24892750	-0.212827072	0.283190624
24893000	-0.212470448	0.282290848
24893250	-0.211258704	0.284979232
24893500	-0.212822736	0.282140544
24893750	-0.210740352	0.2854264
24894000	-0.212165568	0.28506016
24894250	-0.212737072	0.282208736
24894500	-0.210048848	0.285608
24894750	-0.212295264	0.28448688
24895000	-0.212683328	0.282353408
24895250	-0.210007136	0.285529536
24895500	-0.21230136	0.284171424
24895750	-0.212216912	0.282743328
24896000	-0.2102416	0.28545616
24896250	-0.212122192	0.283366528
24896500	-0.210953968	0.284879584
24896750	-0.210848048	0.285798048
24897000	-0.212185376	0.282942272
24897250	-0.209616192	0.286421664
24897500	-0.211788144	0.285475712
24897750	-0.21215592	0.282970176
24898000	-0.209368224	0.286246432
24898250	-0.211732064	0.284726528
24898500	-0.211885728	0.28317552
24898750	-0.209403904	0.28609376
24899000	-0.211464768	0.284384192
24899250	-0.211299264	0.284195008
24899500	-0.209633616	0.28650112
24899750	-0.211732592	0.283632
24900000	-0.209686944	0.28639248
24900250	-0.21109792	0.286398784
24900500	-0.211702528	0.28378864
24900750	-0.20901528	0.287043296
24901000	-0.211366032	0.285735296
24901250	-0.211350256	0.283688384
24901500	-0.208824288	0.286931712
24901750	-0.21090448	0.28559088
24902000	-0.211229424	0.284108384
24902250	-0.2087252	0.286990368
24902500	-0.211189024	0.284859072
24902750	-0.20995272	0.285718976
24903000	-0.21002768	0.28707904
24903250	-0.211015872	0.284315616
24903500	-0.208672752	0.28792096
24903750	-0.210750976	0.286776896
24904000	-0.210891376	0.284353056
24904250	-0.208124272	0.287578496
24904500	-0.210402624	0.286360864
24904750	-0.210780576	0.2844816
24905000	-0.208185104	0.28756752
24905250	-0.210481792	0.285904864
24905500	-0.210103872	0.285053952
24905750	-0.20873184	0.28763616
24906000	-0.210485744	0.285046528
24906250	-0.208442208	0.287955232
24906500	-0.209745504	0.287805024
24906750	-0.210391568	0.285098112
24907000	-0.207678112	0.2883184
24907250	-0.21010304	0.287214976
24907500	-0.210299328	0.285177408
24907750	-0.207624528	0.288371552
24908000	-0.2098808	0.286831776
24908250	-0.209997952	0.285285216
24908500	-0.207764256	0.288224128
24908750	-0.209865504	0.28608288
24909000	-0.208601568	0.287538272
24909250	-0.208043424	0.288487648
24909500	-0.209939552	0.28575088
24909750	-0.207252528	0.289155584
24910000	-0.209096224	0.288432
24910250	-0.209756704	0.2858272
24910500	-0.206932	0.289070624
24910750	-0.209460208	0.287808032
24911000	-0.209443184	0.285926656
24911250	-0.207035088	0.289056096
24911500	-0.209075376	0.287307136
24911750	-0.209051344	0.286917312
24912000	-0.206785728	0.289189632
24912250	-0.20943144	0.286560736
24912500	-0.207463008	0.288921088
24912750	-0.208046688	0.289208448
24913000	-0.2091904	0.286443008
24913250	-0.206277184	0.289879904
24913500	-0.208840816	0.288808192
24913750	-0.208932784	0.286582592
24914000	-0.206393088	0.289660864
24914250	-0.208528848	0.288334944
24914500	-0.208825904	0.286955968
24914750	-0.20625936	0.289747296
24915000	-0.208783792	0.28780912
24915250	-0.207617648	0.288442112
24915500	-0.20680816	0.289677632
24915750	-0.208724912	0.287195136
24916000	-0.206022768	0.290651552
24916250	-0.207826048	0.289651456
24916500	-0.208548464	0.2870904
24916750	-0.20574144	0.29042096
24917000	-0.208154128	0.28923072
24917250	-0.208519168	0.28743408
24917500	-0.20568776	0.290434048
24917750	-0.2081436	0.288843648
24918000	-0.207782496	0.287774208
24918250	-0.205901104	0.290501216
24918500	-0.208139232	0.287875616
24918750	-0.20600448	0.290721152
24919000	-0.206657888	0.290579424
24919250	-0.20808744	0.287780512
24919500	-0.205143392	0.291170016
24919750	-0.207539728	0.29010864
24920000	-0.20786408	0.287889312
24920250	-0.205106048	0.291149312
24920500	-0.207438528	0.28982176
24920750	-0.207482976	0.28820912
24921000	-0.205133712	0.29093872
24921250	-0.207475952	0.289008512
24921500	-0.206274736	0.290235808
24921750	-0.205425488	0.291161248
24922000	-0.207513152	0.288460224
24922250	-0.204848288	0.291833888
24922500	-0.2064356	0.291038112
24922750	-0.207405856	0.288471424
24923000	-0.20445824	0.291748032
24923250	-0.207066848	0.29036544
24923500	-0.207084016	0.288724896
24923750	-0.204447536	0.291601792
24924000	-0.2067784	0.290095104
24924250	-0.206642512	0.289503264
24924500	-0.20435072	0.291906624
24924750	-0.206941712	0.289235072
24925000	-0.20492584	0.29150432
24925250	-0.20557016	0.291777856
24925500	-0.206794368	0.289152288
24925750	-0.20378896	0.292659296
24926000	-0.206395744	0.2911864
24926250	-0.206564928	0.289197632
24926500	-0.20372408	0.292322144
24926750	-0.20614656	0.291129728
24927000	-0.206520768	0.289588448
24927250	-0.203675456	0.29249072
24927500	-0.206286144	0.290250592
24927750	-0.205245888	0.2909808
24928000	-0.204352272	0.29251456
24928250	-0.206325472	0.289784416
24928500	-0.203463344	0.293351456
24928750	-0.205333472	0.292291712
24929000	-0.206148912	0.289763168
24929250	-0.203126448	0.293031744
24929500	-0.20561288	0.291745888
24929750	-0.206050272	0.290059744
24930000	-0.203098144	0.29315584
24930250	-0.205761232	0.291530048
24930500	-0.20550552	0.290379392
24930750	-0.203371616	0.293024416
24931000	-0.20575264	0.290604096
24931250	-0.20351808	0.293140128
24931500	-0.203913728	0.293111104
24931750	-0.205630208	0.290508416
24932000	-0.202577424	0.293760448
24932250	-0.20508384	0.29260048
24932500	-0.20555032	0.290525888
24932750	-0.202461648	0.293721568
24933000	-0.20507688	0.29234816
24933250	-0.205143104	0.290790304
24933500	-0.202657056	0.293604896
24933750	-0.204942176	0.291788192
24934000	-0.203941984	0.29268848
24934250	-0.202735824	0.293798336
24934500	-0.205063424	0.291183296
24934750	-0.202300656	0.29435312
24935000	-0.204067584	0.293529792
24935250	-0.204963184	0.291211072
24935500	-0.201957024	0.294324096
24935750	-0.204562736	0.293027776
24936000	-0.20468568	0.291359232
24936250	-0.201893248	0.294283616
24936500	-0.204247088	0.292918272
24936750	-0.20438888	0.291993984
24937000	-0.201852464	0.294542528
24937250	-0.204629248	0.291951776
24937500	-0.202584064	0.293979648
24937750	-0.20275152	0.294541344
24938000	-0.20433624	0.291849568
24938250	-0.201278192	0.295138848
24938500	-0.203741376	0.294158592
24938750	-0.204253136	0.291930848
24939000	-0.2012636	0.294916384
24939250	-0.203635776	0.293711584
24939500	-0.204187952	0.292176192
24939750	-0.201000752	0.294982752
24940000	-0.203792032	0.293158656
24940250	-0.202923504	0.293383104
24940500	-0.201709904	0.295139872
24940750	-0.20375352	0.29245184
24941000	-0.200805888	0.295918208
24941250	-0.202763552	0.29509904
24941500	-0.203692528	0.292534784
24941750	-0.200494848	0.295656768
24942000	-0.203259744	0.294484672
24942250	-0.203627104	0.292607008
24942500	-0.200486704	0.295602624
24942750	-0.203137088	0.294080448
24943000	-0.202931488	0.292988672
24943250	-0.201201008	0.29547664
24943500	-0.203221008	0.293182688
24943750	-0.201212752	0.295603712
24944000	-0.201934304	0.295851744
24944250	-0.203243728	0.292979616
24944500	-0.200087984	0.296355616
24944750	-0.202721088	0.295454336
24945000	-0.203147616	0.293122784
24945250	-0.199946384	0.296321856
24945500	-0.202585248	0.294971872
24945750	-0.202702128	0.293419328
24946000	-0.200054384	0.296109216
24946250	-0.202537216	0.294311808
24946500	-0.201535424	0.295151904
24946750	-0.200529136	0.296543936
24947000	-0.202673168	0.29373856
24947250	-0.19975536	0.296770656
24947500	-0.20185496	0.296245088
24947750	-0.202523216	0.293811456
24948000	-0.199269232	0.29705024
24948250	-0.202005872	0.295731808
24948500	-0.20224352	0.293879584
24948750	-0.19936104	0.296802016
24949000	-0.201687408	0.295391488
24949250	-0.20202968	0.294419264
24949500	-0.199470352	0.297108576
24949750	-0.20206336	0.294640288
24950000	-0.200186432	0.296407136
24950250	-0.200847648	0.297176512
24950500	-0.201918816	0.29445456
24950750	-0.198758768	0.297696896
24951000	-0.201457312	0.296663456
24951250	-0.20176624	0.294449632
24951500	-0.198732208	0.297565728
24951750	-0.201258736	0.2964048
24952000	-0.201793008	0.294744448
24952250	-0.19864112	0.297581568
24952500	-0.201324272	0.295694048
24952750	-0.200488464	0.295863296
24953000	-0.19957984	0.29783008
24953250	-0.201401072	0.295087104
24953500	-0.198378704	0.298512672
24953750	-0.20051568	0.297772416
24954000	-0.201214656	0.29506784
24954250	-0.19790024	0.298257312
24954500	-0.200717808	0.297193728
24954750	-0.2012168	0.295189632
24955000	-0.197945856	0.298260864
24955250	-0.200678064	0.296853152
24955500	-0.200505712	0.295604928
24955750	-0.198370912	0.29830912
24956000	-0.200742944	0.29579888
24956250	-0.198634352	0.298043168
24956500	-0.199307104	0.298400352
24956750	-0.20067152	0.29573344
24957000	-0.197495424	0.298971296
24957250	-0.200218896	0.298104544
24957500	-0.200690592	0.2958376
24957750	-0.197253488	0.298920416
24958000	-0.199942176	0.2975216
24958250	-0.200273904	0.295993568
24958500	-0.197492592	0.298858304
24958750	-0.199868576	0.296941856
24959000	-0.199147712	0.297577952
24959250	-0.197880064	0.299275712
24959500	-0.20007792	0.296417568
24959750	-0.19730544	0.299330432
24960000	-0.199293184	0.298810656
24960250	-0.20009032	0.296462624
24960500	-0.196757344	0.299579776
24960750	-0.199588896	0.298267712
24961000	-0.199644768	0.296648224
24961250	-0.196603264	0.299529568
24961500	-0.19909136	0.298194432
24961750	-0.199535888	0.297121408
24962000	-0.196434336	0.299654144
24962250	-0.199470336	0.297443296
24962500	-0.19760704	0.298966656
24962750	-0.197656976	0.299769472
24963000	-0.199406432	0.297211264
24963250	-0.196020992	0.3005664
24963500	-0.19881152	0.299387616
24963750	-0.199187376	0.297218432
24964000	-0.196010144	0.30030464
24964250	-0.198694848	0.299011072
24964500	-0.199256592	0.29747424
24964750	-0.195833088	0.300326752
24965000	-0.198658432	0.298601984
24965250	-0.198014672	0.298409536
24965500	-0.19638848	0.300360544
24965750	-0.198758256	0.297735136
24966000	-0.19578016	0.30101856
24966250	-0.197503664	0.300311808
24966500	-0.198701328	0.29781408
24966750	-0.195315408	0.300960608
24967000	-0.198034928	0.299639168
24967250	-0.198673936	0.297996896
24967500	-0.195257552	0.30096768
24967750	-0.198090336	0.299483904
24968000	-0.198057664	0.298370336
24968250	-0.195408384	0.300993344
24968500	-0.198087056	0.29874736
24968750	-0.1960752	0.300798176
24969000	-0.196046544	0.301151808
24969250	-0.198070704	0.298464
24969500	-0.19480608	0.301687872
24969750	-0.19736232	0.300689504
24970000	-0.198150848	0.298634752
24970250	-0.19452	0.301568288
24970500	-0.197371376	0.300297504
24970750	-0.1944136	0.301606016
24971000	-0.1971976	0.300375264
24971250	-0.19731696	0.298881024
24971500	-0.1944548	0.30153168
24971750	-0.197233168	0.299528064
24972000	-0.195610784	0.301114848
24972250	-0.194944128	0.301635264
24972500	-0.197318384	0.29908
24972750	-0.193934352	0.30238336
24973000	-0.196336192	0.301593152
24973250	-0.197219664	0.299126688
24973500	-0.193661728	0.302216928
24973750	-0.196760176	0.301054016
24974000	-0.196947664	0.29942128
24974250	-0.193735792	0.30219792
24974500	-0.196533984	0.300633536
24974750	-0.19624968	0.300392672
24975000	-0.19370008	0.302453888
24975250	-0.19695384	0.2999088
24975500	-0.194179856	0.302320704
24975750	-0.195098	0.30240624
24976000	-0.196722896	0.299753824
24976250	-0.193250944	0.303082176
24976500	-0.196087024	0.301847552
24976750	-0.196496864	0.299941248
24977000	-0.193184704	0.302896928
24977250	-0.195835776	0.301796896
24977500	-0.196312192	0.300265216
24977750	-0.193089056	0.302913344
24978000	-0.196159248	0.300941376
24978250	-0.194629792	0.301721344
24978500	-0.193885776	0.303012
24978750	-0.196126496	0.300454496
24979000	-0.19262704	0.303810112
24979250	-0.195015248	0.302639584
24979500	-0.195818784	0.300476352
24979750	-0.19239832	0.303503744
24980000	-0.195297952	0.302289216
24980250	-0.195981056	0.300661568
24980500	-0.192325168	0.303534016
24980750	-0.195229552	0.3021352
24981000	-0.195092304	0.301081024
24981250	-0.192683632	0.303625536
24981500	-0.195487696	0.301178816
24981750	-0.192663856	0.304027584
24982000	-0.1936212	0.303626624
24982250	-0.195320192	0.30105424
24982500	-0.191798368	0.30414064
24982750	-0.194621824	0.303206272
24983000	-0.19537536	0.30128576
24983250	-0.191707312	0.304223232
24983500	-0.194602656	0.302997984
24983750	-0.194774512	0.30140352
24984000	-0.19172016	0.304059008
24984250	-0.194631056	0.30223072
24984500	-0.19313456	0.303480448
24984750	-0.192218912	0.304290144
24985000	-0.194848992	0.301789216
24985250	-0.191275008	0.304970016
24985500	-0.193583536	0.30409584
24985750	-0.194671792	0.301901376
24986000	-0.191006672	0.304915872
24986250	-0.194074176	0.303659424
24986500	-0.194398832	0.301980288
24986750	-0.191095152	0.304780672
24987000	-0.193817696	0.303372864
24987250	-0.193738336	0.30293376
24987500	-0.191159376	0.304950176
24987750	-0.194194704	0.302529888
24988000	-0.191603776	0.304754272
24988250	-0.192325168	0.305102784
24988500	-0.194156576	0.302396896
24988750	-0.19039856	0.305547712
24989000	-0.193298192	0.304793888
24989250	-0.193844352	0.30256032
24989500	-0.190356432	0.305429312
24989750	-0.193200304	0.304334976
24990000	-0.19376992	0.3029008
