# Hz S RI R 50
21000000	0.175679616	-0.386447936
21001125	0.173940512	-0.38733776
21002250	0.174463264	-0.38709136
21003375	0.172892384	-0.387098208
21004500	0.172712928	-0.387119936
21005625	0.174061488	-0.386814272
21006750	0.171695792	-0.387859808
21007875	0.171491616	-0.387768608
21009000	0.172726208	-0.387373536
21010125	0.170412608	-0.388385024
21011250	0.170080816	-0.388094848
21012375	0.170212336	-0.388256224
21013500	0.168993008	-0.389349472
21014625	0.169121216	-0.389328032
21015750	0.168326528	-0.388960896
21016875	0.167938672	-0.389231168
21018000	0.16888712	-0.389075104
21019125	0.166952976	-0.389681952
21020250	0.16687112	-0.389561856
21021375	0.168242784	-0.389097344
21022500	0.165685472	-0.390217888
21023625	0.165336304	-0.39002192
21024750	0.16605816	-0.389908032
21025875	0.164110464	-0.391198304
21027000	0.164096688	-0.390598944
21028125	0.163577264	-0.390801152
21029250	0.162986128	-0.39168496
21030375	0.163209312	-0.390905088
21031500	0.162149824	-0.391466624
21032625	0.162370448	-0.391359648
21033750	0.163337392	-0.390891488
21034875	0.160841216	-0.391912544
21036000	0.160686288	-0.391633152
21037125	0.161923312	-0.391194464
21038250	0.15951784	-0.39259328
21039375	0.159501008	-0.392243232
21040500	0.159459584	-0.392308224
21041625	0.15795736	-0.393532
21042750	0.157963504	-0.392696576
21043875	0.157392768	-0.393048736
21045000	0.157578944	-0.393331264
21046125	0.158231392	-0.392985824
21047250	0.156047344	-0.393657184
21048375	0.156081136	-0.393364544
21049500	0.157402032	-0.393000896
21050625	0.154604384	-0.394300768
21051750	0.154923488	-0.393891488
21052875	0.155424864	-0.393726656
21054000	0.153262272	-0.395088
21055125	0.153238304	-0.394323104
21056250	0.152726656	-0.394717984
21057375	0.152466448	-0.39526464
21058500	0.152572416	-0.39455824
21059625	0.151241728	-0.395187872
21060750	0.1514484	-0.394938208
21061875	0.152557456	-0.394425344
21063000	0.149881744	-0.395870272
21064125	0.150150272	-0.395421376
21065250	0.15142024	-0.394996896
21066375	0.148656352	-0.396289728
21067500	0.1486336	-0.395784416
21068625	0.148629456	-0.396127008
21069750	0.147364064	-0.397049504
21070875	0.147315328	-0.396327072
21072000	0.14653872	-0.396728512
21073125	0.14649696	-0.396892992
21074250	0.147053184	-0.3963296
21075375	0.145180128	-0.397325056
21076500	0.145414576	-0.39713952
21077625	0.146757856	-0.396403872
21078750	0.143928704	-0.397773312
21079875	0.1438684	-0.3973024
21081000	0.144683968	-0.397116384
21082125	0.142258128	-0.3985712
21083250	0.142636272	-0.397860128
21084375	0.141958736	-0.398296
21085500	0.141191088	-0.398856416
21086625	0.141683984	-0.39794912
21087750	0.1403432	-0.39875072
21088875	0.140835968	-0.398479936
21090000	0.141907824	-0.397884288
21091125	0.13895552	-0.399250432
21092250	0.139123328	-0.398738016
21093375	0.140595392	-0.39828512
21094500	0.137528336	-0.399893728
21095625	0.13790336	-0.399136128
21096750	0.138141312	-0.39913888
21097875	0.136062496	-0.40067984
21099000	0.13628056	-0.399775904
21100125	0.135528208	-0.40010032
21101250	0.1357592	-0.400121856
21102375	0.136269008	-0.399581216
21103500	0.134150296	-0.400592512
21104625	0.1343916	-0.400197984
21105750	0.135822816	-0.399722208
21106875	0.132722392	-0.401073344
21108000	0.133125648	-0.400543488
21109125	0.133977664	-0.400212064
21110250	0.131297648	-0.40166224
21111375	0.131617712	-0.40092
21112500	0.131004528	-0.401281824
21113625	0.130535696	-0.401944064
21114750	0.130763856	-0.401144448
21115875	0.129334584	-0.401953632
21117000	0.129833208	-0.401379552
21118125	0.130712584	-0.401074656
21119250	0.12784824	-0.402432288
21120375	0.128449336	-0.401906432
21121500	0.129881472	-0.401407552
21122625	0.1266374	-0.4027936
21123750	0.126849592	-0.402117824
21124875	0.127144056	-0.401996864
21126000	0.125047624	-0.403418816
21127125	0.125499232	-0.402667584
21128250	0.124552456	-0.40322496
21129375	0.12449836	-0.4031608
21130500	0.125243736	-0.402484992
21131625	0.122883936	-0.403583872
21132750	0.123640624	-0.4032072
21133875	0.124983696	-0.402596928
21135000	0.121629576	-0.404064096
21136125	0.122018512	-0.403268384
21137250	0.122900104	-0.402933504
21138375	0.120103848	-0.404557504
21139500	0.12076016	-0.40379136
21140625	0.119954872	-0.404131552
21141750	0.119047616	-0.404818144
21142875	0.119596944	-0.403899904
21144000	0.118042984	-0.404723776
21145125	0.118990648	-0.404344256
21146250	0.119971736	-0.403791584
21147375	0.116740408	-0.405137568
21148500	0.117307368	-0.404415168
21149625	0.118740912	-0.404044576
21150750	0.115250768	-0.40556688
21151875	0.115940856	-0.40489424
21153000	0.115998016	-0.40475088
21154125	0.113797288	-0.406210304
21155250	0.11432208	-0.405184384
21156375	0.113368064	-0.405728288
21157500	0.113773752	-0.405712096
21158625	0.114208032	-0.405067744
21159750	0.111855376	-0.40616448
21160875	0.112583216	-0.405510688
21162000	0.114017288	-0.40486816
21163125	0.110417056	-0.406648128
21164250	0.111177904	-0.405951904
21165375	0.112503824	-0.40547056
21166500	0.109054352	-0.407032736
21167625	0.109410896	-0.406246208
21168750	0.10897008	-0.406672224
21169875	0.108130088	-0.40706832
21171000	0.108832592	-0.406332896
21172125	0.106945448	-0.40709952
21173250	0.107659768	-0.406598496
21174375	0.10886408	-0.406361888
21175500	0.10544636	-0.407419808
21176625	0.10636636	-0.40687712
21177750	0.107883208	-0.40621104
21178875	0.10415512	-0.40785344
21180000	0.104771776	-0.407047168
21181125	0.105033256	-0.407075648
21182250	0.102702496	-0.408276992
21183375	0.103443896	-0.407598272
21184500	0.102099312	-0.407968384
21185625	0.102187136	-0.408077504
21186750	0.103223008	-0.407619168
21187875	0.100609392	-0.408346592
21189000	0.101618592	-0.407841408
21190125	0.103109768	-0.407356128
21191250	0.099191464	-0.408632736
21192375	0.099963496	-0.40802976
21193500	0.101269488	-0.407491808
21194625	0.0977686	-0.409111104
21195750	0.098784448	-0.408436128
21196875	0.097858944	-0.40848752
21198000	0.096696024	-0.409287616
21199125	0.0974086	-0.408726336
21200250	0.09573288	-0.409104224
21201375	0.096878992	-0.408746496
21202500	0.097823088	-0.408570016
21203625	0.094186496	-0.409414336
21204750	0.095166032	-0.40880496
21205875	0.096906056	-0.408121824
21207000	0.09275368	-0.409836928
21208125	0.09395728	-0.409136608
21209250	0.094035	-0.408936096
21210375	0.091329928	-0.410373536
21211500	0.092096576	-0.409566912
21212625	0.09090368	-0.409749728
21213750	0.091395168	-0.4098768
21214875	0.092209528	-0.409539968
21216000	0.089258192	-0.410218528
21217125	0.090382288	-0.409636192
21218250	0.092074144	-0.409185216
21219375	0.087805296	-0.410559936
21220500	0.089091064	-0.409891072
21221625	0.090620184	-0.409175776
21222750	0.086366528	-0.410900192
21223875	0.087371752	-0.410091264
21225000	0.086696392	-0.410168608
21226125	0.08564028	-0.4109216
21227250	0.08649804	-0.41043776
21228375	0.0843642	-0.410901056
21229500	0.085397888	-0.410435776
21230625	0.086793488	-0.410132896
21231750	0.082858232	-0.411138528
21232875	0.084087088	-0.410623616
21234000	0.085747336	-0.410071584
21235125	0.08142028	-0.41145488
21236250	0.082543672	-0.410683232
21237375	0.082859344	-0.410498784
21238500	0.07989104	-0.411707744
21239625	0.081212816	-0.411032288
21240750	0.079514296	-0.411383776
21241875	0.079686976	-0.41159888
21243000	0.0808198	-0.41113056
21244125	0.077959816	-0.411723616
21245250	0.079412992	-0.41132848
21246375	0.081090984	-0.410684192
21247500	0.076487472	-0.411997504
21248625	0.077716152	-0.411322176
21249750	0.07966028	-0.410768384
21250875	0.075030808	-0.41216704
21252000	0.076331672	-0.411494272
21253125	0.075604704	-0.411576512
21254250	0.073968872	-0.412550464
21255375	0.074912168	-0.41158704
21256500	0.07312484	-0.412230336
21257625	0.074484432	-0.412016192
21258750	0.07531476	-0.411538784
21259875	0.071453208	-0.412551392
21261000	0.072978896	-0.411920768
21262125	0.074813288	-0.411418848
21263250	0.069990016	-0.412658944
21264375	0.07149072	-0.41221824
21265500	0.072095824	-0.411856096
21266625	0.068653784	-0.413081632
21267750	0.069863304	-0.412227488
21268875	0.06825684	-0.41250624
21270000	0.068754736	-0.412910432
21271125	0.06960948	-0.412121664
21272250	0.066573708	-0.412863776
21273375	0.068190208	-0.41243808
21274500	0.0698782	-0.41206688
21275625	0.065072956	-0.41303664
21276750	0.066672712	-0.412686528
21277875	0.068407672	-0.412120608
21279000	0.063730396	-0.413304032
21280125	0.06500596	-0.4125336
21281250	0.064469868	-0.412605792
21282375	0.062903108	-0.413460768
21283500	0.063794592	-0.412730496
21284625	0.061567764	-0.413144064
21285750	0.062864916	-0.412999744
21286875	0.06396992	-0.412582272
21288000	0.060093708	-0.413444032
21289125	0.061727704	-0.41312688
21290250	0.063668384	-0.412569664
21291375	0.058752704	-0.413737536
21292500	0.06013628	-0.413064416
21293625	0.060937668	-0.412743968
21294750	0.057192364	-0.413772224
21295875	0.058899744	-0.41315792
21297000	0.056842032	-0.413368256
21298125	0.05702852	-0.413741568
21299250	0.058164588	-0.412996512
21300375	0.055290752	-0.413719008
21301500	0.056960888	-0.413550464
21302625	0.05885694	-0.412954624
21303750	0.0535923	-0.413995648
21304875	0.055301256	-0.413382464
21306000	0.057272256	-0.412813728
21307125	0.052194808	-0.413974752
21308250	0.053948796	-0.413610272
21309375	0.053274956	-0.413483968
21310500	0.051133932	-0.414165184
21311625	0.052401684	-0.413411008
21312750	0.0503478	-0.413838048
21313875	0.052038628	-0.413860192
21315000	0.053078392	-0.413343136
21316125	0.048752172	-0.414097216
21317250	0.050602512	-0.413693824
21318375	0.05273846	-0.41317312
21319500	0.047319988	-0.414169312
21320625	0.049050928	-0.413829536
21321750	0.049908788	-0.413364928
21322875	0.045795008	-0.414445056
21324000	0.047447816	-0.41386016
21325125	0.045700648	-0.413861952
21326250	0.04614456	-0.414265696
21327375	0.047008912	-0.413628832
21328500	0.043806624	-0.414097856
21329625	0.045790252	-0.413932864
21330750	0.047784256	-0.41355088
21331875	0.04238102	-0.414297216
21333000	0.044274312	-0.414103456
21334125	0.046541136	-0.413644512
21335250	0.04104712	-0.41439824
21336375	0.042616216	-0.413978144
21337500	0.042494564	-0.413888448
21338625	0.040225944	-0.414481504
21339750	0.041321048	-0.413987392
21340875	0.039044356	-0.414188448
21342000	0.040234408	-0.41420208
21343125	0.0417005	-0.413795264
21344250	0.037417648	-0.414230144
21345375	0.039468712	-0.41424784
21346500	0.041633176	-0.413686272
21347625	0.036011416	-0.414457792
21348750	0.037805952	-0.414152896
21349875	0.038929764	-0.413795712
21351000	0.03463212	-0.414477696
21352125	0.036465012	-0.414152704
21353250	0.03460668	-0.414023744
21354375	0.034406716	-0.414565728
21355500	0.035893108	-0.413888832
21356625	0.032559094	-0.414325728
21357750	0.034727044	-0.414352064
21358875	0.036515832	-0.414055424
21360000	0.031016212	-0.414432736
21361125	0.033005402	-0.41419504
21362250	0.035227824	-0.41390896
21363375	0.029644748	-0.414446816
21364500	0.031706804	-0.414188
21365625	0.031311338	-0.413890816
21366750	0.028317904	-0.41450864
21367875	0.030014378	-0.414007968
21369000	0.027900016	-0.414045344
21370125	0.029376986	-0.414443648
21371250	0.030702714	-0.41417152
21372375	0.026148986	-0.414213472
21373500	0.028327154	-0.41422288
21374625	0.030520862	-0.413874368
21375750	0.024644666	-0.414334656
21376875	0.02673384	-0.414227968
21378000	0.027975182	-0.41381936
21379125	0.02327872	-0.4144504
21380250	0.024989586	-0.41406576
21381375	0.023565742	-0.413922976
21382500	0.023484306	-0.414470336
21383625	0.024687252	-0.414085472
21384750	0.021251244	-0.414076512
21385875	0.023461618	-0.414247648
21387000	0.02530188	-0.414024096
21388125	0.019746268	-0.41408528
21389250	0.02200557	-0.414263456
21390375	0.024309322	-0.413835808
21391500	0.018301352	-0.414195648
21392625	0.020254788	-0.413995872
21393750	0.02028519	-0.413625152
21394875	0.01742625	-0.414177344
21396000	0.019037596	-0.413967616
21397125	0.016565649	-0.413783104
21398250	0.017701668	-0.414255296
21399375	0.019250802	-0.413829056
21400500	0.014834428	-0.413758656
21401625	0.01723664	-0.414235424
21402750	0.019550892	-0.413743488
21403875	0.013485583	-0.413816256
21405000	0.015530072	-0.413764768
21406125	0.017106364	-0.413646976
21407250	0.012066633	-0.413772768
21408375	0.014149646	-0.413816864
21409500	0.012613913	-0.413396224
21410625	0.011805741	-0.41400672
21411750	0.013363956	-0.413583776
21412875	0.010169678	-0.413355584
21414000	0.012354563	-0.413968896
21415125	0.014479029	-0.4138176
21416250	0.008581937	-0.413536896
21417375	0.010761538	-0.41362016
21418500	0.01334324	-0.413408896
21419625	0.007233161	-0.41338112
21420750	0.009368743	-0.4135608
21421875	0.009367717	-0.413168864
21423000	0.00589472	-0.41349712
21424125	0.00770839	-0.413450368
21425250	0.00543418	-0.412903712
21426375	0.007022845	-0.413661568
21427500	0.008110904	-0.413619136
21428625	0.003703497	-0.413101472
21429750	0.005968728	-0.413464224
21430875	0.008415975	-0.413354176
21432000	0.002199512	-0.412932768
21433125	0.004447062	-0.413565088
21434250	0.006295094	-0.41305264
21435375	0.000919116	-0.41300176
21436500	0.002932103	-0.413150528
21437625	0.001633851	-0.412614688
21438750	0.001047826	-0.413237472
21439875	-0.000715616	-0.412538208
21441000	0.001672493	-0.4133976
21442125	0.003491965	-0.41333904
21443250	-0.002300008	-0.41267648
21444375	-0.000047302	-0.412931136
21445500	0.002534886	-0.413007584
21446625	-0.003679888	-0.412434656
21447750	-0.001335103	-0.412935808
21448875	-0.00136281	-0.412468864
21450000	-0.00510245	-0.412593952
