# Hz S RI R 50
18068000	-0.126259176	0.505334496
18068250	-0.116922264	0.496839744
18068500	-0.12876044	0.509188544
18068750	-0.124336352	0.5010488
18069000	-0.124816904	0.505015744
18069250	-0.123653944	0.502327968
18069500	-0.11708148	0.499970368
18069750	-0.128969464	0.510102688
18070000	-0.121641088	0.500524928
18070250	-0.113580064	0.498592192
18070500	-0.128201248	0.510691456
18070750	-0.122243784	0.500140064
18071000	-0.113772208	0.496827392
18071250	-0.128377872	0.510603552
18071500	-0.122418528	0.502185888
18071750	-0.119143776	0.50096912
18072000	-0.124478864	0.506398208
18072250	-0.1193058	0.500968864
18072500	-0.126947416	0.510181056
18072750	-0.120318864	0.5016032
18073000	-0.111784568	0.50022656
18073250	-0.126601192	0.51066704
18073500	-0.120803688	0.50063728
18073750	-0.112013888	0.49784624
18074000	-0.127017544	0.511369184
18074250	-0.120626128	0.502185344
18074500	-0.113399856	0.497832096
18074750	-0.125043896	0.510542752
18075000	-0.120932032	0.501895616
18075250	-0.121609464	0.506652608
18075500	-0.120660384	0.504547168
18075750	-0.11367052	0.501568512
18076000	-0.12450088	0.511027936
18076250	-0.118814408	0.500907296
18076500	-0.109781384	0.499338304
18076750	-0.125425976	0.512027392
18077000	-0.118650552	0.502419296
18077250	-0.110864584	0.498282624
18077500	-0.123851168	0.511927776
18077750	-0.11871872	0.502379584
18078000	-0.115377152	0.5027064
18078250	-0.121619816	0.508498016
18078500	-0.1166652	0.50315088
18078750	-0.121813528	0.51060432
18079000	-0.117474208	0.50190336
18079250	-0.109905536	0.501925536
18079500	-0.123689144	0.512560896
18079750	-0.116909712	0.502937152
18080000	-0.109004496	0.499173984
18080250	-0.122697704	0.512757664
18080500	-0.117348632	0.50253744
18080750	-0.109047256	0.49898688
18081000	-0.12263832	0.512510912
18081250	-0.117648184	0.503620576
18081500	-0.117911536	0.506772096
18081750	-0.117391408	0.505512224
18082000	-0.111713432	0.501145472
18082250	-0.121933792	0.512976416
18082500	-0.114925736	0.503565536
18082750	-0.107283752	0.499712608
18083000	-0.121132912	0.513099488
18083250	-0.115414064	0.503151104
18083500	-0.107095552	0.499390688
18083750	-0.121489416	0.513663232
18084000	-0.115456352	0.504265792
18084250	-0.111481496	0.502854048
18084500	-0.118255776	0.50977504
18084750	-0.113735888	0.502848224
18085000	-0.120139208	0.512677792
18085250	-0.113782872	0.504268224
18085500	-0.106725712	0.500877216
18085750	-0.11955336	0.513481216
18086000	-0.113980984	0.50347184
18086250	-0.105324584	0.499911712
18086500	-0.120044864	0.514372352
18086750	-0.113769152	0.504927104
18087000	-0.105914776	0.500295328
18087250	-0.118428	0.51373888
18087500	-0.114265952	0.50467456
18087750	-0.114333016	0.509056928
18088000	-0.114330688	0.507557632
18088250	-0.108218544	0.502750592
18088500	-0.117795176	0.514418432
18088750	-0.112597472	0.50380112
18089000	-0.10374988	0.500692064
18089250	-0.118539552	0.515114368
18089500	-0.111815648	0.50504368
18089750	-0.10401776	0.500739232
18090000	-0.11707024	0.514506688
18090250	-0.112752256	0.504968096
18090500	-0.1076126	0.504474112
18090750	-0.115194048	0.511861632
18091000	-0.11083204	0.504644992
18091250	-0.11575756	0.513352992
18091500	-0.110781584	0.504404
18091750	-0.103208752	0.501977504
18092000	-0.116483208	0.515440416
18092250	-0.110108768	0.505579232
18092500	-0.102003496	0.50128144
18092750	-0.115619992	0.515353504
18093000	-0.111132184	0.50514864
18093250	-0.101979624	0.501139776
18093500	-0.115641688	0.515954688
18093750	-0.11115164	0.506308032
18094000	-0.109683816	0.50925648
18094250	-0.110617648	0.50895936
18094500	-0.105751176	0.503892768
18094750	-0.114891368	0.516034176
18095000	-0.10803292	0.50636064
18095250	-0.099976744	0.502833472
18095500	-0.114598344	0.516582496
18095750	-0.109173928	0.505547808
18096000	-0.100136784	0.501886656
18096250	-0.114474112	0.516703552
18096500	-0.10914036	0.506814368
18096750	-0.104215528	0.504720096
18097000	-0.11140164	0.513484128
18097250	-0.09924828	0.501920576
18097500	-0.113740696	0.5170384
18097750	-0.107851904	0.507489856
18098000	-0.103315336	0.50493984
18098250	-0.110895272	0.513867488
18098500	-0.106134008	0.506957056
18098750	-0.111337152	0.515107328
18099000	-0.1061472	0.507851488
18099250	-0.099078312	0.5056184
18099500	-0.111667016	0.51723296
18099750	-0.106142032	0.506445216
18100000	-0.096788664	0.503781728
18100250	-0.112239728	0.517583008
18100500	-0.105835128	0.508136288
18100750	-0.097975048	0.502595968
18101000	-0.110687432	0.517386496
18101250	-0.106438112	0.507836992
18101500	-0.105262624	0.510252704
18101750	-0.107095912	0.511963968
18102000	-0.100910576	0.50756032
18102250	-0.109560504	0.517367616
18102500	-0.104447376	0.506835296
18102750	-0.095118048	0.504873824
18103000	-0.110535432	0.518234496
18103250	-0.104269344	0.508254752
18103500	-0.09589636	0.503483648
18103750	-0.109408056	0.51802672
18104000	-0.104553784	0.508016224
18104250	-0.098943752	0.506026976
18104500	-0.107710696	0.515864736
18104750	-0.10304292	0.509380448
18105000	-0.106669144	0.515082784
18105250	-0.102919232	0.50837232
18105500	-0.095735632	0.50652624
18105750	-0.1087718	0.518726528
18106000	-0.102356736	0.508605056
18106250	-0.093955264	0.504791072
18106500	-0.108025792	0.518798336
18106750	-0.102805016	0.5083856
18107000	-0.094494936	0.503317664
18107250	-0.107996712	0.519257056
18107500	-0.103124312	0.510120576
18107750	-0.101045792	0.510411072
18108000	-0.10376652	0.512763808
18108250	-0.097941728	0.508230816
18108500	-0.107075616	0.519198848
18108750	-0.100704536	0.50900864
18109000	-0.091720592	0.506364928
18109250	-0.106328376	0.519329664
18109500	-0.101044304	0.508453952
18109750	-0.092000528	0.504303808
18110000	-0.106681832	0.519725216
18110250	-0.101039664	0.51037472
18110500	-0.095123976	0.506128736
18110750	-0.103727128	0.51761632
18111000	-0.0996506	0.509586112
18111250	-0.103609328	0.51713872
18111500	-0.099939416	0.51081264
18111750	-0.092654488	0.508335936
18112000	-0.103935112	0.519240192
18112250	-0.099313544	0.508878752
18112500	-0.090349296	0.505079808
18112750	-0.10506584	0.520604384
18113000	-0.099031152	0.510705248
18113250	-0.090453552	0.505246112
18113500	-0.103019448	0.52025408
18113750	-0.09912184	0.510391296
18114000	-0.097122296	0.51203616
18114250	-0.10050992	0.515081472
18114500	-0.094676584	0.51015376
18114750	-0.102562488	0.51997232
18115000	-0.097629952	0.509425984
18115250	-0.087713544	0.50739856
18115500	-0.10347328	0.521127232
18115750	-0.097048712	0.510727808
18116000	-0.088839704	0.506057216
18116250	-0.102262104	0.521301344
18116500	-0.097665368	0.510531904
18116750	-0.091214808	0.507277952
18117000	-0.101297016	0.519412928
18117250	-0.096793512	0.51094128
18117500	-0.09895004	0.517024096
18117750	-0.09644208	0.511376192
18118000	-0.089268648	0.50912304
18118250	-0.101632376	0.521342592
18118500	-0.095035424	0.51091904
18118750	-0.086670896	0.507015936
18119000	-0.1004972	0.521579552
18119250	-0.096024568	0.510693376
18119500	-0.086705592	0.50566752
18119750	-0.100828256	0.521822272
18120000	-0.095783576	0.512249408
18120250	-0.093438664	0.51221872
18120500	-0.09671808	0.516150368
18120750	-0.091760888	0.510638592
18121000	-0.09972908	0.521689248
18121250	-0.093674936	0.511476448
18121500	-0.084335872	0.508688096
18121750	-0.09914448	0.522075712
18122000	-0.09425196	0.511196064
18122250	-0.084816496	0.506594656
18122500	-0.099430424	0.522433408
18122750	-0.093835584	0.512823232
18123000	-0.08756712	0.50782256
18123250	-0.097418224	0.520687104
18123500	-0.094072152	0.512142176
18123750	-0.09559712	0.518852224
18124000	-0.093418264	0.514027712
18124250	-0.085627384	0.510325504
18124500	-0.097338304	0.522228128
18124750	-0.092405832	0.511178144
18125000	-0.082955872	0.507866336
18125250	-0.097841032	0.522910656
18125500	-0.092054	0.512865056
18125750	-0.083881776	0.507074944
18126000	-0.096601848	0.522657984
18126250	-0.092610352	0.512909824
18126500	-0.089282688	0.513609184
18126750	-0.093880024	0.518212928
18127000	-0.08879568	0.512375232
18127250	-0.095022864	0.522409792
18127500	-0.090714224	0.51185216
18127750	-0.081012496	0.509323904
18128000	-0.096109048	0.523733312
18128250	-0.08988984	0.513282944
18128500	-0.081477256	0.507620288
18128750	-0.094505552	0.523867776
18129000	-0.090702176	0.512903104
18129250	-0.082680416	0.508501472
18129500	-0.094459792	0.522483936
18129750	-0.090630232	0.51453136
18130000	-0.091066616	0.518448896
18130250	-0.089999544	0.515000768
18130500	-0.083249824	0.511044448
18130750	-0.094469088	0.524042144
18131000	-0.088426576	0.51353328
18131250	-0.07977232	0.508188192
18131500	-0.093459912	0.524131552
18131750	-0.088930144	0.513163328
18132000	-0.080140632	0.50808752
18132250	-0.093556448	0.524463232
18132500	-0.089121808	0.514881024
18132750	-0.085571288	0.51323104
18133000	-0.089593976	0.519301248
18133250	-0.08518612	0.51256192
18133500	-0.092671192	0.523482496
18133750	-0.086854192	0.513995648
18134000	-0.07803712	0.509083328
18134250	-0.091525968	0.524578944
18134500	-0.087126544	0.513385664
18134750	-0.078227056	0.508106336
18135000	-0.0922788	0.525075616
18135250	-0.08691452	0.514705952
18135500	-0.079749904	0.509122208
18135750	-0.090374032	0.52368592
18136000	-0.087671512	0.514583712
18136250	-0.088149656	0.51956464
18136500	-0.086528096	0.516897376
18136750	-0.080708848	0.51136416
18137000	-0.089935696	0.525164192
18137250	-0.085240936	0.5136224
18137500	-0.076199392	0.508819392
18137750	-0.090597416	0.525538432
18138000	-0.084846176	0.51507968
18138250	-0.076522824	0.508990176
18138500	-0.089597672	0.52537376
18138750	-0.085311944	0.515165792
18139000	-0.081616592	0.514573888
18139250	-0.0870572	0.52135968
18139500	-0.082683008	0.51357872
18139750	-0.088445504	0.52424544
18140000	-0.083609064	0.51430768
18140250	-0.07451784	0.509780896
18140500	-0.088893112	0.526240704
18140750	-0.083131064	0.515165984
18141000	-0.074633624	0.509458016
18141250	-0.087984472	0.526294176
18141500	-0.0833982	0.515180288
18141750	-0.074858816	0.510225664
18142000	-0.087406848	0.525419008
18142250	-0.0843154	0.51613696
18142500	-0.083344168	0.519787776
18142750	-0.082717336	0.517982016
18143000	-0.076930984	0.511996224
18143250	-0.087174056	0.52639328
18143500	-0.081460928	0.515613856
18143750	-0.072800312	0.509876544
18144000	-0.086304512	0.526848256
18144250	-0.08178008	0.51515168
18144500	-0.07274792	0.509399712
18144750	-0.086453336	0.52699648
18145000	-0.08142512	0.517075168
18145250	-0.077454648	0.514543488
18145500	-0.083225216	0.522358016
18145750	-0.07913744	0.514282272
18146000	-0.085441792	0.526119904
18146250	-0.07977648	0.5162832
18146500	-0.071460816	0.511400448
18146750	-0.08444636	0.526768576
18147000	-0.079833864	0.515529696
18147250	-0.070874688	0.50998336
18147500	-0.084804728	0.527601248
18147750	-0.0799392	0.517102848
18148000	-0.071495552	0.510320672
18148250	-0.08300772	0.526868928
18148500	-0.08010036	0.516771488
18148750	-0.07963016	0.521296384
18149000	-0.079800296	0.52024944
18149250	-0.072946848	0.515059776
18149500	-0.082636664	0.527193184
18149750	-0.078213488	0.515700768
18150000	-0.068654712	0.511600736
18150250	-0.083390712	0.528201152
18150500	-0.07805792	0.517134848
18150750	-0.069695848	0.51085872
18151000	-0.082075264	0.52777536
18151250	-0.078408344	0.517445088
18151500	-0.073862488	0.515847456
18151750	-0.079922792	0.524494112
18152000	-0.075511616	0.517349888
18152250	-0.080850784	0.526175968
18152500	-0.07662616	0.51655776
18152750	-0.067714368	0.513704544
18153000	-0.081883416	0.5286312
18153250	-0.076061616	0.51734288
18153500	-0.067783048	0.51125008
18153750	-0.080863552	0.528132672
18154000	-0.076485472	0.517671936
18154250	-0.06780688	0.510806912
18154500	-0.08060064	0.528487392
18154750	-0.07681352	0.518675552
18155000	-0.075384864	0.521010752
18155250	-0.07611076	0.521102976
18155500	-0.0705182	0.516395584
18155750	-0.079649888	0.529009056
18156000	-0.074462808	0.51787872
18156250	-0.065221064	0.513017312
18156500	-0.079015232	0.529006848
18156750	-0.074868688	0.517465888
18157000	-0.065372424	0.51125728
18157250	-0.079268736	0.52951104
18157500	-0.074659944	0.519193472
18157750	-0.070034736	0.515308512
18158000	-0.07612804	0.52544624
18158250	-0.072971544	0.518087104
18158500	-0.077735816	0.528111104
18158750	-0.072952632	0.518636928
18159000	-0.065246968	0.515440896
18159250	-0.076921112	0.529309408
18159500	-0.072962288	0.517510656
18159750	-0.063797788	0.512265728
18160000	-0.077727176	0.53021312
18160250	-0.072761408	0.519510688
18160500	-0.064496048	0.512012352
18160750	-0.076005984	0.529586432
18161000	-0.072972504	0.519135584
18161250	-0.071767128	0.52238816
18161500	-0.072988352	0.523204096
18161750	-0.066950596	0.518060384
18162000	-0.07485836	0.528752672
18162250	-0.071151088	0.517996384
18162500	-0.06159504	0.513139776
18162750	-0.075959696	0.530555712
18163000	-0.07069936	0.519166592
18163250	-0.062201668	0.512235872
18163500	-0.075164888	0.53044528
18163750	-0.07099372	0.519376576
18164000	-0.06595918	0.516622976
18164250	-0.073214968	0.527488832
18164500	-0.069509432	0.519796896
18164750	-0.072667592	0.5275576
18165000	-0.069464264	0.519235488
18165250	-0.061060472	0.515719232
18165500	-0.074070168	0.530733472
18165750	-0.06864968	0.519579776
18166000	-0.059703928	0.513912672
18166250	-0.072840744	0.530776864
18166500	-0.069177848	0.519514368
18166750	-0.060400436	0.512405824
18167000	-0.07313512	0.531307712
18167250	-0.069037448	0.521166688
18167500	-0.0676234	0.521803424
18167750	-0.069387528	0.5236832
18168000	-0.063477964	0.5185672
