# Hz S RI R 50
14000000	-0.233720736	-0.434997856
14000875	-0.234418416	-0.442589152
14001750	-0.235801632	-0.437669792
14002625	-0.236662304	-0.444264864
14003500	-0.237039568	-0.441589728
14004375	-0.23542472	-0.430323712
14005250	-0.238076464	-0.442923264
14006125	-0.238010128	-0.440720928
14007000	-0.237607936	-0.431161568
14007875	-0.239541264	-0.442254688
14008750	-0.239866256	-0.439850176
14009625	-0.239904624	-0.43656768
14010500	-0.24020376	-0.439324096
14011375	-0.241053136	-0.437151456
14012250	-0.24255048	-0.44018592
14013125	-0.242344816	-0.437689216
14014000	-0.24153816	-0.429153344
14014875	-0.243759872	-0.438995168
14015750	-0.2435916	-0.436326752
14016625	-0.242690432	-0.426186336
14017500	-0.24522568	-0.438365792
14018375	-0.245808912	-0.435563264
14019250	-0.24456552	-0.42865232
14020125	-0.246170864	-0.436078976
14021000	-0.246938912	-0.434219872
14021875	-0.247560864	-0.43540384
14022750	-0.247493184	-0.433830432
14023625	-0.247623392	-0.429013504
14024500	-0.249624432	-0.434760512
14025375	-0.248859488	-0.432485216
14026250	-0.248173376	-0.422619904
14027125	-0.250773728	-0.434217184
14028000	-0.25146568	-0.431632416
14028875	-0.249632784	-0.421765664
14029750	-0.25220456	-0.433101568
14030625	-0.252037056	-0.430315776
14031500	-0.252267632	-0.42737616
14032375	-0.252924944	-0.430553952
14033250	-0.253660448	-0.427522336
14034125	-0.255208608	-0.430383136
14035000	-0.25438536	-0.427994784
14035875	-0.253292032	-0.419671264
14036750	-0.256424816	-0.43001216
14037625	-0.256666624	-0.427232992
14038500	-0.254233632	-0.416752448
14039375	-0.257531728	-0.428528896
14040250	-0.257523088	-0.426125536
14041125	-0.256712112	-0.419791712
14042000	-0.258758272	-0.427058912
14042875	-0.259526256	-0.424779616
14043750	-0.259821328	-0.425523744
14044625	-0.259332896	-0.424091904
14045500	-0.259389456	-0.419500608
14046375	-0.262079504	-0.425902784
14047250	-0.262369968	-0.423084768
14048125	-0.259324752	-0.411854176
14049000	-0.26337528	-0.424327648
14049875	-0.26293456	-0.421806752
14050750	-0.261450464	-0.412275488
14051625	-0.264618464	-0.423477856
14052500	-0.264834976	-0.420710944
14053375	-0.264086192	-0.417575008
14054250	-0.264977808	-0.42066192
14055125	-0.265192864	-0.41832544
14056000	-0.267436864	-0.421222336
14056875	-0.266905792	-0.418462432
14057750	-0.26493824	-0.410538144
14058625	-0.268393136	-0.419801248
14059500	-0.267856864	-0.417323488
14060375	-0.265841184	-0.407003616
14061250	-0.269995168	-0.419318656
14062125	-0.270116576	-0.416406624
14063000	-0.268312688	-0.409319968
14063875	-0.270866368	-0.417059328
14064750	-0.270851904	-0.414658144
14065625	-0.271879776	-0.415884928
14066500	-0.27177184	-0.414412544
14067375	-0.271378976	-0.409241568
14068250	-0.273830848	-0.415486528
14069125	-0.272980736	-0.412778368
14070000	-0.270380704	-0.402708352
14070875	-0.275179424	-0.414728256
14071750	-0.275419744	-0.411872
14072625	-0.272388736	-0.401664768
14073500	-0.276312896	-0.4131464
14074375	-0.276088672	-0.410367872
14075250	-0.275715904	-0.407900608
14076125	-0.276937152	-0.41101872
14077000	-0.277382112	-0.408207232
14077875	-0.279126112	-0.410730016
14078750	-0.278043072	-0.408481344
14079625	-0.276146688	-0.400331616
14080500	-0.280576064	-0.410377536
14081375	-0.28039904	-0.407321824
14082250	-0.276628736	-0.396616352
14083125	-0.281391488	-0.40862688
14084000	-0.280988	-0.406269024
14084875	-0.279556096	-0.399772096
14085750	-0.282564096	-0.407168928
14086625	-0.282880736	-0.40481776
14087500	-0.283011552	-0.405558432
14088375	-0.282771424	-0.40421488
14089250	-0.28316576	-0.399856096
14090125	-0.285377536	-0.405623168
14091000	-0.28536944	-0.402992192
14091875	-0.280725248	-0.3921664
14092750	-0.286575456	-0.404141024
14093625	-0.285915104	-0.40152032
14094500	-0.283382016	-0.392368032
14095375	-0.287944768	-0.403536064
14096250	-0.287853376	-0.40052576
14097125	-0.286668448	-0.397422208
14098000	-0.287792576	-0.40037008
14098875	-0.288543936	-0.39796
14099750	-0.290436448	-0.400914656
14100625	-0.289786944	-0.398336352
14101500	-0.286723008	-0.39066992
14102375	-0.291488864	-0.399623136
14103250	-0.290769632	-0.396777728
14104125	-0.287029728	-0.386889088
14105000	-0.292822656	-0.398930432
14105875	-0.292586944	-0.395703424
14106750	-0.289289024	-0.388990912
14107625	-0.293249568	-0.396459168
14108500	-0.292445056	-0.394414144
14109375	-0.294121824	-0.39558944
14110250	-0.2942968	-0.393929056
14111125	-0.290630176	-0.388194112
14112000	-0.296228928	-0.394617728
14112875	-0.295486464	-0.391804
14113750	-0.291002528	-0.381451616
14114625	-0.297505888	-0.394111648
14115500	-0.297418816	-0.390876672
14116375	-0.293007424	-0.38129296
14117250	-0.29836336	-0.392310592
14118125	-0.29753392	-0.38955008
14119000	-0.297239872	-0.38702768
14119875	-0.299033376	-0.38989248
14120750	-0.296678432	-0.387137696
14121625	-0.300799936	-0.389730272
14122500	-0.299527072	-0.38720496
14123375	-0.295313408	-0.378863072
14124250	-0.30221104	-0.389051776
14125125	-0.301943104	-0.385861824
14126000	-0.296702816	-0.37525264
14126875	-0.303302944	-0.387028
14127750	-0.302484448	-0.384429408
14128625	-0.299291744	-0.378042016
14129500	-0.304036032	-0.385734656
14130375	-0.302948896	-0.383173088
14131250	-0.304653664	-0.383769152
14132125	-0.3039328	-0.382287776
14133000	-0.30063776	-0.377078688
14133875	-0.306992544	-0.383896544
14134750	-0.306354944	-0.380741792
14135625	-0.300423872	-0.370355936
14136500	-0.307838944	-0.382050912
14137375	-0.306726112	-0.379219872
14138250	-0.303066272	-0.370276672
14139125	-0.30921616	-0.381127136
14140000	-0.30851984	-0.377954816
14140875	-0.307275072	-0.374873536
14141750	-0.308605152	-0.378004288
14142625	-0.3071928	-0.375108576
14143500	-0.31147568	-0.378287264
14144375	-0.31014784	-0.375728896
14145250	-0.30466336	-0.366888032
14146125	-0.312360096	-0.377014656
14147000	-0.311322656	-0.374152768
14147875	-0.306688416	-0.364355808
14148750	-0.313611456	-0.376036128
14149625	-0.31312512	-0.372842048
14150500	-0.309194176	-0.366058848
14151375	-0.313928352	-0.37370272
14152250	-0.312720064	-0.371066496
14153125	-0.314703648	-0.3720032
14154000	-0.314270272	-0.370877568
14154875	-0.310174208	-0.365280224
14155750	-0.31684	-0.371559872
14156625	-0.314590848	-0.368833344
14157500	-0.30977152	-0.358588288
14158375	-0.318077216	-0.370788096
14159250	-0.317132096	-0.367032736
14160125	-0.311913024	-0.3576496
14161000	-0.318479968	-0.368224064
14161875	-0.31764736	-0.36508304
14162750	-0.316685248	-0.362185792
14163625	-0.318568736	-0.365376608
14164500	-0.316253664	-0.362066912
14165375	-0.32105248	-0.365127904
14166250	-0.31824784	-0.362276832
14167125	-0.312849312	-0.353868768
14168000	-0.32221712	-0.364105344
14168875	-0.321230432	-0.360399936
14169750	-0.31411472	-0.35008432
14170625	-0.322807776	-0.362352384
14171500	-0.321263936	-0.35895344
14172375	-0.317527328	-0.352660224
14173250	-0.323435136	-0.360623872
14174125	-0.322527776	-0.357314144
14175000	-0.323272512	-0.358244928
14175875	-0.323008032	-0.35682912
14176750	-0.320939872	-0.35223296
14177625	-0.326224864	-0.358511808
14178500	-0.324912832	-0.355251456
14179375	-0.318016256	-0.345419808
14180250	-0.327116416	-0.356826464
14181125	-0.325292768	-0.353609056
14182000	-0.32012896	-0.344142528
14182875	-0.328299104	-0.355790176
14183750	-0.327372224	-0.352425536
14184625	-0.325092928	-0.349427616
14185500	-0.327511552	-0.352176192
14186375	-0.326787744	-0.350332128
14187250	-0.330273408	-0.35306816
14188125	-0.328627968	-0.349902496
14189000	-0.323468608	-0.342862848
14189875	-0.330908672	-0.351453152
14190750	-0.3289864	-0.348471648
14191625	-0.322982624	-0.338738976
14192500	-0.332423264	-0.350634144
14193375	-0.331378272	-0.347502656
14194250	-0.325930816	-0.340668832
14195125	-0.332684928	-0.348453984
14196000	-0.331399968	-0.34605792
14196875	-0.333031744	-0.34736704
14197750	-0.332776384	-0.346164128
14198625	-0.3306288	-0.342269536
14199500	-0.335288992	-0.347278816
14200375	-0.33317696	-0.34457152
14201250	-0.327430624	-0.336201056
14202125	-0.336600704	-0.346904416
14203000	-0.335494272	-0.343781024
14203875	-0.328754944	-0.334659904
14204750	-0.336953056	-0.345542752
14205625	-0.335751616	-0.342646912
14206500	-0.334369504	-0.340078016
14207375	-0.337013888	-0.343122528
14208250	-0.336431808	-0.340586368
14209125	-0.339056512	-0.34281088
14210000	-0.336873152	-0.340443392
14210875	-0.332873408	-0.333365824
14211750	-0.340413952	-0.342266752
14212625	-0.339191456	-0.338774176
14213500	-0.331741312	-0.329703712
14214375	-0.340834368	-0.340238656
14215250	-0.339285504	-0.337869216
14216125	-0.335401888	-0.331601664
14217000	-0.341774368	-0.339050816
14217875	-0.340616096	-0.33639872
14218750	-0.34111104	-0.336589664
14219625	-0.34059648	-0.33552672
14220500	-0.339034464	-0.331680064
14221375	-0.344268448	-0.336920032
14222250	-0.342789696	-0.333482112
14223125	-0.335084032	-0.3247064
14224000	-0.344585024	-0.334780416
14224875	-0.342809632	-0.332186144
14225750	-0.337153568	-0.323589664
14226625	-0.345999488	-0.334329888
14227500	-0.34476512	-0.330428672
14228375	-0.34223776	-0.327595488
14229250	-0.345008384	-0.330720096
14230125	-0.344433632	-0.328460896
14231000	-0.347830304	-0.331065632
14231875	-0.3460568	-0.328164992
14232750	-0.342054592	-0.322085856
14233625	-0.348295296	-0.329588864
14234500	-0.34654848	-0.32692048
14235375	-0.339832864	-0.317398368
14236250	-0.349845504	-0.328600672
14237125	-0.348647872	-0.325730752
14238000	-0.342517504	-0.319009152
14238875	-0.349854304	-0.326256928
14239750	-0.34827008	-0.323774336
14240625	-0.349661248	-0.324117056
14241500	-0.349593856	-0.323225056
14242375	-0.34679376	-0.318467392
14243250	-0.352108992	-0.323753792
14244125	-0.349422848	-0.320767552
14245000	-0.34265104	-0.31237056
14245875	-0.353197184	-0.322533184
14246750	-0.3515928	-0.319295488
14247625	-0.343860416	-0.310796736
14248500	-0.35350576	-0.320654464
14249375	-0.351515616	-0.317996704
14250250	-0.349779936	-0.314964
14251125	-0.352926464	-0.3184064
14252000	-0.351976672	-0.315868832
14252875	-0.355132448	-0.31758048
14253750	-0.352294848	-0.315366272
14254625	-0.347614624	-0.308804864
14255500	-0.356347392	-0.31706224
14256375	-0.354509248	-0.313560416
14257250	-0.346532736	-0.3055616
14258125	-0.356489536	-0.314849216
14259000	-0.354880416	-0.312260992
14259875	-0.349494912	-0.306137632
14260750	-0.357221376	-0.313566848
14261625	-0.35588544	-0.310693792
14262500	-0.356703392	-0.310921952
14263375	-0.35586208	-0.309770784
14264250	-0.353716224	-0.306392992
14265125	-0.359551584	-0.311157056
14266000	-0.357695744	-0.307610336
14266875	-0.349312768	-0.299874144
14267750	-0.36001056	-0.309163168
14268625	-0.357653984	-0.306341216
14269500	-0.350717696	-0.298316064
14270375	-0.361147776	-0.308154688
14271250	-0.359416992	-0.304760576
14272125	-0.35613008	-0.302335456
14273000	-0.359975904	-0.304835232
14273875	-0.358413984	-0.302498592
14274750	-0.362503648	-0.305183232
14275625	-0.360339808	-0.302218432
14276500	-0.354308352	-0.29622432
14277375	-0.363260608	-0.30353696
14278250	-0.360545504	-0.300574272
14279125	-0.352439136	-0.292175552
14280000	-0.364262144	-0.302426048
14280875	-0.362468	-0.298878848
14281750	-0.355387872	-0.2932624
14282625	-0.363904288	-0.299813248
14283500	-0.3619264	-0.297216864
14284375	-0.363610112	-0.29795344
14285250	-0.362716256	-0.296906752
14286125	-0.357128992	-0.29271488
14287000	-0.366082848	-0.297401056
14287875	-0.362645792	-0.294861632
14288750	-0.35442736	-0.286343968
14289625	-0.357869344	-0.286197632
14290500	-0.370144512	-0.296692864
14291375	-0.36838288	-0.29314992
14292250	-0.360320096	-0.286558048
14293125	-0.370039776	-0.29442896
14294000	-0.367728832	-0.29174848
14294875	-0.36749904	-0.29152976
14295750	-0.369423776	-0.291335232
14296625	-0.363227648	-0.287431456
14297500	-0.3721536	-0.291764352
14298375	-0.369130976	-0.288945344
14299250	-0.360655808	-0.281186528
14300125	-0.373337344	-0.290895264
14301000	-0.370971904	-0.287206944
14301875	-0.362302944	-0.279400128
14302750	-0.37346064	-0.288946112
14303625	-0.371107936	-0.286059008
14304500	-0.367244544	-0.282678656
14305375	-0.372984608	-0.286764736
14306250	-0.369544096	-0.284357888
14307125	-0.374427648	-0.2857728
14308000	-0.371874208	-0.283434848
14308875	-0.3637992	-0.277473984
14309750	-0.376273152	-0.28507424
14310625	-0.3737888	-0.281389088
14311500	-0.3642816	-0.2735496
14312375	-0.376653184	-0.283033632
14313250	-0.373991712	-0.280180352
14314125	-0.366912448	-0.273720288
14315000	-0.377249504	-0.281679552
14315875	-0.374680256	-0.278824832
14316750	-0.374510048	-0.277815392
14317625	-0.37505248	-0.277691296
14318500	-0.369752128	-0.275040032
14319375	-0.37898256	-0.27892896
14320250	-0.376566688	-0.27562768
14321125	-0.366065888	-0.268629184
14322000	-0.379018144	-0.277014592
14322875	-0.376492992	-0.274372832
14323750	-0.36807408	-0.266341568
14324625	-0.380435712	-0.275948064
14325500	-0.377650016	-0.272663104
14326375	-0.37269568	-0.269696096
14327250	-0.378926048	-0.272931072
14328125	-0.375280416	-0.271007904
14329000	-0.381322752	-0.272558624
14329875	-0.378403712	-0.269808832
14330750	-0.369542016	-0.265165328
14331625	-0.38191264	-0.271218368
14332500	-0.378727904	-0.268269952
14333375	-0.369829824	-0.260688192
14334250	-0.383016128	-0.2701416
14335125	-0.380518432	-0.26673416
14336000	-0.371440448	-0.260777952
14336875	-0.382724928	-0.267763344
14337750	-0.380192832	-0.265566112
14338625	-0.380261056	-0.264750896
14339500	-0.381630464	-0.264773072
14340375	-0.375047104	-0.261512288
14341250	-0.384642848	-0.265060432
14342125	-0.381003456	-0.262250064
14343000	-0.370813088	-0.255155984
14343875	-0.385705312	-0.264177264
14344750	-0.383192576	-0.26062224
14345625	-0.372486624	-0.253585728
14346500	-0.385560736	-0.261998384
14347375	-0.38270304	-0.259247296
14348250	-0.378713056	-0.256395408
14349125	-0.385342176	-0.259986368
14350000	-0.383467104	-0.257669568
