# Hz S RI R 50
10100000	0.086989736	0.630719424
10100125	0.087607872	0.635892736
10100250	0.077943344	0.628404096
10100375	0.059484112	0.630240256
10100500	0.085830568	0.638873024
10100625	0.081761368	0.628212736
10100750	0.062306564	0.629173568
10100875	0.089203776	0.63479584
10101000	0.072490224	0.626539264
10101125	0.080660744	0.632186112
10101250	0.088436928	0.631040128
10101375	0.060660908	0.62791712
10101500	0.088591624	0.636222784
10101625	0.07633068	0.628813952
10101750	0.059759888	0.628713088
10101875	0.086832048	0.63827584
10102000	0.082961184	0.628857728
10102125	0.05999226	0.629558016
10102250	0.088501168	0.637058688
10102375	0.079805352	0.626319104
10102500	0.071689568	0.630103296
10102625	0.089143392	0.632317952
10102750	0.069160128	0.626879552
10102875	0.089191272	0.634654912
10103000	0.078263016	0.628618496
10103125	0.059907832	0.62992
10103250	0.088120664	0.63814208
10103375	0.084107584	0.629089024
10103500	0.06077988	0.6297952
10103625	0.089623016	0.636783872
10103750	0.080445112	0.626991168
10103875	0.063329496	0.62802592
10104000	0.08963668	0.63654496
10104125	0.078920544	0.626587264
10104250	0.082745344	0.63163456
10104375	0.084472208	0.629176128
10104500	0.066250496	0.628656896
10104625	0.089531992	0.63710176
10104750	0.085784296	0.62996736
10104875	0.06139026	0.629737344
10105000	0.090995656	0.636083776
10105125	0.081501472	0.628578688
10105250	0.061608664	0.629424832
10105375	0.088821456	0.63843296
10105500	0.085509848	0.626958208
10105625	0.073276504	0.629330816
10105750	0.088985192	0.631131392
10105875	0.071307288	0.626865344
10106000	0.09037484	0.635071232
10106125	0.087918496	0.62998112
10106250	0.061180748	0.629044928
10106375	0.091744456	0.635673664
10106500	0.080492272	0.626595776
10106625	0.062690264	0.63018848
10106750	0.090401024	0.638502336
10106875	0.08734032	0.627452416
10107000	0.065896512	0.629191296
10107125	0.093083704	0.634078016
10107250	0.080375728	0.626192384
10107375	0.08493728	0.631297344
10107500	0.092634456	0.630755904
10107625	0.077294128	0.625697408
10107750	0.09323668	0.63536032
10107875	0.084132616	0.628843136
10108000	0.06786372	0.630326464
10108125	0.091410512	0.638262976
10108250	0.088591952	0.627860608
10108375	0.065454788	0.62996032
10108500	0.093683584	0.635218112
10108625	0.084810096	0.626830912
10108750	0.074832408	0.629488064
10108875	0.09339024	0.633027456
10109000	0.082355888	0.62561056
10109125	0.09309332	0.634132288
10109250	0.0864896	0.627781824
10109375	0.072132152	0.628268608
10109500	0.092551944	0.637788992
10109625	0.089176032	0.628866624
10109750	0.0680142	0.630198272
10109875	0.094664096	0.636145344
10110000	0.085724392	0.62714272
10110125	0.068120136	0.62921024
10110250	0.093656568	0.63685632
10110375	0.088313384	0.626768832
10110500	0.087057848	0.631105408
10110625	0.091642464	0.629584448
10110750	0.079008632	0.627129856
10110875	0.093691576	0.636492032
10111000	0.091249096	0.629285376
10111125	0.070715264	0.629358144
10111250	0.095109432	0.635550656
10111375	0.086189784	0.626780032
10111500	0.06806552	0.629836416
10111625	0.093676352	0.638241792
10111750	0.09058248	0.627373504
10111875	0.076494328	0.629267776
10112000	0.09466976	0.63069632
10112125	0.0828952	0.625983488
10112250	0.094521608	0.634430208
10112375	0.093878328	0.62932512
10112500	0.074506632	0.6280576
10112625	0.0959088	0.635298496
10112750	0.087064008	0.627814144
10112875	0.069544624	0.630354944
10113000	0.0950146	0.638154496
10113125	0.09187952	0.628214144
10113250	0.069470856	0.629294912
10113375	0.097653304	0.633948352
10113500	0.086681496	0.62705376
10113625	0.087542424	0.630621824
10113750	0.096205512	0.630283264
10113875	0.08072968	0.626339328
10114000	0.09761052	0.63528768
10114125	0.089252976	0.628830336
10114250	0.07353512	0.630030592
10114375	0.096061824	0.637408704
10114500	0.093178616	0.627032512
10114625	0.070766048	0.629930368
10114750	0.096611664	0.635815296
10114875	0.088887912	0.62721856
10115000	0.080205096	0.62960896
10115125	0.097833264	0.632564928
10115250	0.08731288	0.625858176
10115375	0.097993856	0.631685376
10115500	0.0918312	0.6282448
10115625	0.078430608	0.628339776
10115750	0.097219664	0.636626368
10115875	0.093817976	0.628115648
10116000	0.072701768	0.630973248
10116125	0.098834344	0.63519072
10116250	0.089693592	0.627228608
10116375	0.07297232	0.629888768
10116500	0.098275528	0.636568832
10116625	0.092405864	0.626814976
10116750	0.089109568	0.63029312
10116875	0.096086176	0.629353024
10117000	0.082739104	0.627401472
10117125	0.098485904	0.635865344
10117250	0.0956942	0.629576576
10117375	0.077081504	0.630002624
10117500	0.099293	0.635080576
10117625	0.091034592	0.627632832
10117750	0.074613112	0.63057312
10117875	0.098566864	0.637998336
10118000	0.095343904	0.62796032
10118125	0.081257848	0.630288768
10118250	0.099077368	0.631269504
10118375	0.0874648	0.626313792
10118500	0.09862776	0.634320064
10118625	0.098845936	0.629310336
10118750	0.08092996	0.62897536
10118875	0.101407776	0.635305728
10119000	0.09215208	0.628495232
10119125	0.07600176	0.630463104
10119250	0.099231784	0.637476608
10119375	0.096237288	0.628848192
10119500	0.07594164	0.630043776
10119625	0.101242064	0.634200128
10119750	0.092779544	0.626881536
10119875	0.091147512	0.631381632
10120000	0.101145504	0.630811968
10120125	0.086090968	0.627129664
10120250	0.102083904	0.63443104
10120375	0.09362988	0.62920736
10120500	0.0784308	0.630157888
10120625	0.10051232	0.637487616
10120750	0.097484168	0.628144896
10120875	0.0768144	0.63112384
10121000	0.101732072	0.635970624
10121125	0.094209472	0.627506752
10121250	0.084804416	0.629829376
10121375	0.1022944	0.633228736
10121500	0.093161896	0.626450368
10121625	0.101971792	0.631517824
10121750	0.09698304	0.628541184
10121875	0.084179	0.629075008
10122000	0.10157136	0.637256832
10122125	0.098913568	0.629147392
10122250	0.079980832	0.6315424
10122375	0.103617704	0.635364416
10122500	0.094986784	0.628576384
10122625	0.07936772	0.6307936
10122750	0.102500376	0.63656064
10122875	0.097253104	0.628670656
10123000	0.09423892	0.631338496
10123125	0.100907984	0.630047616
10123250	0.088993344	0.627730816
10123375	0.103025728	0.635994688
10123500	0.100631344	0.630125824
10123625	0.083244328	0.630450816
10123750	0.104472816	0.635606272
10123875	0.095764656	0.627875136
10124000	0.080065408	0.6308288
10124125	0.102546024	0.636833472
10124250	0.099316088	0.627873536
10124375	0.084962008	0.629630144
10124500	0.104616104	0.631173248
10124625	0.089736872	0.628665472
10124750	0.099802024	0.632441664
10124875	0.103367744	0.629811712
10125000	0.0820322	0.630768384
10125125	0.10596272	0.63467232
10125250	0.097864384	0.628675392
10125375	0.081834872	0.631027136
10125500	0.104282736	0.63684384
10125625	0.10116696	0.628716864
10125750	0.081740152	0.630871744
10125875	0.10584872	0.6346688
10126000	0.096081432	0.628365248
10126125	0.093207304	0.630841408
10126250	0.10537804	0.63079776
10126375	0.085951024	0.630243072
10126500	0.106466976	0.634515648
10126625	0.099354912	0.62911744
10126750	0.082337056	0.630974272
10126875	0.105374752	0.636557568
10127000	0.101941216	0.628862464
10127125	0.08330188	0.630276352
10127250	0.10654684	0.635197632
10127375	0.09915832	0.62820192
10127500	0.085987632	0.630031808
10127625	0.107002872	0.632930304
10127750	0.09435148	0.63042752
10127875	0.104327984	0.630618048
10128000	0.10276988	0.628925696
10128125	0.085448696	0.63073152
10128250	0.106732904	0.63620704
10128375	0.103446592	0.629013184
10128500	0.085439952	0.63125824
10128625	0.108535712	0.635180096
10128750	0.099806072	0.629005376
10128875	0.08387496	0.630707072
10129000	0.106924032	0.63640128
10129125	0.09950968	0.62841728
10129250	0.097398704	0.631398336
10129375	0.105418184	0.630223168
10129500	0.089815384	0.630440704
10129625	0.107807224	0.635356544
10129750	0.105042464	0.630172928
10129875	0.084890592	0.631611584
10130000	0.109255624	0.634742592
10130125	0.100403272	0.627945728
10130250	0.08634352	0.630258816
10130375	0.107085096	0.636861248
10130500	0.104451408	0.62780864
10130625	0.09013544	0.630588032
10130750	0.109470608	0.630509696
10130875	0.093519008	0.630016448
10131000	0.106741408	0.632460864
10131125	0.108167728	0.628859456
10131250	0.085828272	0.63153984
10131375	0.110098776	0.634460864
10131500	0.102016376	0.628660608
10131625	0.087137504	0.631102912
10131750	0.1081474	0.636440256
10131875	0.10556184	0.629283648
10132000	0.086710872	0.630116416
10132125	0.111072944	0.634305728
10132250	0.098867856	0.629176896
10132375	0.09955516	0.630465664
10132500	0.110089904	0.63077376
10132625	0.089190928	0.630980224
10132750	0.1101506	0.633497792
10132875	0.103478784	0.62966048
10133000	0.087910656	0.631613504
10133125	0.1094418	0.636730944
10133250	0.106256376	0.62800512
10133375	0.088507592	0.631928832
10133500	0.11075692	0.63438944
10133625	0.103293416	0.628097856
10133750	0.093412624	0.630382336
10133875	0.1111498	0.63228
10134000	0.100978624	0.627090112
10134125	0.108833696	0.63118464
10134250	0.106383864	0.628579776
10134375	0.09431576	0.629309952
10134500	0.110977304	0.635782464
10134625	0.10752748	0.629465344
10134750	0.090416304	0.631791616
10134875	0.111778072	0.634819712
10135000	0.103831984	0.628432896
10135125	0.089261312	0.63129696
10135250	0.110906976	0.63588192
10135375	0.107373984	0.627849408
10135500	0.100956728	0.63020064
10135625	0.10976376	0.629669504
10135750	0.099480016	0.62809792
10135875	0.11196152	0.634522944
10136000	0.109272552	0.62903904
10136125	0.094041568	0.629524544
10136250	0.112930024	0.63370432
10136375	0.1050778	0.627898176
10136500	0.091175672	0.630932032
10136625	0.111930648	0.636032128
10136750	0.108867576	0.62851008
10136875	0.095046312	0.629540608
10137000	0.113823616	0.630678784
10137125	0.104059648	0.627477568
10137250	0.110596168	0.631409152
10137375	0.112690848	0.629050368
10137500	0.099264736	0.628532352
10137625	0.114082544	0.633288896
10137750	0.1063906	0.628672192
10137875	0.0926662	0.63181664
10138000	0.112511	0.636564672
10138125	0.109502768	0.627768192
10138250	0.092006344	0.631549568
10138375	0.114748832	0.63457696
10138500	0.105881856	0.627961024
10138625	0.104063984	0.630666368
10138750	0.114027504	0.630253312
10138875	0.102732136	0.627066048
10139000	0.114915144	0.632405888
10139125	0.107672984	0.62912896
10139250	0.095707568	0.630294144
10139375	0.11361136	0.635420736
10139500	0.11082592	0.628337984
10139625	0.093405448	0.63064128
10139750	0.115262808	0.63337504
10139875	0.10741552	0.628064128
10140000	0.096816728	0.629604608
10140125	0.11527964	0.632575104
10140250	0.107783024	0.627655232
10140375	0.111550552	0.630201344
10140500	0.1109678	0.62804832
10140625	0.100024784	0.62896416
10140750	0.115237024	0.635116928
10140875	0.111863216	0.629038528
10141000	0.095456888	0.631237952
10141125	0.116222312	0.63328352
10141250	0.108316008	0.62761952
10141375	0.093944248	0.63117536
10141500	0.115261144	0.635945536
10141625	0.111019168	0.627902464
10141750	0.104604936	0.629795712
10141875	0.114207104	0.628511808
10142000	0.103734592	0.6279344
10142125	0.116329488	0.633440832
10142250	0.119030848	0.632165696
10142375	0.111174808	0.62990208
10142500	0.119931288	0.632633088
10142625	0.115116248	0.630372928
10142750	0.106325424	0.630712448
10142875	0.118892656	0.636031424
10143000	0.116663656	0.630432576
10143125	0.102831168	0.631858816
10143250	0.119022632	0.634348032
10143375	0.11296488	0.629184128
10143500	0.099705024	0.630090368
10143625	0.118088176	0.633531264
10143750	0.109463944	0.62756576
10143875	0.113199632	0.629373312
10144000	0.114357992	0.627298752
10144125	0.096060888	0.629513152
10144250	0.117109312	0.63349568
10144375	0.114286536	0.628137024
10144500	0.093792872	0.62955776
10144625	0.118607416	0.632262336
10144750	0.109016792	0.625044608
10144875	0.09179296	0.629099584
10145000	0.116796784	0.634389568
10145125	0.111345816	0.624864896
10145250	0.099480072	0.626363648
10145375	0.116655056	0.626283904
10145500	0.09852992	0.626006848
10145625	0.116259352	0.629942464
10145750	0.115281008	0.624596416
10145875	0.089267896	0.62852736
10146000	0.117553696	0.631032832
10146125	0.10873536	0.623375296
10146250	0.090507008	0.627618688
10146375	0.11681748	0.633728448
10146500	0.112615776	0.623062144
10146625	0.115431	0.62102656
10146750	0.093326136	0.59910688
10146875	0.088745552	0.607955456
10147000	0.114902672	0.613916096
10147125	0.068408128	0.598907264
10147250	0.112077144	0.626474304
10147375	0.107406112	0.60632864
10147500	0.056637892	0.60778048
10147625	0.114998552	0.622943552
10147750	0.098631304	0.603678656
10147875	0.109908472	0.621021312
10148000	0.084021024	0.623438976
10148125	0.11684128	0.627330432
10148250	0.098031344	0.622064896
10148375	0.105319864	0.6278992
10148500	0.115643432	0.62305824
10148625	0.086508984	0.621226816
10148750	0.116670928	0.628551936
10148875	0.105572552	0.62111968
10149000	0.081767632	0.625925248
10149125	0.114890672	0.6319328
10149250	0.109424152	0.618303552
10149375	0.077933616	0.624822656
10149500	0.11648288	0.629114496
10149625	0.10169204	0.616954176
10149750	0.091061008	0.62117216
10149875	0.115772512	0.622385152
10150000	0.086566304	0.618382656
