# Hz S RI R 50
7000000	-0.060240284	0.176455968
7000750	-0.057686852	0.17971024
7001500	-0.058139948	0.178765136
7002250	-0.054815996	0.174304704
7003000	-0.056318932	0.17961848
7003750	-0.056176676	0.172277904
7004500	-0.053226296	0.168728368
7005250	-0.05381054	0.178825552
7006000	-0.053899992	0.171764048
7006750	-0.049970288	0.166492624
7007500	-0.051329668	0.177410864
7008250	-0.05097148	0.170472496
7009000	-0.047551024	0.17067408
7009750	-0.048487704	0.175900736
7010500	-0.046736496	0.170736432
7011250	-0.046665736	0.174313168
7012000	-0.047012544	0.168540576
7012750	-0.045295056	0.165284656
7013500	-0.044283372	0.173155872
7014250	-0.044851836	0.166062368
7015000	-0.042608388	0.172215664
7015750	-0.041619812	0.166963936
7016500	-0.039995416	0.170451488
7017250	-0.040794612	0.166665104
7018000	-0.03739504	0.16354936
7018750	-0.038337052	0.16966768
7019500	-0.039449444	0.161940608
7020250	-0.035965124	0.156998464
7021000	-0.035772884	0.168432432
7021750	-0.035871604	0.16120144
7022500	-0.032246416	0.157357712
7023250	-0.033204828	0.167264432
7024000	-0.033015014	0.161030464
7024750	-0.030049096	0.161382736
7025500	-0.031224848	0.16299208
7026250	-0.02862425	0.159131664
7027000	-0.028341116	0.163571168
7027750	-0.029650506	0.157451408
7028500	-0.027779156	0.152855344
7029250	-0.026659564	0.162130672
7030000	-0.027337132	0.1554264
7030750	-0.025621432	0.150929712
7031500	-0.02401491	0.16051992
7032250	-0.024369528	0.15408968
7033000	-0.020905032	0.153147888
7033750	-0.021494264	0.158833648
7034500	-0.021763714	0.15268456
7035250	-0.01886724	0.157320448
7036000	-0.019944534	0.153532944
7036750	-0.018826614	0.150149744
7037500	-0.017347832	0.155493376
7038250	-0.01879387	0.148835568
7039000	-0.016741131	0.145343856
7039750	-0.014954767	0.154077344
7040500	-0.015866116	0.147340528
7041250	-0.013685083	0.143001456
7042000	-0.012517153	0.15242312
7042750	-0.01327097	0.145332448
7043500	-0.010059493	0.14778784
7044250	-0.009681372	0.149434704
7045000	-0.010270441	0.14478184
7045750	-0.008383047	0.148743024
7046500	-0.009988587	0.142643056
7047250	-0.008650668	0.139607088
7048000	-0.006875615	0.147774288
7048750	-0.007711197	0.141107552
7049500	-0.006287081	0.135638128
7050250	-0.003290584	0.145708016
7051000	-0.004861448	0.137386896
7051750	-0.002153946	0.139918976
7052500	0.00063337	0.144270944
7053250	-0.001285294	0.137273024
7054000	0.001287123	0.142099088
7054750	-0.000473401	0.13786792
7055500	0.000042732	0.133270416
7056250	0.00287256	0.140384032
7057000	0.000586623	0.133142504
7057750	0.001497609	0.129087864
7058500	0.004770644	0.13840928
7059250	0.003045436	0.132172112
7060000	0.004228564	0.128129856
7060750	0.007483329	0.13652928
7061500	0.005585267	0.130376744
7062250	0.008878127	0.130972968
7063000	0.008565346	0.13230424
7063750	0.008934283	0.127943352
7064500	0.01112469	0.132488848
7065250	0.008697896	0.126901624
7066000	0.009237277	0.12283248
7066750	0.012981779	0.130991328
7067500	0.01089823	0.124562776
7068250	0.011465559	0.120550088
7069000	0.015242731	0.127882032
7069750	0.013513958	0.12291732
7070500	0.015130105	0.121668848
7071250	0.017441086	0.12682496
7072000	0.016471901	0.120465784
7072750	0.01899112	0.124827024
7073500	0.017852814	0.12087856
7074250	0.016310413	0.118398592
7075000	0.02222536	0.123044224
7075750	0.017142614	0.118109584
7076500	0.017168584	0.111433184
7077250	0.023783512	0.120938544
7078000	0.02028814	0.114690368
7078750	0.02133877	0.111232824
7079500	0.025229212	0.118356328
7080250	0.022745382	0.112846592
7081000	0.02644228	0.114357128
7081750	0.026400758	0.115523784
7082500	0.025660934	0.110796
7083250	0.028389038	0.114757632
7084000	0.025192228	0.108240272
7084750	0.025955746	0.105647568
7085500	0.030505876	0.112853464
7086250	0.027395404	0.106110992
7087000	0.02744655	0.10307772
7087750	0.03248119	0.110458952
7088500	0.029626326	0.104551512
7089250	0.03151359	0.103893312
7090000	0.034308216	0.107881688
7090750	0.032640242	0.10220072
7091500	0.035769192	0.105484712
7092250	0.033107996	0.101552968
7093000	0.03317292	0.097810104
7093750	0.037237088	0.1035434
7094500	0.03369848	0.097520816
7095250	0.032629728	0.094342376
7096000	0.039107716	0.101625728
7096750	0.035884152	0.095619888
7097500	0.036281872	0.092895472
7098250	0.041109488	0.099235368
7099000	0.038382324	0.093461504
7099750	0.041205496	0.094821352
7100500	0.041453764	0.09511428
7101250	0.04052468	0.091042544
7102000	0.0442163	0.094923864
7102750	0.040809868	0.089240816
7103500	0.04028444	0.086631184
7104250	0.045936024	0.092682936
7105000	0.042264676	0.086998488
7105750	0.041358988	0.084007208
7106500	0.047690184	0.09043532
7107250	0.044635244	0.084878776
7108000	0.045774524	0.084556056
7108750	0.049548068	0.087502368
7109500	0.046429248	0.082207816
7110250	0.050272924	0.085866016
7111000	0.048451736	0.082017136
7111750	0.046670212	0.079524
7112500	0.052221852	0.083481416
7113250	0.047472124	0.077593032
7114000	0.04682426	0.075210832
7114750	0.053866708	0.081286192
7115500	0.049841872	0.075369256
7116250	0.048880048	0.073369672
7117000	0.055430032	0.078751584
7117750	0.051336436	0.073175728
7118500	0.054896604	0.075175416
7119250	0.056415504	0.074543344
7120000	0.053679472	0.07011768
7120750	0.057893544	0.07428936
7121500	0.05318716	0.06832788
7122250	0.05213342	0.065896608
7123000	0.059230328	0.07150948
7123750	0.054752336	0.065852212
7124500	0.052821032	0.064372368
7125250	0.061113084	0.068789936
7126000	0.05634552	0.06345228
7126750	0.057617896	0.064512588
7127500	0.062678792	0.065881132
7128250	0.05920254	0.06161736
7129000	0.06311226	0.063979196
7129750	0.05979554	0.059764256
7130500	0.058454792	0.057182856
7131250	0.064593912	0.061765276
7132000	0.059174556	0.0558002
7132750	0.055862776	0.054604064
7133500	0.066400184	0.059106948
7134250	0.061107488	0.053667004
7135000	0.060586388	0.052853728
7135750	0.067632912	0.056273912
7136500	0.063186176	0.050857288
7137250	0.066762096	0.05320708
7138000	0.067054012	0.05147894
7138750	0.064022036	0.048243872
7139500	0.069731848	0.05183486
7140250	0.064438424	0.046440404
7141000	0.061713884	0.044889488
7141750	0.071147552	0.048843268
7142500	0.065402084	0.044183528
7143250	0.063259572	0.042600088
7144000	0.0726366	0.046483788
7144750	0.067268464	0.041270676
7145500	0.068712032	0.043019976
7146250	0.073524328	0.043346588
7147000	0.069547152	0.04007238
7147750	0.074318752	0.04127376
7148500	0.071299336	0.038433916
7149250	0.06913736	0.035784968
7150000	0.07591332	0.038581016
7150750	0.069416952	0.034089972
7151500	0.066440336	0.032378842
7152250	0.076736824	0.036372972
7153000	0.071209552	0.030811708
7153750	0.069445624	0.031163964
7154500	0.07805704	0.033355468
7155250	0.072733112	0.028842506
7156000	0.077245456	0.02986663
7156750	0.077807304	0.02931637
7157500	0.074849912	0.027776846
7158250	0.07988852	0.028371802
7159000	0.07278676	0.023438666
7159750	0.071890576	0.023374132
7160500	0.081203496	0.025912632
7161250	0.075075928	0.021320028
7162000	0.07209452	0.022127238
7162750	0.081989152	0.022928772
7163500	0.075878248	0.018864674
7164250	0.078004856	0.020354284
7165000	0.082993776	0.019773866
7165750	0.078974024	0.016829792
7166500	0.083624688	0.017939148
7167250	0.078470376	0.014472415
7168000	0.077679624	0.014503984
7168750	0.084399056	0.015321497
7169500	0.076901336	0.010383529
7170250	0.073673344	0.010741879
7171000	0.085478008	0.012429707
7171750	0.078821976	0.008850197
7172500	0.078466368	0.009731131
7173250	0.086637952	0.009667443
7174000	0.08101764	0.005992928
7174750	0.083968832	0.007194467
7175500	0.084672584	0.004920332
7176250	0.08186972	0.004648948
7177000	0.087666792	0.004951997
7177750	0.081269552	0.000723943
7178500	0.07813256	0.002582231
7179250	0.08858352	0.001872568
7180000	0.081419072	-0.001122849
7180750	0.077695944	-0.000060892
7181500	0.089590424	-0.000822799
7182250	0.082691832	-0.004544559
7183000	0.084067704	-0.002517577
7183750	0.090166248	-0.004185022
7184500	0.084994512	-0.006994149
7185250	0.090698056	-0.005705002
7186000	0.085654336	-0.009355066
7186750	0.084507208	-0.00769722
7187500	0.09127832	-0.008737938
7188250	0.08329828	-0.011898852
7189000	0.080530608	-0.009949263
7189750	0.09215052	-0.011424866
7190500	0.084994288	-0.015479344
7191250	0.082954592	-0.012026738
7192000	0.09244484	-0.014628215
7192750	0.0857114	-0.01721322
7193500	0.090629904	-0.015411393
7194250	0.091594336	-0.018094718
7195000	0.088174504	-0.017322652
7195750	0.093241584	-0.019787674
7196500	0.084979232	-0.022570768
7197250	0.083025976	-0.020599382
7198000	0.09415888	-0.021851072
7198750	0.086927768	-0.026291926
7199500	0.084153584	-0.02279619
7200250	0.094528128	-0.025717572
7201000	0.086631864	-0.027630492
7201750	0.088470312	-0.024905124
7202500	0.09487276	-0.028440412
7203250	0.088587432	-0.031386052
7204000	0.0949426	-0.03007457
7204750	0.089782176	-0.03289719
7205500	0.084728592	-0.032818042
7206250	0.095827608	-0.033151948
7207000	0.086644408	-0.035636092
7207750	0.082389576	-0.033491862
7208500	0.096254464	-0.035893744
7209250	0.087870528	-0.037669928
7210000	0.085440496	-0.033919344
7210750	0.09622132	-0.037960484
7211500	0.089293424	-0.04120086
7212250	0.095004776	-0.040286316
7213000	0.093666296	-0.042814312
7213750	0.08978656	-0.042579872
7214500	0.096874608	-0.04303842
7215250	0.089775064	-0.045903228
7216000	0.085730864	-0.043382948
7216750	0.097999768	-0.04471836
7217500	0.090302232	-0.046249832
7218250	0.088317336	-0.041187656
7219000	0.098617	-0.0473859
7219750	0.091692808	-0.049749508
7220500	0.095979416	-0.046088756
7221250	0.09855656	-0.050369148
7222000	0.093108696	-0.051675236
7222750	0.099518728	-0.051830972
7223500	0.094495776	-0.054260468
7224250	0.091131904	-0.052315344
7225000	0.099500856	-0.054557428
7225750	0.09161824	-0.055344252
7226500	0.091564936	-0.052492128
7227250	0.100084376	-0.057057064
7228000	0.092735384	-0.058655232
7228750	0.092621768	-0.053432952
7229500	0.100071776	-0.060520316
7230250	0.092781944	-0.060780452
7231000	0.098863568	-0.060426168
7231750	0.0974818	-0.063829936
7232500	0.092716048	-0.063578032
7233250	0.099580272	-0.065371924
7234000	0.091325064	-0.065873408
7234750	0.089467784	-0.062341448
7235500	0.100106184	-0.067971896
7236250	0.092041816	-0.068528552
7237000	0.091814456	-0.062553892
7237750	0.0999582	-0.07122148
7238500	0.091909352	-0.071409112
7239250	0.095881712	-0.068492104
7240000	0.098964552	-0.074703184
7240750	0.092562888	-0.076303064
7241500	0.098601696	-0.075700144
7242250	0.09178072	-0.079714104
7243000	0.087120864	-0.078902808
7243750	0.097024456	-0.080939416
7244500	0.089154952	-0.08141388
7245250	0.085432744	-0.076325848
7246000	0.097198976	-0.08493824
7246750	0.08827756	-0.0847136
7247500	0.088018296	-0.078214344
7248250	0.09643796	-0.0882356
7249000	0.088307536	-0.088864536
7249750	0.093574312	-0.088503536
7250500	0.09178108	-0.092178192
7251250	0.086372184	-0.091681816
7252000	0.095531224	-0.093531368
7252750	0.08590056	-0.095132328
7253500	0.082186848	-0.087528416
7254250	0.094911632	-0.097477656
7255000	0.08556568	-0.096190832
7255750	0.083889696	-0.08812064
7256500	0.094832744	-0.100555688
7257250	0.085499512	-0.100519264
7258000	0.088184464	-0.095915584
7258750	0.093388472	-0.103722288
7259500	0.085893352	-0.10240512
7260250	0.09334036	-0.104880912
7261000	0.087560784	-0.10632788
7261750	0.081254096	-0.103226616
7262500	0.093030328	-0.108058896
7263250	0.083570288	-0.106486928
7264000	0.078632512	-0.099643464
7264750	0.093067072	-0.111558288
7265500	0.082293768	-0.110701688
7266250	0.081853808	-0.1027166
7267000	0.092139304	-0.114662728
7267750	0.083226808	-0.112380992
7268500	0.088611712	-0.113614072
7269250	0.088450456	-0.117692048
7270000	0.081486624	-0.11455636
7270750	0.090814272	-0.119089968
7271500	0.081457424	-0.11802996
7272250	0.076151232	-0.110489272
7273000	0.090490448	-0.122333408
7273750	0.0816354	-0.120650144
7274500	0.07904528	-0.110674776
7275250	0.089692568	-0.125176296
7276000	0.080418504	-0.1234526
7276750	0.083157024	-0.1190284
7277500	0.08865032	-0.128699096
7278250	0.08173168	-0.126672704
7279000	0.087420352	-0.12998676
7279750	0.080534656	-0.129279424
7280500	0.077248992	-0.122629936
7281250	0.085855704	-0.13392992
7282000	0.076690328	-0.13131516
7282750	0.07367636	-0.12006292
7283500	0.087168768	-0.13594184
7284250	0.077045832	-0.13348204
7285000	0.07559188	-0.123750856
7285750	0.085817608	-0.139007392
7286500	0.0767548	-0.13811712
7287250	0.082195048	-0.138058912
7288000	0.080325384	-0.141583568
7288750	0.074631016	-0.13695312
7289500	0.084275192	-0.142727408
7290250	0.074669704	-0.14255152
7291000	0.070183656	-0.131516056
7291750	0.083261	-0.146871728
7292500	0.073231976	-0.143568784
7293250	0.069931896	-0.13049176
7294000	0.082289024	-0.14974288
7294750	0.072507336	-0.148425824
7295500	0.076897504	-0.142938128
7296250	0.080118072	-0.153286928
7297000	0.072856016	-0.15002088
7297750	0.079627792	-0.154275392
7298500	0.073684816	-0.153839952
7299250	0.068864864	-0.141244272
7300000	0.079099864	-0.1577724
