# Hz S RI R 50
3500000	0.680225344	0.276902848
3501250	0.681601472	0.27972928
3502500	0.682240128	0.27572912
3503750	0.682482112	0.278070112
3505000	0.682237952	0.274708864
3506250	0.683471936	0.27672832
3507500	0.68318976	0.2725736
3508750	0.684398208	0.274697696
3510000	0.683558784	0.27111968
3511250	0.68496704	0.269947904
3512500	0.685987968	0.272622816
3513750	0.68534848	0.268115872
3515000	0.687130304	0.266431488
3516250	0.687048576	0.269748224
3517500	0.68702016	0.265652384
3518750	0.687056064	0.26361632
3520000	0.688525504	0.267598656
3521250	0.68811616	0.263478752
3522500	0.689937024	0.263744272
3523750	0.689069312	0.26324072
3525000	0.690261248	0.261484976
3526250	0.690786752	0.263636832
3527500	0.690400256	0.258705888
3528750	0.691431168	0.2584092
3530000	0.692027584	0.261212384
3531250	0.691744192	0.25621376
3532500	0.691642688	0.254525216
3533750	0.69326432	0.258578928
3535000	0.692861568	0.254157184
3536250	0.693527808	0.253350832
3537500	0.694533888	0.255341984
3538750	0.69455296	0.25222584
3540000	0.695783552	0.253772496
3541250	0.694911488	0.250087376
3542500	0.695902976	0.249725488
3543750	0.696581248	0.251575792
3545000	0.696332864	0.247095168
3546250	0.695779712	0.245585312
3547500	0.698088896	0.249488096
3548750	0.697742848	0.244669168
3550000	0.698947392	0.242442512
3551250	0.69915392	0.2467144
3552500	0.699066304	0.242442288
3553750	0.699744256	0.243507904
3555000	0.699692864	0.241937616
3556250	0.700347712	0.240544368
3557500	0.701192768	0.242710032
3558750	0.701118016	0.23814584
3560000	0.701486976	0.237171504
3561250	0.702559424	0.240028896
3562500	0.70198048	0.23526568
3563750	0.703939776	0.23319976
3565000	0.703559168	0.23750232
3566250	0.703539392	0.23278912
3567500	0.70377728	0.231756208
3568750	0.704546752	0.234047008
3570000	0.704824896	0.231073728
3571250	0.706097216	0.23328768
3572500	0.704856768	0.228852912
3573750	0.705401856	0.227899536
3575000	0.706979392	0.23082
3576250	0.706436992	0.22531496
3577500	0.707560512	0.224223808
3578750	0.708064576	0.228121184
3580000	0.707676672	0.223398496
3581250	0.708238336	0.22173424
3582500	0.709262656	0.225546336
3583750	0.70878528	0.221028784
3585000	0.709728512	0.221938624
3586250	0.709714496	0.220854576
3587500	0.710809856	0.219402512
3588750	0.711537728	0.221072576
3590000	0.710624064	0.216156592
3591250	0.712146112	0.215608368
3592500	0.712675072	0.21874848
3593750	0.71197984	0.21358912
3595000	0.711580672	0.21214184
3596250	0.713619776	0.215858304
3597500	0.713008448	0.211072928
3598750	0.714138752	0.209946864
3600000	0.714402048	0.212315296
3601250	0.713943424	0.20878104
3602500	0.715511872	0.211375184
3603750	0.714492352	0.206911024
3605000	0.715614976	0.206087024
3606250	0.716413696	0.208940592
3607500	0.715741376	0.203798064
3608750	0.714926848	0.201985552
3610000	0.717619776	0.206526048
3611250	0.71679264	0.201462416
3612500	0.717249984	0.198907696
3613750	0.718666624	0.203759472
3615000	0.717852672	0.198901536
3616250	0.718668992	0.199593984
3617500	0.718455104	0.1987092
3618750	0.719700608	0.196995456
3620000	0.720449024	0.19949088
3621250	0.719401984	0.194421936
3622500	0.719849344	0.19347176
3623750	0.721424	0.196592672
3625000	0.720481664	0.191556976
3626250	0.721178496	0.188776352
3627500	0.722503104	0.194070352
3628750	0.721580224	0.18907184
3630000	0.722132352	0.188609104
3631250	0.723051072	0.190144368
3632500	0.722815808	0.186646464
3633750	0.723883904	0.189257904
3635000	0.722924672	0.184657088
3636250	0.723663232	0.184426032
3637500	0.725464384	0.187130352
3638750	0.724109248	0.181652016
3640000	0.725363008	0.178679696
3641250	0.725913792	0.18443528
3642500	0.72498816	0.17892704
3643750	0.725759168	0.176823584
3645000	0.727109248	0.181563168
3646250	0.726213824	0.176348096
3647500	0.727568128	0.177510128
3648750	0.726815424	0.176412
3650000	0.727503808	0.174764256
3651250	0.728507712	0.176997376
3652500	0.727286848	0.171656416
3653750	0.727996672	0.170210288
3655000	0.729361472	0.174460272
3656250	0.728151232	0.168739504
3657500	0.729033984	0.167303664
3658750	0.73034048	0.171684928
3660000	0.729188864	0.166328
3661250	0.730350208	0.165279312
3662500	0.730769088	0.167908704
3663750	0.73023616	0.164232192
3665000	0.732282752	0.167123072
3666250	0.730418304	0.162052624
3667500	0.731825408	0.161114816
3668750	0.733051392	0.164728768
3670000	0.73141888	0.158923056
3671250	0.731678144	0.157215152
3672500	0.73379744	0.161819104
3673750	0.732274496	0.156381968
3675000	0.733288576	0.153756912
3676250	0.734567168	0.159040832
3677500	0.733301824	0.153763808
3678750	0.734828736	0.1552856
3680000	0.734029376	0.153360736
3681250	0.73466112	0.151698304
3682500	0.73621568	0.154663904
3683750	0.734369408	0.149224096
3685000	0.735077888	0.147878464
3686250	0.737019136	0.15191824
3687500	0.735192768	0.146104912
3688750	0.735443008	0.142274128
3690000	0.738073728	0.149044832
3691250	0.73616192	0.143433104
3692500	0.736952448	0.142782944
3693750	0.73785088	0.144856064
3695000	0.737593856	0.141266384
3696250	0.739305984	0.144227776
3697500	0.737528768	0.139146608
3698750	0.738820224	0.139713168
3700000	0.740193984	0.141158
3701250	0.738080384	0.135939472
3702500	0.738127104	0.132458312
3703750	0.740921152	0.138838656
3705000	0.738979584	0.133213952
3706250	0.7392576	0.13061184
3707500	0.741543424	0.13625376
3708750	0.739709504	0.130938008
3710000	0.74156544	0.131290632
3711250	0.740835456	0.13046388
3712500	0.7413984	0.129136816
3713750	0.743041216	0.131565872
3715000	0.740801152	0.125743944
3716250	0.74113568	0.123745288
3717500	0.743755136	0.128937976
3718750	0.741442624	0.122702368
3720000	0.740579392	0.120563048
3721250	0.744556032	0.12604396
3722500	0.74230656	0.120203352
3723750	0.7433888	0.119159096
3725000	0.744366336	0.121675728
3726250	0.743446016	0.118263008
3727500	0.745645248	0.120900624
3728750	0.743114752	0.115839256
3730000	0.7443616	0.11493444
3731250	0.74631744	0.118492864
3732500	0.743715968	0.112409832
3733750	0.743532032	0.110598648
3735000	0.747119424	0.115730656
3736250	0.744551872	0.109678712
3737500	0.74374592	0.106880656
3738750	0.747752064	0.112805736
3740000	0.745472384	0.107370944
3741250	0.746963712	0.108833992
3742500	0.746410048	0.106845808
3743750	0.746985984	0.105153784
3745000	0.74907264	0.108199744
3746250	0.746498496	0.102519328
3747500	0.74650464	0.10092228
3748750	0.749780864	0.105125232
3750000	0.746540864	0.099536928
3751250	0.745984512	0.095728784
3752500	0.750335488	0.102449376
3753750	0.747291328	0.096605288
3755000	0.747168896	0.095703728
3756250	0.74981504	0.09805412
3757500	0.748952512	0.094390128
3758750	0.751129344	0.097533024
3760000	0.748152384	0.092129032
3761250	0.749737216	0.0918474
3762500	0.751981824	0.094726736
3763750	0.748551936	0.089106496
3765000	0.748123264	0.086186152
3766250	0.752577216	0.092197992
3767500	0.749163648	0.086470376
3768750	0.748450816	0.08395784
3770000	0.752910528	0.089205024
3771250	0.750065664	0.0838246
3772500	0.752121024	0.08480888
3773750	0.750919808	0.083660512
3775000	0.751806144	0.08178548
3776250	0.754346624	0.084500008
3777500	0.750252544	0.078398
3778750	0.750077952	0.076623104
3780000	0.754605376	0.081982808
3781250	0.75119328	0.075769184
3782500	0.749501184	0.073181304
3783750	0.75510496	0.078524016
3785000	0.751750272	0.073056072
3786250	0.751597248	0.071687952
3787500	0.75431744	0.074302848
3788750	0.752984192	0.071099792
3790000	0.756049728	0.073627376
3791250	0.751763264	0.06823668
3792500	0.753143296	0.067384088
3793750	0.756749824	0.07120064
3795000	0.752560512	0.065373304
3796250	0.752161344	0.062411476
3797500	0.757113344	0.06840608
3798750	0.753124032	0.06233358
3800000	0.750902784	0.059477296
3801250	0.757296576	0.065144068
3802500	0.754084224	0.06022864
3803750	0.7563344	0.06110318
3805000	0.754825536	0.059456324
3806250	0.755525568	0.057722284
3807500	0.758467392	0.060438236
3808750	0.754512448	0.054652072
3810000	0.754052032	0.0527549
3811250	0.7589632	0.057840516
3812500	0.754739072	0.052012148
3813750	0.750437184	0.048952436
3815000	0.759388608	0.054856536
3816250	0.755417088	0.049630448
3817500	0.755262272	0.04789712
3818750	0.757803776	0.05038474
3820000	0.755786176	0.047033368
3821250	0.76023168	0.049817424
3822500	0.755362688	0.044972504
3823750	0.757073152	0.043670728
3825000	0.760555648	0.04729194
3826250	0.756035776	0.04202906
3827500	0.7545072	0.038159068
3828750	0.760811072	0.044235424
3830000	0.756098944	0.03903002
3831250	0.75354528	0.038455356
3832500	0.761131328	0.041117356
3833750	0.756826944	0.035883584
3835000	0.759622848	0.03751126
3836250	0.75816992	0.035481328
3837500	0.759038848	0.033714912
3838750	0.762061376	0.036518788
3840000	0.756900032	0.030740404
3841250	0.75576256	0.029545258
3842500	0.762303168	0.03350461
3843750	0.757530368	0.02854168
3845000	0.756078464	0.027449782
3846250	0.762652416	0.03056018
3847500	0.757900544	0.025566288
3848750	0.758491392	0.024113486
3850000	0.761149632	0.026240816
3851250	0.759358912	0.02286458
3852500	0.763137728	0.025644424
3853750	0.757938048	0.021064258
3855000	0.758780032	0.020025808
3856250	0.763793088	0.022678372
3857500	0.758343744	0.017765886
3858750	0.757708928	0.016133467
3860000	0.763742656	0.019961502
3861250	0.758533888	0.0150884
3862500	0.756139648	0.012298395
3863750	0.763954176	0.016805262
3865000	0.759639232	0.012249016
3866250	0.762745216	0.014236996
3867500	0.760219776	0.011380092
3868750	0.760617088	0.00996106
3870000	0.764645248	0.012041208
3871250	0.758374528	0.0076051
3872500	0.758779904	0.006131374
3873750	0.76495648	0.009192499
3875000	0.759102912	0.004255366
3876250	0.756591232	0.002181012
3877500	0.765164032	0.006200094
3878750	0.759453376	0.001951243
3880000	0.760025216	0.00173027
3881250	0.762900992	0.001935449
3882500	0.760765248	-0.000920655
3883750	0.765690752	0.000757413
3885000	0.759715136	-0.002742591
3886250	0.761376768	-0.003612155
3887500	0.765916992	-0.001683129
3888750	0.760055744	-0.006075947
3890000	0.758181376	-0.006928069
3891250	0.765935808	-0.00472564
3892500	0.760032	-0.008485925
3893750	0.757947008	-0.010583128
3895000	0.765719104	-0.00784905
3896250	0.760599104	-0.011755495
3897500	0.763812096	-0.010869809
3898750	0.761527296	-0.012324643
3900000	0.761960576	-0.014574308
3901250	0.766304448	-0.012279373
3902500	0.759737344	-0.016327067
3903750	0.758545088	-0.018227174
3905000	0.766491072	-0.015540925
3906250	0.760084288	-0.019270506
3907500	0.757563648	-0.020803356
3908750	0.766630592	-0.018268158
3910000	0.761067712	-0.022268264
3911250	0.76100192	-0.022370182
3912500	0.764197952	-0.022037772
3913750	0.761824064	-0.025212244
3915000	0.766745984	-0.023590306
3916250	0.760281024	-0.02657105
3917500	0.761532864	-0.027707426
3918750	0.76719008	-0.026270322
3920000	0.76021024	-0.030314326
3921250	0.758382016	-0.02988252
3922500	0.766941376	-0.028998392
3923750	0.76072192	-0.032840536
3925000	0.758383296	-0.033027866
3926250	0.76697216	-0.032329162
3927500	0.766692224	-0.031689392
3928750	0.760257728	-0.03573362
3930000	0.759877824	-0.036243276
3931250	0.76554944	-0.03518848
3932500	0.761152704	-0.038287384
3933750	0.765568832	-0.037482564
3935000	0.760888	-0.039388528
3936250	0.761366336	-0.04112528
3937500	0.766811712	-0.039693556
3938750	0.759936384	-0.042606904
3940000	0.758700928	-0.043506
3941250	0.766761984	-0.042664744
3942500	0.760331264	-0.045945116
3943750	0.756415424	-0.046362096
3945000	0.766875136	-0.045490932
3946250	0.760177088	-0.052962544
3947500	0.758189312	-0.053861204
3948750	0.766946816	-0.052984372
3950000	0.760670336	-0.05629958
3951250	0.761434752	-0.055920268
3952500	0.762864128	-0.05660688
3953750	0.761236608	-0.059023004
3955000	0.7665632	-0.058427292
3956250	0.75933536	-0.06047108
3957500	0.759641664	-0.062362616
3958750	0.766403968	-0.061307424
3960000	0.759379136	-0.06391138
3961250	0.75767456	-0.063219428
3962500	0.766724928	-0.064386108
3963750	0.759568192	-0.06676858
3965000	0.7580336	-0.06675534
3966250	0.764778176	-0.067567048
3967500	0.75991808	-0.0701326
3968750	0.764636544	-0.069743424
3970000	0.760043712	-0.071339056
3971250	0.760896448	-0.073230072
3972500	0.766662144	-0.062076088
3973750	0.759901568	-0.06473326
3975000	0.7619904	-0.064592564
3976250	0.762210944	-0.065457912
3977500	0.76094272	-0.067265064
3978750	0.766186304	-0.067254256
3980000	0.759635584	-0.068342456
3981250	0.760360192	-0.070930232
3982500	0.766208512	-0.068283232
3983750	0.759545024	-0.072084672
3985000	0.756264256	-0.070583088
3986250	0.766180736	-0.072947976
3987500	0.759449472	-0.07477816
3988750	0.764884608	-0.077692024
3990000	0.75831264	-0.079490472
3991250	0.759007488	-0.08020716
3992500	0.76477472	-0.08040716
3993750	0.757607488	-0.08200856
3995000	0.755182528	-0.081354272
3996250	0.764699712	-0.083765144
3997500	0.757764288	-0.085326408
3998750	0.756240256	-0.084834584
4000000	0.763492928	-0.086634496
