# Hz S RI R 50
28000000	-0.364286656	0.343970816
28004250	-0.365898624	0.34159968
28008500	-0.36062096	0.348416672
28012750	-0.363674016	0.343239136
28017000	-0.3623144	0.345636608
28021250	-0.359164	0.350050912
28025500	-0.359700128	0.347367328
28029750	-0.358022816	0.351563072
28034000	-0.356923232	0.352692736
28038250	-0.355219424	0.353338144
28042500	-0.350926464	0.35881824
28046750	-0.352916096	0.356031008
28051000	-0.35095232	0.358334528
28055250	-0.34540528	0.365011968
28059500	-0.34871904	0.360329536
28063750	-0.346996864	0.362566624
28068000	-0.34231408	0.368614496
28072250	-0.344464736	0.364071936
28076500	-0.342789568	0.36742736
28080750	-0.340762272	0.369475872
28085000	-0.34007664	0.368008576
28089250	-0.337234848	0.37229072
28093500	-0.337360288	0.371355648
28097750	-0.335281792	0.373129984
28102000	-0.32948208	0.379101376
28106250	-0.332979136	0.375615712
28110500	-0.331004544	0.377565056
28114750	-0.325185952	0.383859232
28119000	-0.328649824	0.378920992
28123250	-0.326724448	0.38168752
28127500	-0.322948672	0.386031136
28131750	-0.32412736	0.38298688
28136000	-0.322229216	0.386313824
28140250	-0.32097536	0.38689296
28144500	-0.319182368	0.387256224
28148750	-0.31477808	0.391646784
28153000	-0.316655552	0.38966944
28157250	-0.314571968	0.391308128
28161500	-0.308273952	0.3970776
28165750	-0.312147872	0.392362432
28170000	-0.310191328	0.394683424
28174250	-0.304686592	0.399991872
28178500	-0.307471104	0.396176928
28182750	-0.305259712	0.399045088
28187000	-0.303014176	0.401079232
28191250	-0.30242112	0.399938272
28195500	-0.298984224	0.404158528
28199750	-0.299275712	0.403336192
28204000	-0.297242656	0.404545056
28208250	-0.29085456	0.409591104
28212500	-0.294567712	0.406075584
28216750	-0.292451904	0.408073664
28221000	-0.285872576	0.413643232
28225250	-0.289670592	0.40905824
28229500	-0.287882176	0.410603168
28233750	-0.28385888	0.414351808
28238000	-0.285281024	0.411447872
28242250	-0.283024128	0.414909024
28246500	-0.281649024	0.415583264
28250750	-0.279956032	0.415901248
28255000	-0.274682304	0.420234976
28259250	-0.277883072	0.417791808
28263500	-0.27483648	0.41983024
28267750	-0.267884496	0.425039552
28272000	-0.27188464	0.421369024
28276250	-0.269757952	0.42316128
28280500	-0.26376704	0.428171808
28284750	-0.267035664	0.424024032
28289000	-0.264674304	0.426971648
28293250	-0.261883312	0.428904096
28297500	-0.261599248	0.427501056
28301750	-0.25818488	0.430526496
28306000	-0.25865456	0.42900672
28310250	-0.256634896	0.430005984
28314500	-0.249852848	0.434429952
28318750	-0.253441728	0.431997216
28323000	-0.251338992	0.433517184
28327250	-0.24434808	0.438595424
28331500	-0.248735104	0.434044096
28335750	-0.246605216	0.436146368
28340000	-0.241897968	0.439620896
28344250	-0.243378656	0.43756016
28348500	-0.240750368	0.440728096
28352750	-0.239353312	0.440920064
28357000	-0.237961984	0.441169792
28361250	-0.232376416	0.444935488
28365500	-0.234665568	0.44354752
28369750	-0.232616256	0.444719808
28374000	-0.225450304	0.448655584
28378250	-0.230497136	0.445084704
28382500	-0.228192016	0.44689632
28386750	-0.221700864	0.451171264
28391000	-0.22043264	0.439640192
28395250	-0.216428992	0.443135872
28399500	-0.217358064	0.442473696
28403750	-0.215499184	0.44401888
28408000	-0.208623936	0.447768288
28412250	-0.21243616	0.445981408
28416500	-0.210356192	0.447729472
28420750	-0.203103648	0.452324544
28425000	-0.20753536	0.448895136
28429250	-0.205320624	0.451253344
28433500	-0.200905072	0.454155328
28437750	-0.202630896	0.452049856
28442000	-0.199987264	0.454837728
28446250	-0.199038704	0.454405312
28450500	-0.19766488	0.454683392
28454750	-0.191534944	0.457825472
28459000	-0.19397872	0.456505568
28463250	-0.19202152	0.45782432
28467500	-0.184682528	0.461518464
28471750	-0.189187488	0.458298336
28476000	-0.186449808	0.45989344
28480250	-0.179797376	0.463177856
28484500	-0.182853344	0.460100096
28488750	-0.180102208	0.462535328
28493000	-0.177395152	0.463420896
28497250	-0.177060224	0.462216512
28501500	-0.172988128	0.464997504
28505750	-0.1730276	0.464339264
28510000	-0.170590368	0.465287968
28514250	-0.162670032	0.468299584
28518500	-0.16720112	0.466039712
28522750	-0.164795888	0.467603744
28527000	-0.157302416	0.470964
28531250	-0.162525584	0.467802912
28535500	-0.160089088	0.469700928
28539750	-0.155134832	0.471939072
28544000	-0.157291152	0.469695584
28548250	-0.154081232	0.47259328
28552500	-0.15252272	0.472579776
28556750	-0.1509488	0.47299552
28561000	-0.145181008	0.47571936
28565250	-0.147477936	0.473863904
28569500	-0.144777744	0.4754184
28573750	-0.136961488	0.47843424
28578000	-0.141715728	0.476144736
28582250	-0.139579712	0.478008672
28586500	-0.132680936	0.480966912
28590750	-0.136617344	0.478316512
28595000	-0.133726296	0.48101728
28599250	-0.13098624	0.48199488
28603500	-0.130923136	0.481327552
28607750	-0.12605204	0.48356352
28612000	-0.12702608	0.482734336
28616250	-0.125710368	0.483863936
28620500	-0.117887848	0.48582416
28624750	-0.122323064	0.484204288
28629000	-0.119900672	0.485613056
28633250	-0.112140536	0.488419808
28637500	-0.116633576	0.485351872
28641750	-0.113997896	0.487317696
28646000	-0.108557728	0.488931744
28650250	-0.110607064	0.486955168
28654500	-0.10702864	0.48937008
28658750	-0.105640536	0.488926784
28663000	-0.104499784	0.48919408
28667250	-0.09798364	0.491207584
28671500	-0.100787704	0.490548128
28675750	-0.0982582	0.491966176
28680000	-0.089988632	0.494002784
28684250	-0.095462744	0.492078272
28688500	-0.093235328	0.493856928
28692750	-0.086038192	0.495902912
28697000	-0.090363672	0.493778112
28701250	-0.087255912	0.496109952
28705500	-0.084354592	0.49629904
28709750	-0.084690104	0.49537936
28714000	-0.079914848	0.497676288
28718250	-0.080185504	0.497087552
28722500	-0.077977736	0.497846016
28726750	-0.070099704	0.499054912
28731000	-0.07479096	0.497574688
28735250	-0.071925592	0.499064416
28739500	-0.063431232	0.500587776
28743750	-0.06833056	0.498166528
28748000	-0.065134668	0.499668928
28752250	-0.059258264	0.50037056
28756500	-0.062033668	0.49821328
28760750	-0.058390768	0.500419424
28765000	-0.056719688	0.49955968
28769250	-0.055059372	0.499431456
28773500	-0.048211364	0.500219104
28777750	-0.051123596	0.499222848
28782000	-0.0483218	0.500374496
28786250	-0.039672852	0.501275296
28790500	-0.045275204	0.499802336
28794750	-0.042440016	0.501205984
28799000	-0.034658656	0.502628256
28803250	-0.039525672	0.500305728
28807500	-0.035966552	0.502432928
28811750	-0.032558524	0.502628576
28816000	-0.032462098	0.50163264
28820250	-0.027285992	0.503041504
28824500	-0.028126842	0.502096544
28828750	-0.025558536	0.502904544
28833000	-0.0170036	0.503005568
28837250	-0.02192638	0.502395744
28841500	-0.019195636	0.503706752
28845750	-0.010446143	0.504499328
28850000	-0.016742407	0.502422816
28854250	-0.013495856	0.50411792
28858500	-0.00748726	0.504645216
28862750	-0.010754133	0.503340064
28867000	-0.006720741	0.505435168
28871250	-0.005503578	0.504638688
28875500	-0.004077988	0.504654464
28879750	0.002697607	0.50533408
28884000	-0.000083404	0.504886752
28888250	0.003141458	0.505869696
28892500	0.011904418	0.505850624
28896750	0.005598684	0.504769504
28901000	0.009156413	0.506192928
28905250	0.017593202	0.506732096
28909500	0.012235711	0.504950944
28913750	0.0162491	0.506796064
28918000	0.019361064	0.506490656
28922250	0.018302796	0.505552416
28926500	0.023203568	0.50691664
28930750	0.02260992	0.506255264
28935000	0.025129784	0.50695216
28939250	0.033314794	0.506235072
28943500	0.02792879	0.505895328
28947750	0.03139377	0.507181888
28952000	0.040347764	0.507156864
28956250	0.033958904	0.506006592
28960500	0.03765662	0.507299968
28964750	0.043754876	0.50689136
28969000	0.04018196	0.50525968
28973250	0.045017008	0.507062848
28977500	0.046461328	0.505930432
28981750	0.048159748	0.505834176
28986000	0.055048896	0.505047616
28990250	0.051690616	0.504945152
28994500	0.05499326	0.505861696
28998750	0.063958056	0.504618656
29003000	0.056952552	0.504696832
29007250	0.060396012	0.505880608
29011500	0.06878828	0.505163744
29015750	0.062518604	0.504045856
29020000	0.067068264	0.505465792
29024250	0.070710904	0.50452608
29028500	0.069568576	0.503839008
29032750	0.074938712	0.504430048
29037000	0.073930768	0.503692576
29041250	0.076948568	0.503798432
29045500	0.085144136	0.502015936
29049750	0.079979032	0.502223424
29054000	0.083830784	0.50284976
29058250	0.093200032	0.501457696
29062500	0.086136264	0.5005688
29066750	0.090337808	0.50173472
29071000	0.096837208	0.500738144
29075250	0.092574616	0.499811296
29079500	0.097464728	0.500912896
29083750	0.098142552	0.499584608
29088000	0.099163776	0.49926384
29092250	0.106034248	0.498242848
29096500	0.102967656	0.49844576
29100750	0.106481584	0.498764928
29105000	0.115599112	0.49624064
29109250	0.108488624	0.496809696
29113500	0.11246712	0.49763344
29117750	0.121209208	0.49600592
29122000	0.1144192	0.495722528
29126250	0.119120568	0.496471712
29130500	0.122484488	0.49524336
29134750	0.120767544	0.4945848
29139000	0.126792624	0.494725856
29143250	0.125829336	0.493854976
29147500	0.129000648	0.494078432
29151750	0.136963472	0.491057504
29156000	0.130871312	0.492333184
29160250	0.135052048	0.493019008
29164500	0.144177776	0.490888096
29168750	0.136261552	0.491751584
29173000	0.140469312	0.492466048
29177250	0.14661272	0.490648576
29181500	0.141824016	0.49003872
29185750	0.147138688	0.490969728
29190000	0.148003024	0.489813056
29194250	0.149363296	0.48946496
29198500	0.156043792	0.487192256
29202750	0.152520112	0.487839104
29207000	0.156736784	0.487711296
29211250	0.165867088	0.48403488
29215500	0.158657744	0.4856584
29219750	0.16281408	0.486021024
29224000	0.171692048	0.483212
29228250	0.163928528	0.483798144
29232500	0.169035408	0.484385344
29236750	0.172155728	0.483223168
29241000	0.17053616	0.482868896
29245250	0.176016672	0.482268832
29249500	0.174731024	0.481371424
29253750	0.177889808	0.481086656
29258000	0.185845808	0.4774864
29262250	0.180260368	0.479231744
29266500	0.184342928	0.47920912
29270750	0.193586	0.475597984
29275000	0.185334576	0.476924064
29279250	0.190300992	0.477115264
29283500	0.196869088	0.474307616
29287750	0.191459456	0.474653536
29292000	0.197176496	0.474319264
29296250	0.19756256	0.472844736
29300500	0.198859232	0.472091552
29304750	0.20565456	0.46906576
29309000	0.20251632	0.4703176
29313250	0.20620512	0.470155968
29317500	0.214782768	0.465472576
29321750	0.207106784	0.46823904
29326000	0.211842112	0.46810944
29330250	0.220726656	0.46415456
29334500	0.213058944	0.465756736
29338750	0.218140368	0.465506272
29343000	0.221362432	0.463417632
29347250	0.218884768	0.46322544
29351500	0.225183968	0.462367936
29355750	0.224152336	0.461511488
29360000	0.227367536	0.460459552
29364250	0.234815776	0.455148064
29368500	0.228803712	0.45803184
29372750	0.233707872	0.457418304
29377000	0.242757056	0.45280368
29381250	0.234542176	0.455326464
29385500	0.239330032	0.454804768
29389750	0.245555984	0.451498208
29394000	0.239510304	0.453074272
29398250	0.245513088	0.452548928
29402500	0.246029824	0.451175584
29406750	0.247458256	0.450488
29411000	0.25336712	0.446401792
29415250	0.25030088	0.448442848
29419500	0.254661584	0.447402048
29423750	0.26248336	0.440818272
29428000	0.255122656	0.445063584
29432250	0.26004648	0.444338848
29436500	0.268512288	0.438872032
29440750	0.260346624	0.441869152
29445000	0.265846848	0.44094064
29449250	0.269418848	0.438174912
29453500	0.266901344	0.438357216
29457750	0.272715712	0.43628784
29462000	0.270951008	0.435692512
29466250	0.274179008	0.434619264
29470500	0.281195264	0.428887168
29474750	0.275970144	0.432714752
29479000	0.280627296	0.43162544
29483250	0.289118432	0.425285056
29487500	0.28050144	0.429417152
29491750	0.285891424	0.428120064
29496000	0.292363456	0.423471552
29500250	0.28637392	0.425948608
29504500	0.292074208	0.424371296
29508750	0.292011968	0.42300464
29513000	0.292828192	0.421940672
29517250	0.299282432	0.417184032
29521500	0.296082272	0.419346496
29525750	0.30018032	0.417596832
29530000	0.30763088	0.409527104
29534250	0.300331072	0.415355008
29538500	0.305382592	0.413667552
29542750	0.31390688	0.406930112
29547000	0.305550976	0.411341952
29551250	0.310833408	0.409749312
29555500	0.314159456	0.406545952
29559750	0.310824672	0.408236608
29564000	0.317068032	0.405965792
29568250	0.315841472	0.405142048
29572500	0.318742272	0.4035448
29576750	0.32461984	0.396600032
29581000	0.319444512	0.401363936
29585250	0.324313952	0.399698912
29589500	0.332138688	0.392211936
29593750	0.324092672	0.397689056
29598000	0.328962752	0.395632576
29602250	0.334856096	0.389952928
29606500	0.328334944	0.393590048
29610750	0.334395776	0.39144832
29615000	0.334570816	0.3901248
29619250	0.335342016	0.38944064
29623500	0.340424096	0.384089632
29627750	0.33732704	0.386915808
29632000	0.341661152	0.384805632
29636250	0.34794	0.376067648
29640500	0.341700608	0.383118976
29644750	0.346412736	0.38121536
29649000	0.354133152	0.373327168
29653250	0.345862304	0.379678048
29657500	0.351479328	0.377301632
29661750	0.35455376	0.373316384
29666000	0.351547808	0.375120992
29670250	0.35709696	0.372075392
29674500	0.355300992	0.372042432
29678750	0.35797104	0.370108416
29683000	0.363262656	0.361948928
29687250	0.35906864	0.367575072
29691500	0.36344096	0.36502304
29695750	0.370752928	0.356190912
29700000	0.362715424	0.36330752
