# Hz S RI R 50
24890000	0.200304896	-0.30392944
24890250	0.198575712	-0.30979168
24890500	0.20033552	-0.304401056
24890750	0.196013792	-0.307718752
24891000	0.198463136	-0.310471232
24891250	0.199268736	-0.303587232
24891500	0.196386976	-0.307866656
24891750	0.198977952	-0.309315776
24892000	0.199015984	-0.304038112
24892250	0.195986016	-0.308197216
24892500	0.199784032	-0.305563264
24892750	0.197388176	-0.305890048
24893000	0.196832992	-0.308739616
24893250	0.199721872	-0.304805728
24893500	0.195253168	-0.309118912
24893750	0.1979708	-0.311699616
24894000	0.199214544	-0.304616288
24894250	0.196206944	-0.30903488
24894500	0.19842424	-0.311531968
24894750	0.198977296	-0.305423424
24895000	0.195956208	-0.309406944
24895250	0.199088176	-0.3090664
24895500	0.198551952	-0.305844256
24895750	0.19628776	-0.308740704
24896000	0.19945312	-0.306047296
24896250	0.195305216	-0.308604544
24896500	0.196067472	-0.310366976
24896750	0.198203792	-0.304967008
24897000	0.194283088	-0.308996096
24897250	0.196709872	-0.311562464
24897500	0.197836208	-0.305042144
24897750	0.194670096	-0.309275168
24898000	0.197885728	-0.311531072
24898250	0.198033056	-0.306119904
24898500	0.195373184	-0.310183776
24898750	0.198699616	-0.30798128
24899000	0.196109024	-0.308368256
24899250	0.195586752	-0.310861888
24899500	0.198036256	-0.306855744
24899750	0.194077696	-0.31035408
24900000	0.196227744	-0.312603072
24900250	0.197687616	-0.30599952
24900500	0.193749168	-0.309682016
24900750	0.196290784	-0.312547392
24901000	0.197265104	-0.305996512
24901250	0.194546752	-0.310688032
24901500	0.197502352	-0.310053824
24901750	0.1966028	-0.307085088
24902000	0.194287264	-0.310747552
24902250	0.197405072	-0.307762048
24902500	0.194520528	-0.310028096
24902750	0.19454248	-0.312358656
24903000	0.196836288	-0.307365504
24903250	0.192732928	-0.311127904
24903500	0.195693952	-0.313859904
24903750	0.19639728	-0.307203104
24904000	0.193095008	-0.311251264
24904250	0.195813232	-0.312932448
24904500	0.196034176	-0.307495008
24904750	0.19315224	-0.311546016
24905000	0.196847712	-0.309536928
24905250	0.195107824	-0.308892832
24905500	0.193993344	-0.31195104
24905750	0.196658688	-0.30813776
24906000	0.191999456	-0.310984832
24906250	0.194318112	-0.313346624
24906500	0.19606376	-0.307384224
24906750	0.192803712	-0.311826208
24907000	0.194948544	-0.314473152
24907250	0.195587168	-0.3081336
24907500	0.19259912	-0.312170816
24907750	0.195733216	-0.312211712
24908000	0.195292304	-0.308487584
24908250	0.192981824	-0.31219584
24908500	0.195971792	-0.309342336
24908750	0.192428992	-0.311710176
24909000	0.193208384	-0.313635424
24909250	0.195335136	-0.308789888
24909500	0.191570528	-0.312496
24909750	0.194017856	-0.3148952
24910000	0.194993472	-0.30869008
24910250	0.191726944	-0.312737888
24910500	0.194601328	-0.3145344
24910750	0.194690032	-0.308902368
24911000	0.191894784	-0.31293712
24911250	0.19525464	-0.311099392
24911500	0.193021648	-0.311051616
24911750	0.192087152	-0.313463264
24912000	0.194805472	-0.309645888
24912250	0.190969296	-0.312930464
24912500	0.192900912	-0.315298016
24912750	0.194219696	-0.309287488
24913000	0.190566384	-0.313016096
24913250	0.193051152	-0.31581968
24913500	0.194041232	-0.30933888
24913750	0.19129144	-0.313288192
24914000	0.194330032	-0.313396512
24914250	0.19355176	-0.309278176
24914500	0.190547072	-0.312510784
24914750	0.194376048	-0.309789056
24915000	0.191204224	-0.311414368
24915250	0.191407328	-0.313824064
24915500	0.193781584	-0.309172448
24915750	0.189497568	-0.312897728
24916000	0.192359072	-0.316308416
24916250	0.193146752	-0.309865056
24916500	0.190228432	-0.313735968
24916750	0.192874288	-0.315891424
24917000	0.193109504	-0.310214592
24917250	0.189873136	-0.314081696
24917500	0.193401168	-0.31250368
24917750	0.191953104	-0.31157856
24918000	0.19050448	-0.314396192
24918250	0.193407072	-0.310951872
24918500	0.188906272	-0.31416528
24918750	0.191240256	-0.31633728
24919000	0.19298272	-0.310144096
24919250	0.189101664	-0.313431136
24919500	0.191231728	-0.316193056
24919750	0.192235344	-0.30973264
24920000	0.188844272	-0.313712672
24920250	0.191838928	-0.3140384
24920500	0.191747584	-0.30991648
24920750	0.189095376	-0.313938592
24921000	0.192453392	-0.310960448
24921250	0.188806864	-0.313059968
24921500	0.190009536	-0.31604608
24921750	0.192250096	-0.3113464
24922000	0.188413792	-0.314719936
24922250	0.190486224	-0.316713216
24922500	0.192148496	-0.310952576
24922750	0.18824952	-0.314227552
24923000	0.191125312	-0.316693888
24923250	0.191255104	-0.311292992
24923500	0.187787632	-0.315258944
24923750	0.19163712	-0.313082656
24924000	0.18956032	-0.312194272
24924250	0.188230224	-0.314713504
24924500	0.191319008	-0.311178912
24924750	0.18742728	-0.314235328
24925000	0.189126544	-0.31655936
24925250	0.191276304	-0.311989088
24925500	0.187699728	-0.315413664
24925750	0.19016344	-0.31819088
24926000	0.191064448	-0.311808128
24926250	0.188046112	-0.315653216
24926500	0.190872976	-0.316270048
24926750	0.19069576	-0.312451552
24927000	0.18764336	-0.315752416
24927250	0.191231792	-0.313110304
24927500	0.188451072	-0.313757536
24927750	0.18817296	-0.31623616
24928000	0.190934624	-0.31205552
24928250	0.186485856	-0.316083328
24928500	0.188299984	-0.318902336
24928750	0.190363568	-0.311787776
24929000	0.186657584	-0.315382944
24929250	0.18886112	-0.317868736
24929500	0.189636864	-0.311714912
24929750	0.1860548	-0.315603808
24930000	0.189916976	-0.314565344
24930250	0.18897032	-0.312842432
24930500	0.18722456	-0.316729952
24930750	0.190094992	-0.313584704
24931000	0.185731888	-0.316519584
24931250	0.187857232	-0.318686656
24931500	0.1897084	-0.313057696
24931750	0.18615128	-0.316671008
24932000	0.188359328	-0.31940944
24932250	0.189394208	-0.313251744
24932500	0.186097376	-0.316850272
24932750	0.18884112	-0.317060992
24933000	0.188930032	-0.31246912
24933250	0.185798992	-0.316148128
24933500	0.189473936	-0.313692704
24933750	0.186138736	-0.315311328
24934000	0.18661088	-0.317783776
24934250	0.1890224	-0.313924256
24934500	0.184918112	-0.317211296
24934750	0.187254624	-0.319813824
24935000	0.188772496	-0.313735232
24935250	0.185178464	-0.317508384
24935500	0.187752928	-0.319966752
24935750	0.188473504	-0.31389584
24936000	0.185117264	-0.317843424
24936250	0.188646624	-0.316675616
24936500	0.187061072	-0.315441952
24936750	0.185499856	-0.317824544
24937000	0.188570864	-0.314819968
24937250	0.184796288	-0.317055072
24937500	0.186162912	-0.31904288
24937750	0.188090928	-0.313690048
24938000	0.183654688	-0.317045792
24938250	0.186229376	-0.319962368
24938500	0.187418816	-0.313338304
24938750	0.184028288	-0.317196224
24939000	0.187027856	-0.318272512
24939250	0.18734432	-0.314776448
24939500	0.184075376	-0.318200768
24939750	0.187992928	-0.31591472
24940000	0.185435888	-0.316643008
24940250	0.185173728	-0.319262016
24940500	0.18770104	-0.315194272
24940750	0.183144	-0.318412192
24941000	0.18565736	-0.32116192
24941250	0.18719512	-0.31483488
24941500	0.183491536	-0.317712704
24941750	0.185490416	-0.32029024
24942000	0.18664832	-0.314158112
24942250	0.183003616	-0.317893248
24942500	0.186455424	-0.317225312
24942750	0.185607344	-0.314981376
24943000	0.183374064	-0.318022848
24943250	0.186563232	-0.315078176
24943500	0.18196064	-0.317974016
24943750	0.183735328	-0.320180192
24944000	0.18616664	-0.314642624
24944250	0.18258272	-0.318652768
24944500	0.18508776	-0.32175744
24944750	0.186214016	-0.315702528
24945000	0.18290536	-0.319204064
24945250	0.185735008	-0.320369344
24945500	0.18601192	-0.31571456
24945750	0.182999488	-0.319362272
24946000	0.186466016	-0.317263904
24946250	0.183384304	-0.318206176
24946500	0.183230528	-0.319955744
24946750	0.18611608	-0.315855328
24947000	0.181826	-0.318973568
24947250	0.183949744	-0.32212688
24947500	0.185658352	-0.315473376
24947750	0.18142032	-0.318782656
24948000	0.183781008	-0.321656992
24948250	0.18490896	-0.315169632
24948500	0.181646864	-0.318957792
24948750	0.184898448	-0.31864064
24949000	0.18381728	-0.31657392
24949250	0.18179144	-0.32003008
24949500	0.185364224	-0.317329984
24949750	0.181772528	-0.319564416
24950000	0.182935296	-0.321787968
24950250	0.185134016	-0.316705152
24950500	0.180889488	-0.320087552
24950750	0.183567632	-0.32306784
24951000	0.184550928	-0.316786848
24951250	0.181455088	-0.320342112
24951500	0.183944784	-0.321051776
24951750	0.184193904	-0.316178976
24952000	0.18043056	-0.319648608
24952250	0.184559232	-0.317448896
24952500	0.181887312	-0.317911104
24952750	0.181149648	-0.320615392
24953000	0.184089232	-0.316656896
24953250	0.179336656	-0.319836384
24953500	0.181882832	-0.32270384
24953750	0.183928128	-0.3174128
24954000	0.1804464	-0.320998336
24954250	0.182772336	-0.32355968
24954500	0.183786688	-0.317498816
24954750	0.180334128	-0.320989504
24955000	0.18355056	-0.32072272
24955250	0.18307176	-0.318136224
24955500	0.180553104	-0.320970432
24955750	0.18378712	-0.318465696
24956000	0.179652608	-0.32100144
24956250	0.180808496	-0.322884832
24956500	0.183311232	-0.318070976
24956750	0.179525552	-0.32101264
24957000	0.181588656	-0.323323296
24957250	0.183127216	-0.317151232
24957500	0.179318496	-0.320694496
24957750	0.182129776	-0.322444576
24958000	0.182661456	-0.317179232
24958250	0.179531008	-0.320890048
24958500	0.183265904	-0.319900928
24958750	0.180163152	-0.320415456
24959000	0.179862784	-0.322627872
24959250	0.182736848	-0.318842944
24959500	0.178545952	-0.321868448
24959750	0.180700896	-0.324560224
24960000	0.182540256	-0.318505504
24960250	0.178576304	-0.322097728
24960500	0.181187424	-0.324825248
24960750	0.182180352	-0.318502176
24961000	0.179146384	-0.321813792
24961250	0.177654048	-0.322408
24961500	0.179877968	-0.325313984
24961750	0.18039016	-0.3187816
24962000	0.178085696	-0.322733536
24962250	0.180992128	-0.32325584
24962500	0.180700272	-0.319966784
24962750	0.177488336	-0.322725632
24963000	0.181126176	-0.320135456
24963250	0.178367232	-0.321848384
24963500	0.178565264	-0.324206336
24963750	0.180195648	-0.319634336
24964000	0.176000784	-0.32280464
24964250	0.178221024	-0.32582352
24964500	0.180213712	-0.319465568
24964750	0.177120912	-0.323208064
24965000	0.179641168	-0.325322944
24965250	0.18042736	-0.319848672
24965500	0.176772304	-0.323375776
24965750	0.180560192	-0.322126432
24966000	0.179124384	-0.321094304
24966250	0.177622848	-0.323172256
24966500	0.180668336	-0.319994144
24966750	0.175684272	-0.323502976
24967000	0.17798648	-0.325833216
24967250	0.17957312	-0.320151008
24967500	0.175308576	-0.323511264
24967750	0.178410272	-0.32638304
24968000	0.178727792	-0.320027488
24968250	0.175359056	-0.323740928
24968500	0.179123584	-0.324495168
24968750	0.178850576	-0.32033888
24969000	0.176022096	-0.323675776
24969250	0.17910168	-0.32136288
24969500	0.17585632	-0.323200832
24969750	0.175996128	-0.325316576
24970000	0.179477984	-0.320471712
24970250	0.174666432	-0.323207264
24970500	0.176948928	-0.325943232
24970750	0.178758704	-0.319895552
24971000	0.174803152	-0.323420064
24971250	0.177477184	-0.325849952
24971500	0.178739888	-0.320588224
24971750	0.17534496	-0.324491552
24972000	0.178902896	-0.323448992
24972250	0.176974592	-0.322634976
24972500	0.17550416	-0.324774848
24972750	0.178628208	-0.321815776
24973000	0.174278528	-0.324273056
24973250	0.17607424	-0.326697664
24973500	0.178418752	-0.321382976
24973750	0.174302256	-0.323953312
24974000	0.17672424	-0.327695328
24974250	0.178099456	-0.320965664
24974500	0.174465872	-0.324189056
24974750	0.177176656	-0.325053632
24975000	0.177357584	-0.321075104
24975250	0.173733296	-0.324024896
24975500	0.177686192	-0.321723616
24975750	0.174667712	-0.32290576
24976000	0.1743628	-0.325446976
24976250	0.17741392	-0.3212184
24976500	0.1725272	-0.32435936
24976750	0.17551768	-0.328190336
24977000	0.177199248	-0.322203872
24977250	0.173583904	-0.325553568
24977500	0.176125792	-0.327784928
24977750	0.177139232	-0.322248128
24978000	0.173417904	-0.325597056
24978250	0.176971968	-0.32488896
24978500	0.175597504	-0.323105984
24978750	0.173826176	-0.325898912
24979000	0.17731824	-0.32265504
24979250	0.172268816	-0.3248408
24979500	0.174369552	-0.327485088
24979750	0.176724048	-0.322357344
24980000	0.172418736	-0.324925184
24980250	0.174560624	-0.327905184
24980500	0.17602456	-0.321773664
24980750	0.172066896	-0.325136896
24981000	0.175176064	-0.326375744
24981250	0.17582608	-0.321952448
24981500	0.172567664	-0.326162208
24981750	0.17638112	-0.324196224
24982000	0.172966176	-0.32544608
24982250	0.173172432	-0.327365632
24982500	0.175974464	-0.32341728
24982750	0.171682336	-0.326288352
24983000	0.17378752	-0.32918544
24983250	0.175609072	-0.323390496
24983500	0.171816048	-0.326654496
24983750	0.174128544	-0.328463936
24984000	0.175221248	-0.322397696
24984250	0.171456688	-0.325850176
24984500	0.174934704	-0.325347776
24984750	0.173302976	-0.323821824
24985000	0.171389616	-0.325931744
24985250	0.17494616	-0.32324704
24985500	0.17079216	-0.3256112
24985750	0.17199008	-0.328031552
24986000	0.174596784	-0.32293664
24986250	0.170210176	-0.326018528
24986500	0.173380416	-0.329966912
24986750	0.174694752	-0.323815552
24987000	0.171196512	-0.327255712
24987250	0.173900736	-0.328382752
24987500	0.174428912	-0.324180416
24987750	0.170921856	-0.32677776
24988000	0.174807744	-0.325228064
24988250	0.172078432	-0.325994496
24988500	0.171686	-0.327902752
24988750	0.174201888	-0.323772864
24989000	0.1690792	-0.326488896
24989250	0.171335504	-0.329667488
24989500	0.173422272	-0.323442624
24989750	0.16942688	-0.32669856
24990000	0.171754064	-0.32952336
