# Hz S RI R 50
21000000	-0.361075808	0.122530256
21001125	-0.36046816	0.1243158
21002250	-0.361589728	0.122622488
21003375	-0.360922304	0.126358808
21004500	-0.360237856	0.125370608
21005625	-0.360240832	0.125649752
21006750	-0.357933696	0.127620352
21007875	-0.358893824	0.126043488
21009000	-0.360519264	0.128013256
21010125	-0.359649184	0.12756564
21011250	-0.360259296	0.12640488
21012375	-0.359428992	0.129058216
21013500	-0.35817824	0.128528192
21014625	-0.359631072	0.126505096
21015750	-0.358797184	0.130690056
21016875	-0.357903168	0.129897416
21018000	-0.358763328	0.1292128
21019125	-0.35715008	0.131887944
21020250	-0.3577136	0.130909192
21021375	-0.35850576	0.131852192
21022500	-0.357395808	0.131609496
21023625	-0.35722288	0.131572488
21024750	-0.358860096	0.132425664
21025875	-0.357237696	0.133627328
21027000	-0.358127968	0.13201204
21028125	-0.357730272	0.135798928
21029250	-0.356887008	0.135162048
21030375	-0.357794592	0.133635832
21031500	-0.357574624	0.136823792
21032625	-0.35625056	0.136243808
21033750	-0.356333088	0.136555488
21034875	-0.354463776	0.138032752
21036000	-0.355472192	0.136896368
21037125	-0.355717824	0.138669312
21038250	-0.355226496	0.137659968
21039375	-0.356624352	0.13594392
21040500	-0.356863168	0.139215664
21041625	-0.355868832	0.138319216
21042750	-0.35561072	0.137717312
21043875	-0.355229632	0.141030384
21045000	-0.354287136	0.140427312
21046125	-0.355817696	0.139499024
21047250	-0.3535544	0.143442864
21048375	-0.35429824	0.142107392
21049500	-0.354948224	0.142619584
21050625	-0.352952064	0.144277296
21051750	-0.354598144	0.142109616
21052875	-0.354969184	0.145108704
21054000	-0.35348144	0.14411328
21055125	-0.354045888	0.142312192
21056250	-0.353698464	0.145654272
21057375	-0.352429728	0.145380416
21058500	-0.35375488	0.143854528
21059625	-0.352751296	0.147673488
21060750	-0.35237968	0.14630152
21061875	-0.35334848	0.146495328
21063000	-0.350405568	0.148746944
21064125	-0.351497536	0.147233376
21065250	-0.352075232	0.149525792
21066375	-0.351368768	0.148531328
21067500	-0.35178208	0.147403968
21068625	-0.351602272	0.15047432
21069750	-0.351516512	0.149456688
21070875	-0.35232368	0.14784704
21072000	-0.351066112	0.152333376
21073125	-0.350435392	0.151183904
21074250	-0.351244768	0.150777392
21075375	-0.348866752	0.153878448
21076500	-0.349353984	0.152481136
21077625	-0.35018672	0.1540668
21078750	-0.348650528	0.153831392
21079875	-0.350704256	0.152039968
21081000	-0.35047312	0.15468032
21082125	-0.349823936	0.154003456
21083250	-0.350469728	0.152642224
21084375	-0.349840416	0.156546848
21085500	-0.34957536	0.15509056
21086625	-0.350275968	0.154038944
21087750	-0.348502144	0.158085904
21088875	-0.348455392	0.15705008
21090000	-0.348679744	0.157962992
21091125	-0.347540896	0.159704688
21092250	-0.348622464	0.158528944
21093375	-0.348796096	0.16039112
21094500	-0.346821312	0.159157968
21095625	-0.347817024	0.157772944
21096750	-0.348706176	0.16053992
21097875	-0.347266176	0.159884048
21099000	-0.3476464	0.158687376
21100125	-0.346914144	0.16251784
21101250	-0.345774016	0.161927184
21102375	-0.346688256	0.161376912
21103500	-0.344730272	0.164464752
21104625	-0.345473344	0.162809664
21105750	-0.346082464	0.164311056
21106875	-0.344580224	0.164090176
21108000	-0.345670144	0.162745472
21109125	-0.346285184	0.165623408
21110250	-0.344865824	0.165124848
21111375	-0.346083744	0.16357336
21112500	-0.345798624	0.167604768
21113625	-0.34488656	0.16704304
21114750	-0.34582784	0.165736896
21115875	-0.345284448	0.169795312
21117000	-0.344841344	0.16815288
21118125	-0.34524496	0.169069056
21119250	-0.341493888	0.169531632
21120375	-0.342785088	0.1682216
21121500	-0.343776192	0.170720704
21122625	-0.34271168	0.16973296
21123750	-0.34327984	0.168476
21124875	-0.342951648	0.171729184
21126000	-0.34170752	0.1709644
21127125	-0.344391968	0.168700496
21128250	-0.34264736	0.17375376
21129375	-0.34270656	0.17030512
21130500	-0.342174048	0.17476944
21131625	-0.341723712	0.172730704
21132750	-0.34186432	0.173097744
21133875	-0.339828768	0.175809008
21135000	-0.340784768	0.174649776
21136125	-0.341650144	0.176886
21137250	-0.340118752	0.175970896
21138375	-0.34116976	0.173766752
21139500	-0.34074832	0.177115072
21140625	-0.340378336	0.17564432
21141750	-0.341059008	0.174312704
21142875	-0.341029056	0.1782396
21144000	-0.34006768	0.176920448
21145125	-0.340979808	0.175854736
21146250	-0.339152768	0.17949184
21147375	-0.33987232	0.178092768
21148500	-0.3391192	0.179675568
21149625	-0.337323552	0.180236752
21150750	-0.33819248	0.179077872
21151875	-0.338161248	0.18183288
21153000	-0.33786352	0.181169168
21154125	-0.338944928	0.179814976
21155250	-0.338833472	0.184095904
21156375	-0.33763056	0.18269872
21157500	-0.338541792	0.180779968
21158625	-0.337892576	0.18387848
21159750	-0.336458048	0.18279392
21160875	-0.337279552	0.182841296
21162000	-0.33480848	0.185525936
21163125	-0.336946368	0.18350768
21164250	-0.336631424	0.185647728
21165375	-0.3340592	0.185516624
21166500	-0.33615488	0.183808
21167625	-0.338753696	0.187078
21168750	-0.335639584	0.185894464
21169875	-0.336494048	0.184317584
21171000	-0.334804768	0.188751408
21172125	-0.334061568	0.187933024
21173250	-0.334576384	0.186268144
21174375	-0.33310032	0.190311088
21175500	-0.333370368	0.18860408
21176625	-0.333851296	0.189926832
21177750	-0.331299232	0.190964096
21178875	-0.33279888	0.189168096
21180000	-0.333010432	0.192226752
21181125	-0.332714016	0.190356816
21182250	-0.334732064	0.188691728
21183375	-0.333554688	0.192526544
21184500	-0.331428896	0.191806032
21185625	-0.3339904	0.189767376
21186750	-0.33323936	0.19437088
21187875	-0.33223152	0.192559072
21189000	-0.333245056	0.1926528
21190125	-0.329459616	0.195864848
21191250	-0.330717696	0.193722656
21192375	-0.330887392	0.196477168
21193500	-0.329729088	0.19597328
21194625	-0.33083792	0.19478048
21195750	-0.3309728	0.198240784
21196875	-0.330063552	0.196726096
21198000	-0.330935328	0.195145504
21199125	-0.330095712	0.20012904
21200250	-0.32913584	0.19809784
21201375	-0.329963744	0.196838224
21202500	-0.327921952	0.199885456
21203625	-0.328110112	0.198284128
21204750	-0.328198848	0.199894112
21205875	-0.326203648	0.200294256
21207000	-0.327507104	0.199054656
21208125	-0.328479424	0.201333712
21209250	-0.327991136	0.20004664
21210375	-0.329045248	0.19840296
21211500	-0.327912256	0.202876192
21212625	-0.326246432	0.202092592
21213750	-0.32764896	0.2005356
21214875	-0.326935584	0.205065968
21216000	-0.325726592	0.203388992
21217125	-0.326541504	0.203470608
21218250	-0.324184736	0.205911616
21219375	-0.32451552	0.20399208
21220500	-0.325560032	0.206540704
21221625	-0.32364736	0.205834784
21222750	-0.325068512	0.20413976
21223875	-0.324550112	0.2079236
21225000	-0.324614592	0.205438112
21226125	-0.325300288	0.203830448
21227250	-0.325028864	0.208150208
21228375	-0.323021408	0.207137584
21229500	-0.323928544	0.206018656
21230625	-0.322237536	0.20997976
21231750	-0.322603488	0.20826984
21232875	-0.322539328	0.209809088
21234000	-0.320464704	0.210613632
21235125	-0.322135104	0.209087008
21236250	-0.322319392	0.212711504
21237375	-0.32194416	0.210639056
21238500	-0.322658848	0.209197072
21239625	-0.32201168	0.213660704
21240750	-0.32078256	0.212221808
21241875	-0.322170528	0.210154864
21243000	-0.320716992	0.215112976
21244125	-0.319715328	0.212768384
21245250	-0.320204704	0.212684304
21246375	-0.317528	0.214855952
21247500	-0.318860352	0.213842832
21248625	-0.318990464	0.216284048
21249750	-0.31807264	0.214992752
21250875	-0.318825952	0.213743664
21252000	-0.318333792	0.216975792
21253125	-0.319041696	0.215328704
21254250	-0.319322464	0.214313056
21255375	-0.318174112	0.219402112
21256500	-0.317635904	0.217472208
21257625	-0.318547904	0.216365168
21258750	-0.317027168	0.22024992
21259875	-0.3170552	0.218454304
21261000	-0.317144768	0.220213856
21262125	-0.314993312	0.220084672
21263250	-0.316371872	0.2187412
21264375	-0.315491808	0.221333536
21265500	-0.31485072	0.219529792
21266625	-0.316227136	0.217916448
21267750	-0.3150648	0.222678304
21268875	-0.314603808	0.221159584
21270000	-0.315563552	0.219052656
21271125	-0.3139728	0.22353568
21272250	-0.313262624	0.221738528
21273375	-0.314060352	0.222350032
21274500	-0.311953024	0.225032336
21275625	-0.313342048	0.22340072
21276750	-0.313513472	0.226045152
21277875	-0.311811136	0.224743328
21279000	-0.3132568	0.223379728
21280125	-0.31269504	0.227670304
21281250	-0.312467744	0.225321808
21282375	-0.313462848	0.223506224
21283500	-0.312108352	0.228391024
21284625	-0.310486656	0.225876304
21285750	-0.31138384	0.224630496
21286875	-0.309327136	0.229066432
21288000	-0.3104312	0.227303984
21289125	-0.309873728	0.228698032
21290250	-0.307376288	0.228707024
21291375	-0.309164928	0.227131248
21292500	-0.309469344	0.23061608
21293625	-0.3089072	0.228946848
21294750	-0.310196576	0.22758992
21295875	-0.309187776	0.232333664
21297000	-0.30833408	0.230634912
21298125	-0.309677504	0.22836448
21299250	-0.307950528	0.234227152
21300375	-0.307609312	0.231439424
21301500	-0.30804064	0.23178096
21302625	-0.30540288	0.233926592
21303750	-0.30663344	0.232215952
21304875	-0.306339744	0.23534704
21306000	-0.304964352	0.232556064
21307125	-0.306012448	0.231229424
21308250	-0.305535776	0.235680832
21309375	-0.304976992	0.233632736
21310500	-0.306043296	0.231815472
21311625	-0.304251872	0.237053808
21312750	-0.303868224	0.234481216
21313875	-0.305028992	0.233429984
21315000	-0.302908096	0.23764872
21316125	-0.30364624	0.2362132
21317250	-0.303412512	0.23855144
21318375	-0.301833376	0.237964832
21319500	-0.303288096	0.236618576
21320625	-0.303198784	0.240315392
21321750	-0.302822464	0.2382052
21322875	-0.30383712	0.236336656
21324000	-0.302196128	0.241615312
21325125	-0.301304064	0.238667456
21326250	-0.302471296	0.236398928
21327375	-0.300402944	0.241493296
21328500	-0.29999856	0.239550896
21329625	-0.3005752	0.2399036
21330750	-0.298090144	0.241931856
21331875	-0.29929376	0.240362176
21333000	-0.299174912	0.242938224
21334125	-0.298794336	0.241242528
21335250	-0.300398368	0.23966848
21336375	-0.299264288	0.244314528
21337500	-0.298661312	0.241999312
21338625	-0.299529856	0.240403488
21339750	-0.297911584	0.246097744
21340875	-0.297584576	0.244035952
21342000	-0.298612832	0.24292952
21343125	-0.296313536	0.247373472
21344250	-0.297237888	0.244913856
21345375	-0.297125632	0.246999648
21346500	-0.294661248	0.246709856
21347625	-0.296307744	0.244919056
21348750	-0.295249632	0.24841312
21349875	-0.296010688	0.24564288
21351000	-0.296604608	0.244196752
21352125	-0.294536448	0.249088016
21353250	-0.294021024	0.246921632
21354375	-0.296615648	0.244809472
21355500	-0.293642208	0.250643008
21356625	-0.293267424	0.247898912
21357750	-0.293651392	0.248190448
21358875	-0.290894048	0.250508304
21360000	-0.29227536	0.249081536
21361125	-0.292344736	0.252380848
21362250	-0.29189104	0.25029648
21363375	-0.293305984	0.249182816
21364500	-0.292200224	0.253808864
21365625	-0.2920528	0.251528256
21366750	-0.29327472	0.24946848
21367875	-0.290938208	0.255235824
21369000	-0.290332192	0.251670064
21370125	-0.291336704	0.25031016
21371250	-0.288772384	0.25442648
21372375	-0.289464768	0.252496
21373500	-0.28910064	0.25474656
21374625	-0.287530016	0.253723168
21375750	-0.289103328	0.252636736
21376875	-0.288367584	0.256216832
21378000	-0.288143488	0.25431744
21379125	-0.290017664	0.252338384
21380250	-0.287537632	0.2577748
21381375	-0.287398944	0.25505936
21382500	-0.288761344	0.253103648
21383625	-0.286416192	0.258622912
21384750	-0.286349952	0.25680656
21385875	-0.287118016	0.257466528
21387000	-0.284517984	0.259486288
21388125	-0.28622656	0.2580348
21389250	-0.285713024	0.260978304
21390375	-0.28430416	0.258868848
21391500	-0.286226656	0.257130112
21392625	-0.284806368	0.2610116
21393750	-0.28433712	0.258512256
21394875	-0.285931072	0.256763072
21396000	-0.283177088	0.262112464
21397125	-0.282921664	0.259654576
21398250	-0.284769312	0.258562064
21399375	-0.282534912	0.262907088
21400500	-0.283072704	0.260405248
21401625	-0.282499776	0.262954688
21402750	-0.27994528	0.26255744
21403875	-0.281937056	0.260543712
21405000	-0.28027616	0.264571104
21406125	-0.281949792	0.262041328
21407250	-0.283610368	0.260472032
21408375	-0.281379072	0.265691968
21409500	-0.279611104	0.263220848
21410625	-0.282204128	0.2611512
21411750	-0.278505152	0.266708976
21412875	-0.280392512	0.264133664
21414000	-0.279733472	0.26462432
21415125	-0.276472512	0.266266464
21416250	-0.279081664	0.264649936
21417375	-0.27691568	0.267899568
21418500	-0.27708976	0.265509136
21419625	-0.278449536	0.26436496
21420750	-0.277710048	0.269096864
21421875	-0.278427072	0.26680016
21423000	-0.279881376	0.264797504
21424125	-0.276838752	0.270777248
21425250	-0.27587808	0.267568704
21426375	-0.277016864	0.266834496
21427500	-0.273980288	0.271338656
21428625	-0.275058112	0.268694752
21429750	-0.27421808	0.270852704
21430875	-0.273173856	0.269630528
21432000	-0.274767104	0.268747072
21433125	-0.27372064	0.273145472
21434250	-0.274032608	0.270942816
21435375	-0.275742624	0.269121248
21436500	-0.272265792	0.274741376
21437625	-0.272813056	0.271106272
21438750	-0.274595808	0.269229248
21439875	-0.271326496	0.275113568
21441000	-0.27179632	0.272458688
21442125	-0.272023392	0.27314128
21443250	-0.26935488	0.275238304
21444375	-0.271324288	0.273427456
21445500	-0.270312832	0.276713088
21446625	-0.269461664	0.274516256
21447750	-0.271652224	0.272975968
21448875	-0.268519904	0.277501056
21450000	-0.269696576	0.274636384
