# Hz S RI R 50
18068000	0.144104688	-0.011683474
18068250	0.1420852	-0.008194617
18068500	0.142840832	-0.012112136
18068750	0.141208752	-0.017320766
18069000	0.141609232	-0.009220648
18069250	0.143779952	-0.011422638
18069500	0.141548496	-0.008320093
18069750	0.144801856	-0.012627524
18070000	0.14479496	-0.015090008
18070250	0.141630832	-0.008067861
18070500	0.1462636	-0.013512084
18070750	0.145565856	-0.020253486
18071000	0.143583792	-0.008181781
18071250	0.14481688	-0.01344359
18071500	0.143754	-0.022067586
18071750	0.142834048	-0.008792798
18072000	0.145977088	-0.012701909
18072250	0.1425108	-0.013981401
18072500	0.145542416	-0.012033481
18072750	0.144826448	-0.013497458
18073000	0.14248592	-0.008389924
18073250	0.14742184	-0.015121766
18073500	0.146943312	-0.01969141
18073750	0.144019744	-0.008851608
18074000	0.145794032	-0.01431937
18074250	0.14519576	-0.022516362
18074500	0.144045424	-0.009038839
18074750	0.147327008	-0.013826663
18075000	0.14422672	-0.018931144
18075250	0.146096528	-0.01042991
18075500	0.145784464	-0.012834155
18075750	0.143469296	-0.00984578
18076000	0.147772368	-0.014632728
18076250	0.147172144	-0.016200454
18076500	0.144041808	-0.009126128
18076750	0.145194944	-0.015115582
18077000	0.144475088	-0.023228738
18077250	0.142232656	-0.010036855
18077500	0.145535904	-0.014935244
18077750	0.142993088	-0.022370496
18078000	0.142795008	-0.010682542
18078250	0.143438448	-0.014451917
18078500	0.141223888	-0.015152199
18078750	0.1444892	-0.013533466
18079000	0.144943536	-0.014450671
18079250	0.141929056	-0.009773462
18079500	0.144971344	-0.015711854
18079750	0.145407264	-0.021066748
18080000	0.141796528	-0.010750985
18080250	0.145655552	-0.016003198
18080500	0.144247264	-0.022733894
18080750	0.143007888	-0.010945915
18081000	0.143768496	-0.015108042
18081250	0.141902336	-0.020101842
18081500	0.142239552	-0.012145575
18081750	0.144001952	-0.014724224
18082000	0.140922464	-0.012153962
18082250	0.143947424	-0.016068554
18082500	0.143935376	-0.018508964
18082750	0.141135424	-0.011418251
18083000	0.145176064	-0.016729394
18083250	0.145515936	-0.02285603
18083500	0.142683312	-0.011921393
18083750	0.143472976	-0.016519117
18084000	0.142162848	-0.023474888
18084250	0.141069984	-0.012441361
18084500	0.144393056	-0.015895302
18084750	0.141295872	-0.016883538
18085000	0.143729792	-0.015381989
18085250	0.142740624	-0.016054439
18085500	0.140402368	-0.012094078
18085750	0.144968112	-0.017978092
18086000	0.145282368	-0.020772262
18086250	0.142231184	-0.012620816
18086500	0.143246288	-0.017253754
18086750	0.141547728	-0.0242684
18087000	0.140421824	-0.013323574
18087250	0.143723744	-0.017286408
18087500	0.1411304	-0.020949684
18087750	0.142517216	-0.014201409
18088000	0.14266976	-0.01614499
18088250	0.140631696	-0.013816703
18088500	0.144800032	-0.017855948
18088750	0.144677968	-0.019670666
18089000	0.14159776	-0.012922235
18089250	0.143313488	-0.017981804
18089500	0.143767408	-0.02442576
18089750	0.14115632	-0.013515777
18090000	0.144673152	-0.018017292
18090250	0.142580784	-0.024286082
18090500	0.14237632	-0.013809985
18090750	0.142658608	-0.017136648
18091000	0.140550384	-0.018194344
18091250	0.142865552	-0.016732136
18091500	0.143005856	-0.01740253
18091750	0.140748896	-0.013455864
18092000	0.143424304	-0.018696692
18092250	0.143494928	-0.023270166
18092500	0.1406644	-0.014147115
18092750	0.144779408	-0.019012014
18093000	0.143928048	-0.024988698
18093250	0.14283904	-0.014382299
18093500	0.143315952	-0.018130944
18093750	0.141473376	-0.023019806
18094000	0.141894544	-0.015328062
18094250	0.143994176	-0.017474672
18094500	0.141639088	-0.014810313
18094750	0.14435904	-0.018874938
18095000	0.144601904	-0.020841936
18095250	0.141650752	-0.014322567
18095500	0.14496208	-0.019830152
18095750	0.144890112	-0.02556619
18096000	0.142555616	-0.015172337
18096250	0.143070064	-0.019325732
18096500	0.141673552	-0.02638211
18096750	0.14114592	-0.015311796
18097000	0.14444072	-0.018865236
18097250	0.14248584	-0.019242012
18097500	0.144459136	-0.01804313
18097750	0.144132944	-0.020692816
18098000	0.141540048	-0.014776108
18098250	0.14620808	-0.02088126
18098500	0.145474352	-0.02471737
18098750	0.143145328	-0.015264165
18099000	0.144114096	-0.019981786
18099250	0.142438256	-0.027119474
18099500	0.141594256	-0.015950542
18099750	0.144939664	-0.019976872
18100000	0.142228	-0.024443602
18100250	0.143493936	-0.017112072
18100500	0.143066496	-0.019056994
18100750	0.141318448	-0.016329492
18101000	0.145289248	-0.020799916
18101250	0.145028736	-0.022747746
18101500	0.14299768	-0.016085078
18101750	0.143728496	-0.020934452
18102000	0.143783216	-0.02818861
18102250	0.142722368	-0.016428311
18102500	0.146364512	-0.021078168
18102750	0.143625648	-0.027932368
18103000	0.144312672	-0.016856272
18103250	0.144359776	-0.020397406
18103500	0.142440352	-0.020914412
18103750	0.14501312	-0.019705892
18104000	0.145395184	-0.020519122
18104250	0.143363344	-0.016446027
18104500	0.145117696	-0.021806462
18104750	0.1451924	-0.016097898
18105000	0.146323344	-0.02116293
18105250	0.147289216	-0.026624098
18105500	0.144316592	-0.016319627
18105750	0.147367536	-0.021678302
18106000	0.14509536	-0.028443664
18106250	0.145538032	-0.017523834
18106500	0.145722944	-0.020915018
18106750	0.14375392	-0.023395634
18107000	0.145443376	-0.019380204
18107250	0.14588536	-0.020298592
18107500	0.144107728	-0.01642225
18107750	0.146842528	-0.022402118
18108000	0.146802448	-0.026239886
18108250	0.14404392	-0.017284694
18108500	0.14725072	-0.022546326
18108750	0.145741216	-0.028868314
18109000	0.145175312	-0.017833706
18109250	0.145662928	-0.021850108
18109500	0.143867632	-0.027838718
18109750	0.144005776	-0.018274728
18110000	0.146600736	-0.021548364
18110250	0.144061424	-0.020151088
18110500	0.146789184	-0.022205462
18110750	0.14643656	-0.024152194
18111000	0.142721728	-0.01953449
18111250	0.147625872	-0.02389618
18111500	0.146104096	-0.031449278
18111750	0.145313424	-0.01863484
18112000	0.146112224	-0.023235924
18112250	0.144043488	-0.030076598
18112500	0.144060128	-0.019184414
18112750	0.147283152	-0.023290708
18113000	0.143947136	-0.024891058
18113250	0.146650672	-0.021748882
18113500	0.145440464	-0.022050966
18113750	0.143569744	-0.018691178
18114000	0.147742016	-0.025127862
18114250	0.146657136	-0.027283378
18114500	0.144607808	-0.019353858
18114750	0.145504256	-0.024295038
18115000	0.145205856	-0.030855476
18115250	0.144469104	-0.019931
18115500	0.147608272	-0.024213162
18115750	0.1446776	-0.029162358
18116000	0.145973904	-0.020612702
18116250	0.146175392	-0.023349704
18116500	0.144155824	-0.021382622
18116750	0.147539936	-0.024434278
18117000	0.147310896	-0.025196804
18117250	0.145759088	-0.020347492
18117500	0.146415648	-0.02463425
18117750	0.14652224	-0.031593744
18118000	0.144541168	-0.020305834
18118250	0.14709448	-0.02529422
18118500	0.144290432	-0.03120316
18118750	0.14587896	-0.020727366
18119000	0.145955424	-0.024304556
18119250	0.14387712	-0.026200706
18119500	0.1458528	-0.022927736
18119750	0.146452176	-0.023494148
18120000	0.144800208	-0.019964934
18120250	0.147378016	-0.025859006
18120500	0.146974736	-0.028727472
18120750	0.144635248	-0.020719584
18121000	0.147972176	-0.025992404
18121250	0.14594216	-0.032020562
18121500	0.146174	-0.021458136
18121750	0.146469936	-0.025149248
18122000	0.144383344	-0.030859138
18122250	0.144753248	-0.021504996
18122500	0.14740032	-0.025042278
18122750	0.144553152	-0.02286012
18123000	0.147263536	-0.025026554
18123250	0.146927984	-0.026936884
18123500	0.144569968	-0.021048076
18123750	0.1476584	-0.026830732
18124000	0.146989472	-0.032682952
18124250	0.145447024	-0.021914966
18124500	0.146651984	-0.025863908
18124750	0.144646784	-0.032611174
18125000	0.145053296	-0.021775906
18125250	0.148113776	-0.02566324
18125500	0.144832032	-0.027286318
18125750	0.147535056	-0.02432259
18126000	0.14609632	-0.024324698
18126250	0.144727344	-0.021165594
18126500	0.149055312	-0.027533362
18126750	0.147789264	-0.029926072
18127000	0.146377616	-0.021680276
18127250	0.146272576	-0.026456202
18127500	0.145053664	-0.033230376
18127750	0.144744784	-0.02216586
18128000	0.14734048	-0.026578218
18128250	0.144185536	-0.031891418
18128500	0.14578744	-0.02270432
18128750	0.145670944	-0.025698882
18129000	0.143740704	-0.024070166
18129250	0.148034176	-0.026386522
18129500	0.1475792	-0.027698954
18129750	0.146213008	-0.021941292
18130000	0.147061168	-0.02723677
18130250	0.147170048	-0.033852284
18130500	0.145552672	-0.022372074
18130750	0.148314832	-0.027542492
18131000	0.145448112	-0.033358202
18131250	0.14698952	-0.0232439
18131500	0.146740912	-0.026315626
18131750	0.144632768	-0.028146424
18132000	0.146642528	-0.025212688
18132250	0.14679256	-0.02530193
18132500	0.145649584	-0.022756962
18132750	0.147300688	-0.027954044
18133000	0.146613488	-0.031900478
18133250	0.144774288	-0.022712048
18133500	0.147766768	-0.028260348
18133750	0.145533664	-0.033900144
18134000	0.146302896	-0.023099742
18134250	0.147125632	-0.027012432
18134500	0.144758752	-0.032891178
18134750	0.145678624	-0.02324155
18135000	0.148267216	-0.026989592
18135250	0.145482896	-0.024902738
18135500	0.14830544	-0.026963214
18135750	0.14756008	-0.028574834
18136000	0.146000784	-0.022741546
18136250	0.148977776	-0.02886178
18136500	0.148208784	-0.034465524
18136750	0.147583696	-0.023543434
18137000	0.147400016	-0.0278678
18137250	0.14498608	-0.034518688
18137500	0.145714048	-0.023534098
18137750	0.148132992	-0.027770996
18138000	0.145277696	-0.029681542
18138250	0.148156176	-0.02592935
18138500	0.147044432	-0.025967836
18138750	0.145832144	-0.022704382
18139000	0.149915088	-0.029684224
18139250	0.148858848	-0.032390894
18139500	0.147059968	-0.02355313
18139750	0.147768624	-0.028414878
18140000	0.146055328	-0.035172628
18140250	0.146407936	-0.023939246
18140500	0.148998224	-0.028547644
18140750	0.145367296	-0.034411268
18141000	0.147923872	-0.024644496
18141250	0.14766928	-0.027443872
18141500	0.145732256	-0.0263204
18141750	0.14915392	-0.028441152
18142000	0.14855592	-0.028901124
18142250	0.147291264	-0.024137366
18142500	0.1474944	-0.02924784
18142750	0.14718392	-0.035512964
18143000	0.145872416	-0.024227368
18143250	0.148576496	-0.02944194
18143500	0.145210304	-0.0357726
18143750	0.147867136	-0.024863128
18144000	0.148086432	-0.028667764
18144250	0.145554864	-0.031016664
18144500	0.148130976	-0.027056336
18144750	0.14886632	-0.028224564
18145000	0.14672792	-0.023919906
18145250	0.149280272	-0.030435096
18145500	0.14827912	-0.033335466
18145750	0.146884896	-0.024811916
18146000	0.149711072	-0.030512366
18146250	0.146899776	-0.03649898
18146500	0.147884	-0.025415362
18146750	0.14804128	-0.029413134
18147000	0.14469192	-0.035355232
18147250	0.146485824	-0.025493708
18147500	0.14858112	-0.029441014
18147750	0.146798672	-0.027502188
18148000	0.14961032	-0.029532082
18148250	0.14874328	-0.0311257
18148500	0.147345632	-0.025343948
18148750	0.150323376	-0.031563196
18149000	0.149027664	-0.037295232
18149250	0.14851672	-0.026159118
18149500	0.148642496	-0.030430296
18149750	0.145706976	-0.037575248
18150000	0.147424736	-0.026110278
18150250	0.149593712	-0.030474474
18150500	0.14592328	-0.032121524
18150750	0.149008704	-0.028685126
18151000	0.147778032	-0.02928151
18151250	0.14655168	-0.025519698
18151500	0.15048752	-0.03251964
18151750	0.14905568	-0.034639824
18152000	0.147983088	-0.026671634
18152250	0.148021472	-0.031477814
18152500	0.146411344	-0.038331308
18152750	0.147423616	-0.026680132
18153000	0.150283792	-0.031989768
18153250	0.146555568	-0.037396244
18153500	0.149255792	-0.027310404
18153750	0.149005952	-0.030887954
18154000	0.147203936	-0.029220378
18154250	0.15038984	-0.031549804
18154500	0.149769216	-0.032404722
18154750	0.149071008	-0.02724966
18155000	0.149161936	-0.03228723
18155250	0.148291136	-0.039083568
18155500	0.14812304	-0.027503156
18155750	0.150072288	-0.032615732
18156000	0.146034256	-0.039107212
18156250	0.149076752	-0.028371276
18156500	0.148510208	-0.031768882
18156750	0.145932864	-0.034036284
18157000	0.148813056	-0.030041508
18157250	0.149640176	-0.030738462
18157500	0.148935968	-0.027819106
18157750	0.15063112	-0.03353984
18158000	0.149357216	-0.03689422
18158250	0.148554656	-0.0277231
18158500	0.15103304	-0.033880204
18158750	0.148109328	-0.040195896
18159000	0.150112976	-0.0288943
18159250	0.149752416	-0.032702826
18159500	0.146459024	-0.039027168
18159750	0.148564912	-0.028572578
18160000	0.150639024	-0.033059444
18160250	0.148234624	-0.031040102
18160500	0.15062904	-0.032849358
18160750	0.149302048	-0.035451732
18161000	0.147769984	-0.02849711
18161250	0.15078272	-0.034845824
18161500	0.14884592	-0.040844424
18161750	0.149463152	-0.02938403
18162000	0.149176352	-0.033568732
18162250	0.14632632	-0.040721176
18162500	0.1492228	-0.029114824
18162750	0.150936	-0.033821492
18163000	0.147494768	-0.035788328
18163250	0.151089424	-0.032158304
18163500	0.149411568	-0.032317364
18163750	0.1484928	-0.0288723
18164000	0.152256832	-0.0359924
18164250	0.150340672	-0.038271512
18164500	0.149511728	-0.029694958
18164750	0.14931368	-0.034796732
18165000	0.146562848	-0.041467484
18165250	0.148335024	-0.030132472
18165500	0.150581952	-0.035103492
18165750	0.146287856	-0.04047978
18166000	0.14975544	-0.030783282
18166250	0.149276192	-0.033807076
18166500	0.147489568	-0.032364748
18166750	0.151431648	-0.034656648
18167000	0.151000464	-0.036519616
18167250	0.150298416	-0.03034789
18167500	0.1504032	-0.035570456
18167750	0.149306576	-0.04272896
18168000	0.149468112	-0.030684454
