# Hz S RI R 50
14000000	-0.100877528	0.255979568
14000875	-0.11054636	0.268275136
14001750	-0.102140144	0.259262896
14002625	-0.119028832	0.286765536
14003500	-0.105235432	0.262493248
14004375	-0.099702296	0.252572864
14005250	-0.12064904	0.291048512
14006125	-0.103725336	0.264484464
14007000	-0.100092408	0.256131648
14007875	-0.117290496	0.285521824
14008750	-0.103260144	0.264505184
14009625	-0.110620672	0.279585664
14010500	-0.111164448	0.274009952
14011375	-0.100480936	0.264052416
14012250	-0.114822344	0.287885024
14013125	-0.103237624	0.26395592
14014000	-0.096669376	0.255558432
14014875	-0.11633756	0.291497728
14015750	-0.099985608	0.26474792
14016625	-0.095296216	0.253458
14017500	-0.114233312	0.289503136
14018375	-0.10048884	0.265557888
14019250	-0.10147188	0.268419856
14020125	-0.111106376	0.2836872
14021000	-0.099184824	0.267337536
14021875	-0.109280896	0.287813632
14022750	-0.102556504	0.267794704
14023625	-0.094675856	0.261258272
14024500	-0.111365176	0.292429856
14025375	-0.097663448	0.2667248
14026250	-0.09287972	0.254850416
14027125	-0.11032968	0.290956672
14028000	-0.096421968	0.264945664
14028875	-0.09384684	0.257336976
14029750	-0.109818496	0.291696352
14030625	-0.095702824	0.268101152
14031500	-0.102866224	0.27914288
14032375	-0.101548696	0.275142304
14033250	-0.093702408	0.26589576
14034125	-0.105948504	0.292130784
14035000	-0.095788088	0.269371104
14035875	-0.089887992	0.257955824
14036750	-0.105942288	0.293171872
14037625	-0.09311716	0.265795616
14038500	-0.088784848	0.255367792
14039375	-0.105862696	0.295000288
14040250	-0.09247708	0.268510656
14041125	-0.092955304	0.268572576
14042000	-0.10112672	0.28430368
14042875	-0.091680096	0.26815072
14043750	-0.100499152	0.291329888
14044625	-0.094839864	0.27245536
14045500	-0.087381248	0.26343816
14046375	-0.101306416	0.292506944
14047250	-0.090400664	0.266433952
14048125	-0.085916944	0.257304336
14049000	-0.101466544	0.296082976
14049875	-0.08844896	0.268970464
14050750	-0.085852112	0.258674448
14051625	-0.09957012	0.292032608
14052500	-0.08842424	0.268594432
14053375	-0.093505936	0.28269232
14054250	-0.094952112	0.280540608
14055125	-0.085782584	0.268345472
14056000	-0.095878224	0.293378528
14056875	-0.088209776	0.26884848
14057750	-0.082370648	0.259738976
14058625	-0.096994072	0.29684896
14059500	-0.084782072	0.269367776
14060375	-0.082015504	0.257271504
14061250	-0.095146896	0.295090112
14062125	-0.084987672	0.268665696
14063000	-0.084919872	0.270007712
14063875	-0.093667504	0.289217504
14064750	-0.084203992	0.272070208
14065625	-0.091337024	0.291723872
14066500	-0.086669784	0.27252224
14067375	-0.080254968	0.265508
14068250	-0.091945256	0.29725968
14069125	-0.082231936	0.271061152
14070000	-0.079316416	0.259245072
14070875	-0.091195352	0.296362048
14071750	-0.083714928	0.291576096
14072625	-0.07520088	0.27459952
14073500	-0.081834496	0.294630368
14074375	-0.077644832	0.275167008
14075250	-0.071468376	0.26736272
14076125	-0.082789744	0.29959072
14077000	-0.07303452	0.273814496
14077875	-0.070289648	0.263205584
14078750	-0.0816522	0.298146912
14079625	-0.072395392	0.272630368
14080500	-0.070022424	0.264839056
14081375	-0.081261872	0.29858016
14082250	-0.071445216	0.275518336
14083125	-0.076225608	0.286978784
14084000	-0.075759048	0.281501248
14084875	-0.069679416	0.271885152
14085750	-0.077478064	0.298391264
14086625	-0.070587792	0.275666816
14087500	-0.067359632	0.263613168
14088375	-0.077353488	0.298380448
14089250	-0.06876932	0.272171552
14090125	-0.065657236	0.26156568
14091000	-0.07665876	0.30143424
14091875	-0.068018032	0.274619136
14092750	-0.068392392	0.274544064
14093625	-0.074193592	0.290671904
14094500	-0.0672734	0.274142688
14095375	-0.072523112	0.297247264
14096250	-0.069488632	0.278854912
14097125	-0.064014724	0.269004224
14098000	-0.072792616	0.298928096
14098875	-0.066003232	0.272654176
14099750	-0.06279786	0.262937872
14100625	-0.072404544	0.30218144
14101500	-0.064013124	0.27433888
14102375	-0.062330804	0.2655316
14103250	-0.070899032	0.29693984
14104125	-0.0636888	0.274142976
14105000	-0.066609556	0.28815136
14105875	-0.068103216	0.285280512
14106750	-0.061267688	0.274195968
14107625	-0.067290616	0.298565856
14108500	-0.063687832	0.274327168
14109375	-0.059171956	0.265889728
14110250	-0.067882312	0.302087776
14111125	-0.06043848	0.274733536
14112000	-0.059800304	0.263422992
14112875	-0.066809716	0.300317952
14113750	-0.060597488	0.274742784
14114625	-0.060620072	0.277142176
14115500	-0.065614604	0.294124768
14116375	-0.059295364	0.277381152
14117250	-0.062689036	0.29666656
14118125	-0.06175328	0.277688384
14119000	-0.056521152	0.271439168
14119875	-0.063436912	0.301907232
14120750	-0.057586348	0.276258528
14121625	-0.056661796	0.264759872
14122500	-0.062846816	0.300537632
14123375	-0.056915216	0.274970432
14124250	-0.05520618	0.266776592
14125125	-0.061777848	0.302500736
14126000	-0.056316924	0.277181696
14126875	-0.057508812	0.28767744
14127750	-0.05883094	0.285621568
14128625	-0.053958256	0.274374848
14129500	-0.058981056	0.301827392
14130375	-0.055444396	0.278842848
14131250	-0.052368236	0.267546928
14132125	-0.058026632	0.301574208
14133000	-0.053879796	0.275149824
14133875	-0.05314084	0.265580352
14134750	-0.057676116	0.304707648
14135625	-0.05226762	0.277530368
14136500	-0.052716992	0.27690416
14137375	-0.056205892	0.29427984
14138250	-0.052035784	0.277972896
14139125	-0.054426948	0.299794688
14140000	-0.053512636	0.28200064
14140875	-0.0491658	0.273521248
14141750	-0.054143148	0.300495488
14142625	-0.051036784	0.27618176
14143500	-0.049954792	0.26640528
14144375	-0.053538432	0.304742048
14145250	-0.04884588	0.276754048
14146125	-0.048115308	0.26752096
14147000	-0.052516988	0.300900608
14147875	-0.049035912	0.277711968
14148750	-0.04967518	0.29039408
14149625	-0.051257604	0.290089824
14150500	-0.046221116	0.277572768
14151375	-0.049228696	0.301613632
14152250	-0.0484293	0.2777864
14153125	-0.045345492	0.268989184
14154000	-0.0493614	0.30507568
14154875	-0.045459912	0.277968928
14155750	-0.045308168	0.266874496
14156625	-0.04842274	0.30300288
14157500	-0.045668312	0.278616736
14158375	-0.04514308	0.27900528
14159250	-0.047549044	0.298343072
14160125	-0.043912148	0.280472864
14161000	-0.045161876	0.299423744
14161875	-0.045862116	0.28146192
14162750	-0.042250956	0.27446416
14163625	-0.044788128	0.304950816
14164500	-0.0424137	0.279548928
14165375	-0.041891412	0.268852288
14166250	-0.044417556	0.303781248
14167125	-0.042179264	0.278179424
14168000	-0.041608764	0.269344064
14168875	-0.043412396	0.305761056
14169750	-0.040811672	0.28069792
14170625	-0.042028236	0.290012576
14171500	-0.042779084	0.289843872
14172375	-0.039677496	0.278958688
14173250	-0.0406706	0.30340384
14174125	-0.040050812	0.282232736
14175000	-0.038771916	0.270561856
14175875	-0.039751164	0.304691968
14176750	-0.038654276	0.27778352
14177625	-0.038388668	0.268301152
14178500	-0.03900776	0.306453184
14179375	-0.037162932	0.280174432
14180250	-0.038006616	0.278674752
14181125	-0.038142512	0.297802176
14182000	-0.037317352	0.28109136
14182875	-0.036460788	0.30188048
14183750	-0.037948752	0.285187072
14184625	-0.034883748	0.276858592
14185500	-0.035943288	0.303783712
14186375	-0.036082696	0.279193376
14187250	-0.035101744	0.269765952
14188125	-0.034865124	0.30704336
14189000	-0.03362636	0.280819232
14189875	-0.034317068	0.270551232
14190750	-0.034373032	0.303968576
14191625	-0.033730676	0.280906816
14192500	-0.032680284	0.291174944
14193375	-0.034257428	0.292987392
14194250	-0.031890468	0.280459424
14195125	-0.031577298	0.302914336
14196000	-0.03339727	0.281478656
14196875	-0.030563008	0.273802784
14197750	-0.03050341	0.306688224
14198625	-0.030661788	0.28092832
14199500	-0.031817492	0.270108928
14200375	-0.029848914	0.305456192
14201250	-0.030791498	0.280798848
14202125	-0.030299632	0.280816736
14203000	-0.029839206	0.300812448
14203875	-0.028708856	0.283495904
14204750	-0.028394432	0.300818688
14205625	-0.03063787	0.284638688
14206500	-0.027443818	0.277720672
14207375	-0.02686659	0.306601024
14208250	-0.027201538	0.28211696
14209125	-0.02803797	0.272166048
14210000	-0.026532838	0.305573344
14210875	-0.02736221	0.280873984
14211750	-0.02854788	0.272274848
14212625	-0.025168912	0.307491264
14213500	-0.025655386	0.282926496
14214375	-0.024992236	0.291165472
14215250	-0.025959146	0.29278544
14216125	-0.025285464	0.281659072
14217000	-0.022434792	0.30545456
14217875	-0.024651354	0.285199968
14218750	-0.024034072	0.274872768
14219625	-0.022423616	0.306054656
14220500	-0.023917538	0.281615648
14221375	-0.02451907	0.27211856
14222250	-0.021032044	0.30831344
14223125	-0.022507828	0.283271488
14224000	-0.022978402	0.281342496
14224875	-0.021351756	0.300224096
14225750	-0.022450582	0.283902592
14226625	-0.018653732	0.303368032
14227500	-0.021996384	0.288398464
14228375	-0.0198029	0.280200608
14229250	-0.017960864	0.304871808
14230125	-0.021426392	0.28246064
14231000	-0.021262404	0.273824672
14231875	-0.017102294	0.308522048
14232750	-0.01894583	0.2832152
14233625	-0.022232184	0.274652032
14234500	-0.015986367	0.305916928
14235375	-0.019055744	0.283519232
14236250	-0.01797043	0.293169088
14237125	-0.017448002	0.296279168
14238000	-0.016840376	0.284586912
14238875	-0.013912971	0.304039904
14239750	-0.018264988	0.284746112
14240625	-0.017597402	0.275658592
14241500	-0.012836485	0.30804624
14242375	-0.015570037	0.284011424
14243250	-0.017514066	0.274211136
14244125	-0.01172162	0.306692512
14245000	-0.015245638	0.284286752
14245875	-0.015250134	0.282549088
14246750	-0.012633283	0.30389792
14247625	-0.013684804	0.286035904
14248500	-0.011072623	0.302281952
14249375	-0.014891648	0.288167072
14250250	-0.01296025	0.28159456
14251125	-0.008834277	0.307876384
14252000	-0.012165277	0.285629408
14252875	-0.013827518	0.275845888
14253750	-0.008079902	0.307561408
14254625	-0.012204875	0.284185248
14255500	-0.013323246	0.275149664
14256375	-0.006547131	0.309538688
14257250	-0.010319525	0.286220224
14258125	-0.00922227	0.292496
14259000	-0.009486822	0.29581152
14259875	-0.009672369	0.284963456
14260750	-0.00471609	0.307378848
14261625	-0.009027104	0.28835296
14262500	-0.009427003	0.278586048
14263375	-0.004180694	0.307038176
14264250	-0.008892184	0.28447808
14265125	-0.010334759	0.2759136
14266000	-0.002653126	0.309373344
14266875	-0.007246273	0.285954848
14267750	-0.007725241	0.283392416
14268625	-0.003693846	0.302732704
14269500	-0.006715224	0.286548032
14270375	-0.001746734	0.303146144
14271250	-0.006259145	0.291636512
14272125	-0.004810778	0.284452224
14273000	0.000199283	0.308034912
14273875	-0.005781297	0.285455968
14274750	-0.007281483	0.277055008
14275625	0.001085305	0.309454784
14276500	-0.003593968	0.285890464
14277375	-0.005799113	0.277200096
14278250	0.001318633	0.30713536
14279125	-0.003016841	0.286164352
14280000	-0.000507482	0.293541536
14280875	-0.000396014	0.29893104
14281750	-0.00170752	0.286983488
14282625	0.003639239	0.305812864
14283500	-0.002481892	0.287655712
14284375	-0.001487201	0.280262976
14285250	0.004891761	0.30851824
14286125	-0.000211676	0.286796512
14287000	-0.003126203	0.277433952
14287875	0.005827297	0.307514656
14288750	-0.000182046	0.28643584
14289625	-0.000676175	0.284726016
14290500	0.005442917	0.305268576
14291375	0.001890518	0.2882408
14292250	0.006429212	0.301837152
14293125	0.001276726	0.290738016
14294000	0.002958726	0.284155968
14294875	0.008949576	0.30757264
14295750	0.003585247	0.287847616
14296625	0.001333899	0.278954112
14297500	0.009396736	0.307525824
14298375	0.003483947	0.286209536
14299250	0.001671239	0.278039296
14300125	0.01115961	0.309518816
14301000	0.004903399	0.2881304
14301875	0.006651155	0.293370624
14302750	0.007955618	0.297755392
14303625	0.005619428	0.28735008
14304500	0.012839607	0.307219296
14305375	0.006859637	0.290402304
14306250	0.006196627	0.282061952
14307125	0.014110498	0.30834368
14308000	0.006693037	0.287021504
14308875	0.00500156	0.279425888
14309750	0.015010595	0.310454912
14310625	0.008911708	0.288930752
14311500	0.008435288	0.287599008
14312375	0.014882789	0.3075296
14313250	0.010712534	0.29193184
14314125	0.017117236	0.306805216
14315000	0.012220466	0.297369472
14315875	0.011579227	0.289845312
14316750	0.017853644	0.31122192
14317625	0.011007325	0.291683648
14318500	0.010464063	0.284279008
14319375	0.018971884	0.313252544
14320250	0.012736235	0.291730624
14321125	0.010271539	0.283728192
14322000	0.019250488	0.311055072
14322875	0.012966695	0.292584768
14323750	0.01604894	0.298337888
14324625	0.018223594	0.304132288
14325500	0.016320335	0.292700992
14326375	0.022023092	0.309539232
14327250	0.014708248	0.293086432
14328125	0.013681237	0.286667488
14329000	0.021118812	0.312586848
14329875	0.016005496	0.291045504
14330750	0.012807448	0.283236
14331625	0.022543342	0.308490496
14332500	0.015613801	0.288874016
14333375	0.014642855	0.285576928
14334250	0.022188216	0.30608528
14335125	0.01710867	0.290097728
14336000	0.02140342	0.301499744
14336875	0.016394841	0.292593376
14337750	0.015125175	0.284641504
14338625	0.023922152	0.307413088
14339500	0.016594718	0.28886144
14340375	0.013786291	0.280245056
14341250	0.024817426	0.306387648
14342125	0.016004056	0.286706208
14343000	0.013473689	0.27826448
14343875	0.026285398	0.307449952
14344750	0.018123942	0.287558752
14345625	0.019099944	0.29071984
14346500	0.020482634	0.296932704
14347375	0.01749662	0.28739248
14348250	0.025897368	0.303853984
14349125	0.018897204	0.289263488
14350000	0.016287327	0.279382176
