# Hz S RI R 50
10100000	-0.463041696	-0.17277736
10100125	-0.46345536	-0.1670316
10100250	-0.46339456	-0.17303008
10100375	-0.462859968	-0.171272464
10100500	-0.462922048	-0.168594368
10100625	-0.462864992	-0.173016288
10100750	-0.464406048	-0.17010944
10100875	-0.463792992	-0.170657232
10101000	-0.462456928	-0.172893072
10101125	-0.463717984	-0.167669952
10101250	-0.463691264	-0.172791872
10101375	-0.462085248	-0.173079792
10101500	-0.463486272	-0.166076832
10101625	-0.46280464	-0.171924112
10101750	-0.46173248	-0.171226256
10101875	-0.463337952	-0.167356976
10102000	-0.462621344	-0.172216736
10102125	-0.462922208	-0.1699556
10102250	-0.462919968	-0.167998784
10102375	-0.462228352	-0.172013984
10102500	-0.46362096	-0.168212176
10102625	-0.463956576	-0.171891776
10102750	-0.46208288	-0.172406064
10102875	-0.463451744	-0.165732272
10103000	-0.463227552	-0.171900096
10103125	-0.461820576	-0.171546864
10103250	-0.462872672	-0.165961808
10103375	-0.46253328	-0.171313232
10103500	-0.462001696	-0.169633296
10103625	-0.462628928	-0.166428704
10103750	-0.462541888	-0.171627648
10103875	-0.463748256	-0.169232016
10104000	-0.463132576	-0.169534048
10104125	-0.462312576	-0.171637328
10104250	-0.463770304	-0.165378768
10104375	-0.463692	-0.171768176
10104500	-0.462159616	-0.170900352
10104625	-0.462885056	-0.16511296
10104750	-0.463030336	-0.170606384
10104875	-0.46214416	-0.169943216
10105000	-0.463161216	-0.165366176
10105125	-0.462960704	-0.170268368
10105250	-0.466604288	-0.164764176
10105375	-0.466902944	-0.166842416
10105500	-0.4647512	-0.168284992
10105625	-0.466024032	-0.161792432
10105750	-0.466983744	-0.168195808
10105875	-0.464483616	-0.167966176
10106000	-0.465455456	-0.162280016
10106125	-0.465181664	-0.167108384
10106250	-0.464312	-0.1661648
10106375	-0.46535808	-0.162883088
10106500	-0.465118688	-0.167591216
10106625	-0.46638112	-0.165469088
10106750	-0.466321728	-0.165239296
10106875	-0.464856672	-0.167836064
10107000	-0.466882752	-0.162514688
10107125	-0.467006688	-0.16746736
10107250	-0.46456752	-0.167065728
10107375	-0.465446112	-0.161864256
10107500	-0.466102208	-0.16701392
10107625	-0.46456224	-0.166796144
10107750	-0.46602352	-0.161414032
10107875	-0.465101952	-0.167061936
10108000	-0.46531184	-0.164659904
10108125	-0.466084384	-0.16333408
10108250	-0.464842976	-0.166858288
10108375	-0.466985792	-0.16287656
10108500	-0.467077376	-0.165402112
10108625	-0.464565184	-0.166539872
10108750	-0.465685376	-0.160804752
10108875	-0.46670352	-0.166762976
10109000	-0.464908352	-0.16691536
10109125	-0.465929024	-0.159806704
10109250	-0.465641248	-0.165669408
10109375	-0.464741632	-0.164685456
10109500	-0.465595424	-0.161807008
10109625	-0.46542592	-0.166032352
10109750	-0.466505696	-0.163419456
10109875	-0.465891712	-0.163220864
10110000	-0.46478512	-0.16568272
10110125	-0.466424224	-0.160989856
10110250	-0.46727648	-0.165818736
10110375	-0.464844864	-0.165944496
10110500	-0.465946272	-0.15940928
10110625	-0.466048448	-0.164925792
10110750	-0.4645336	-0.164274592
10110875	-0.466292992	-0.16011976
10111000	-0.465229312	-0.164598528
10111125	-0.465644064	-0.16253424
10111250	-0.465766976	-0.160885808
10111375	-0.465208768	-0.164501776
10111500	-0.466914912	-0.16137784
10111625	-0.467567584	-0.16406992
10111750	-0.465197024	-0.165419968
10111875	-0.466486176	-0.158410192
10112000	-0.467597952	-0.164164224
10112125	-0.465156928	-0.16463584
10112250	-0.465653984	-0.158606096
10112375	-0.465618208	-0.16390816
10112500	-0.46500656	-0.162662544
10112625	-0.465916704	-0.159381184
10112750	-0.465790112	-0.1639336
10112875	-0.466934272	-0.161846944
10113000	-0.466349056	-0.161739648
10113125	-0.465610528	-0.164279216
10113250	-0.467213856	-0.158694896
10113375	-0.46790032	-0.163597488
10113500	-0.465334336	-0.163489552
10113625	-0.46599728	-0.15795104
10113750	-0.46699296	-0.163383344
10113875	-0.46560128	-0.162684016
10114000	-0.466564512	-0.157637728
10114125	-0.465753056	-0.16291776
10114250	-0.46625568	-0.16110952
10114375	-0.466575008	-0.159146704
10114500	-0.465665504	-0.163461088
10114625	-0.467992896	-0.159213792
10114750	-0.468001632	-0.161918688
10114875	-0.465476416	-0.162929824
10115000	-0.46619008	-0.157406832
10115125	-0.46772208	-0.162507584
10115250	-0.465843936	-0.163126976
10115375	-0.46694368	-0.156494
10115500	-0.466318016	-0.161572816
10115625	-0.46573664	-0.160558656
10115750	-0.465972416	-0.157691056
10115875	-0.46604752	-0.16220824
10116000	-0.46745008	-0.159619648
10116125	-0.467193024	-0.15927816
10116250	-0.465922112	-0.162096128
10116375	-0.467472992	-0.157051536
10116500	-0.468311008	-0.161850368
10116625	-0.465845216	-0.162137248
10116750	-0.46653488	-0.155478368
10116875	-0.467296	-0.160752384
10117000	-0.465718784	-0.160490624
10117125	-0.466879136	-0.15628496
10117250	-0.466094912	-0.160954224
10117375	-0.466405856	-0.158892848
10117500	-0.46719152	-0.157260304
10117625	-0.466136064	-0.161137744
10117750	-0.467949792	-0.157636784
10117875	-0.468334208	-0.159990048
10118000	-0.466172352	-0.161430784
10118125	-0.467471168	-0.154705968
10118250	-0.468393376	-0.160484192
10118375	-0.465899936	-0.160494688
10118500	-0.466643072	-0.154624768
10118625	-0.467247616	-0.160101072
10118750	-0.465929344	-0.158472624
10118875	-0.46644864	-0.155466016
10119000	-0.466800224	-0.15999008
10119125	-0.467646944	-0.157637872
10119250	-0.467945024	-0.158188368
10119375	-0.466526048	-0.160329952
10119500	-0.468312768	-0.154594736
10119625	-0.468586528	-0.160156048
10119750	-0.466177952	-0.159767408
10119875	-0.466992448	-0.153847968
10120000	-0.467283488	-0.158805696
10120125	-0.466373408	-0.15882928
10120250	-0.467272096	-0.154030048
10120375	-0.466869952	-0.158937328
10120500	-0.467456192	-0.156587712
10120625	-0.467550752	-0.15485248
10120750	-0.466820736	-0.159023904
10120875	-0.469068416	-0.155047024
10121000	-0.468481728	-0.15637464
10121125	-0.466492608	-0.158973568
10121250	-0.46722272	-0.153766576
10121375	-0.468523936	-0.158581328
10121500	-0.466755168	-0.159080192
10121625	-0.46737376	-0.152503712
10121750	-0.46740032	-0.158083424
10121875	-0.466544864	-0.156634848
10122000	-0.46758848	-0.15395992
10122125	-0.467006304	-0.158272704
10122250	-0.468520448	-0.155484128
10122375	-0.468077888	-0.15523056
10122500	-0.466929664	-0.15806312
10122625	-0.468093376	-0.153088224
10122750	-0.469282528	-0.157927376
10122875	-0.466917376	-0.157923584
10123000	-0.467467584	-0.151211856
10123125	-0.46806528	-0.156849456
10123250	-0.466658368	-0.155984912
10123375	-0.467925056	-0.15218288
10123500	-0.467339168	-0.156916976
10123625	-0.467425696	-0.154581584
10123750	-0.467962624	-0.153326624
10123875	-0.467301504	-0.156758096
10124000	-0.469213824	-0.153486624
10124125	-0.46971792	-0.156243824
10124250	-0.467178368	-0.15716952
10124375	-0.467964224	-0.150686272
10124500	-0.469355232	-0.156439696
10124625	-0.467256352	-0.15618616
10124750	-0.467830912	-0.15072056
10124875	-0.467985248	-0.155897472
10125000	-0.46698352	-0.15437672
10125125	-0.467833952	-0.151459616
10125250	-0.467847008	-0.155852112
10125375	-0.468832224	-0.153399104
10125500	-0.468894912	-0.15342352
10125625	-0.467829728	-0.15601608
10125750	-0.469313536	-0.1502152
10125875	-0.469761952	-0.155564448
10126000	-0.467401984	-0.155206496
10126125	-0.467870784	-0.1497256
10126250	-0.46884368	-0.154881232
10126375	-0.467460224	-0.154181424
10126500	-0.468929504	-0.149455872
10126625	-0.46774928	-0.154421904
10126750	-0.468423936	-0.152483728
10126875	-0.468846752	-0.150639328
10127000	-0.467678912	-0.154541152
10127125	-0.470045504	-0.150377152
10127250	-0.47051744	-0.153055392
10127375	-0.46777024	-0.15388216
10127500	-0.46864608	-0.148441136
10127625	-0.470076576	-0.15390584
10127750	-0.468074432	-0.154286608
10127875	-0.4688112	-0.14764864
10128000	-0.4686712	-0.153098208
10128125	-0.468095424	-0.15196056
10128250	-0.468866016	-0.149298128
10128375	-0.468591104	-0.153723936
10128500	-0.470127584	-0.1505092
10128625	-0.469208928	-0.150773584
10128750	-0.468132224	-0.153121456
10128875	-0.469429376	-0.14831216
10129000	-0.470649344	-0.153016928
10129125	-0.46831408	-0.15332216
10129250	-0.469373792	-0.146587168
10129375	-0.470120672	-0.151554976
10129500	-0.46790736	-0.151374672
10129625	-0.46951888	-0.147637968
10129750	-0.468787744	-0.152073072
10129875	-0.469264288	-0.149673232
10130000	-0.46927776	-0.148126944
10130125	-0.468324544	-0.151708736
10130250	-0.470240128	-0.14818088
10130375	-0.470395744	-0.150959136
10130500	-0.468215648	-0.151684752
10130625	-0.468517984	-0.14509544
10130750	-0.470710112	-0.151384432
10130875	-0.467933504	-0.15130504
10131000	-0.468547456	-0.145707648
10131125	-0.469193376	-0.151122464
10131250	-0.468157024	-0.149365696
10131375	-0.46845008	-0.146207328
10131500	-0.469004928	-0.150761216
10131625	-0.470416352	-0.148343648
10131750	-0.470023744	-0.148091344
10131875	-0.468918784	-0.150816496
10132000	-0.470413728	-0.144932576
10132125	-0.47126656	-0.149942464
10132250	-0.46864672	-0.149886896
10132375	-0.469610656	-0.14466296
10132500	-0.470096288	-0.149211936
10132625	-0.468580512	-0.148805536
10132750	-0.470083136	-0.144556416
10132875	-0.46888064	-0.149047392
10133000	-0.469639232	-0.147039584
10133125	-0.4701944	-0.145623872
10133250	-0.46932592	-0.149697088
10133375	-0.471437984	-0.145323072
10133500	-0.471571552	-0.148040688
10133625	-0.468660384	-0.149018816
10133750	-0.469544192	-0.143750192
10133875	-0.47131072	-0.1481052
10134000	-0.469533568	-0.149046208
10134125	-0.4700312	-0.142667712
10134250	-0.46991328	-0.14756992
10134375	-0.46910176	-0.146368288
10134500	-0.4701504	-0.143947952
10134625	-0.469416416	-0.147967408
10134750	-0.470962144	-0.144940016
10134875	-0.47078656	-0.145981856
10135000	-0.469072736	-0.1477884
10135125	-0.470824576	-0.142973648
10135250	-0.47223456	-0.147141088
10135375	-0.469520288	-0.148029264
10135500	-0.470575584	-0.141559872
10135625	-0.470968032	-0.146671008
10135750	-0.469335648	-0.146312176
10135875	-0.470350336	-0.141885184
10136000	-0.4702256	-0.146714192
10136125	-0.470123136	-0.144197712
10136250	-0.470785088	-0.142859392
10136375	-0.469925408	-0.146241024
10136500	-0.47128128	-0.142793632
10136625	-0.472236352	-0.14462568
10136750	-0.46975232	-0.146355168
10136875	-0.470792544	-0.140490832
10137000	-0.472912096	-0.14518728
10137125	-0.469808864	-0.145835552
10137250	-0.470107392	-0.140588912
10137375	-0.471183776	-0.14507784
10137500	-0.46960336	-0.143962496
10137625	-0.470172064	-0.14115464
10137750	-0.47017952	-0.1450668
10137875	-0.471692672	-0.142648432
10138000	-0.471982048	-0.141963456
10138125	-0.470425856	-0.14473872
10138250	-0.471846656	-0.139367392
10138375	-0.473280544	-0.144827408
10138500	-0.470088	-0.144254432
10138625	-0.471259392	-0.138605648
10138750	-0.471842272	-0.142455456
10138875	-0.470671744	-0.14212576
10139000	-0.472485216	-0.136082576
10139125	-0.47203984	-0.1395556
10139250	-0.47221584	-0.137522336
10139375	-0.47313632	-0.135917232
10139500	-0.471535392	-0.14006056
10139625	-0.47392944	-0.135586816
10139750	-0.4744792	-0.138413168
10139875	-0.471322016	-0.139908208
10140000	-0.472296992	-0.134448208
10140125	-0.474406976	-0.138609296
10140250	-0.471578304	-0.140292416
10140375	-0.472467744	-0.134194848
10140500	-0.472348032	-0.138936896
10140625	-0.471439808	-0.13757736
10140750	-0.472554496	-0.135381584
10140875	-0.471865024	-0.139304592
10141000	-0.473271936	-0.13620224
10141125	-0.473189856	-0.135924352
10141250	-0.47151808	-0.138590464
10141375	-0.4722528	-0.133110656
10141500	-0.474092064	-0.13735616
10141625	-0.471576288	-0.139130496
10141750	-0.472245344	-0.132525056
10141875	-0.473381024	-0.137390848
10142000	-0.471171456	-0.138145808
10142125	-0.472485184	-0.135307216
10142250	-0.471712864	-0.140549552
10142375	-0.471506976	-0.138350016
10142500	-0.471979712	-0.137487504
10142625	-0.47081744	-0.142102528
10142750	-0.472447264	-0.138114416
10142875	-0.473250944	-0.141444432
10143000	-0.470515328	-0.142982304
10143125	-0.470972512	-0.136385872
10143250	-0.47264944	-0.142075088
10143375	-0.470063744	-0.142491216
10143500	-0.470655104	-0.137532528
10143625	-0.470894112	-0.142238144
10143750	-0.46966032	-0.14086072
10143875	-0.470213984	-0.138580224
10144000	-0.470383744	-0.142303552
10144125	-0.471655936	-0.14001256
10144250	-0.471551456	-0.140417664
10144375	-0.469872608	-0.14283448
10144500	-0.471234688	-0.137294896
10144625	-0.47254128	-0.14328096
10144750	-0.469479712	-0.142739104
10144875	-0.46990816	-0.13735912
10145000	-0.470783968	-0.142828592
10145125	-0.469396288	-0.142029136
10145250	-0.470481632	-0.137978192
10145375	-0.469605312	-0.14246224
10145500	-0.4700872	-0.140958496
10145625	-0.470215008	-0.13946792
10145750	-0.469763808	-0.143408864
10145875	-0.471183872	-0.138965648
10146000	-0.471490176	-0.142658928
10146125	-0.46869984	-0.142882656
10146250	-0.46917696	-0.137975568
10146375	-0.470810752	-0.143167232
10146500	-0.469324768	-0.14352744
10146625	-0.469691232	-0.13714624
10146750	-0.469492896	-0.142687248
10146875	-0.468938624	-0.141184736
10147000	-0.469288128	-0.138653056
10147125	-0.469315008	-0.143047504
10147250	-0.470397696	-0.140219408
10147375	-0.470179392	-0.141145536
10147500	-0.469055936	-0.143251392
10147625	-0.469813216	-0.138076656
10147750	-0.471061792	-0.14356656
10147875	-0.468940864	-0.143371312
10148000	-0.468901504	-0.1370056
10148125	-0.470017344	-0.142875776
10148250	-0.468428736	-0.141509776
10148375	-0.46914576	-0.13798952
10148500	-0.469305184	-0.14284648
10148625	-0.46909456	-0.140281824
10148750	-0.469437184	-0.139061936
10148875	-0.469030592	-0.143031136
10149000	-0.469999808	-0.13904304
10149125	-0.470896064	-0.14244456
10149250	-0.468713568	-0.1430088
10149375	-0.469134304	-0.136219024
10149500	-0.470603328	-0.14253624
10149625	-0.468194464	-0.142440528
10149750	-0.468307328	-0.1371172
10149875	-0.469263424	-0.142644832
10150000	-0.468247296	-0.140642
