# Hz S RI R 50
7000000	0.344881728	0.270608608
7000750	0.34404304	0.272296448
7001500	0.346077792	0.270491328
7002250	0.346227744	0.274065664
7003000	0.344374528	0.269724832
7003750	0.346920096	0.268847232
7004500	0.346762624	0.27302576
7005250	0.34606832	0.269592576
7006000	0.348515456	0.268633088
7006750	0.348026272	0.272309408
7007500	0.348200128	0.268929792
7008250	0.34973472	0.26961216
7009000	0.348296096	0.270954848
7009750	0.349732768	0.268786592
7010500	0.350003616	0.271300448
7011250	0.347923808	0.268049216
7012000	0.350547488	0.267081888
7012750	0.3506944	0.270699648
7013500	0.349810592	0.267181248
7014250	0.351384736	0.266282224
7015000	0.35185872	0.269786176
7015750	0.35138672	0.266496416
7016500	0.353132064	0.26580656
7017250	0.352565664	0.269173216
7018000	0.353079424	0.265944928
7018750	0.354428768	0.267854848
7019500	0.352345056	0.266745808
7020250	0.354123936	0.264879232
7021000	0.354417984	0.26810968
7021750	0.352901792	0.26480568
7022500	0.355086784	0.263540624
7023250	0.355359488	0.267483712
7024000	0.355180576	0.264063216
7024750	0.356142464	0.263130544
7025500	0.356460704	0.266698688
7026250	0.356135424	0.263658048
7027000	0.356894304	0.263272736
7027750	0.356857472	0.265084416
7028500	0.357875488	0.262477008
7029250	0.358437952	0.265321136
7030000	0.356525696	0.262502192
7030750	0.3585784	0.262256448
7031500	0.359206944	0.264985264
7032250	0.358106592	0.261054256
7033000	0.35985456	0.260488544
7033750	0.359909632	0.26440928
7034500	0.359957056	0.26104128
7035250	0.361834528	0.26070776
7036000	0.36110176	0.263216592
7036750	0.361194816	0.260078336
7037500	0.362562816	0.262088304
7038250	0.360895168	0.260748272
7039000	0.362920736	0.259392832
7039750	0.363019456	0.262315072
7040500	0.3610144	0.25867576
7041250	0.362646208	0.258284784
7042000	0.36351248	0.261774784
7042750	0.363147776	0.258363632
7043500	0.364919584	0.257263952
7044250	0.3647232	0.26079256
7045000	0.364610176	0.257546608
7045750	0.366013152	0.257890432
7046500	0.36495456	0.259201968
7047250	0.366238464	0.257008608
7048000	0.366912768	0.259238896
7048750	0.36454832	0.256546944
7049500	0.366351232	0.255475616
7050250	0.367472736	0.258763792
7051000	0.36644816	0.255783472
7051750	0.367261824	0.255127008
7052500	0.368160736	0.258412032
7053250	0.368069216	0.254672144
7054000	0.36935744	0.253960048
7054750	0.36890336	0.257087888
7055500	0.369295616	0.254108096
7056250	0.370681792	0.255799744
7057000	0.3685928	0.25480664
7057750	0.370358816	0.252989584
7058500	0.371069248	0.256174352
7059250	0.36903488	0.253009472
7060000	0.370937568	0.251853616
7060750	0.371712448	0.255510592
7061500	0.370964736	0.252079008
7062250	0.372606528	0.251512528
7063000	0.3727024	0.254757408
7063750	0.372365856	0.251179664
7064500	0.373895776	0.251496528
7065250	0.37292448	0.253066384
7066000	0.374204256	0.250524112
7066750	0.37479456	0.25345376
7067500	0.372634912	0.250257168
7068250	0.374825984	0.249281024
7069000	0.375366208	0.25260744
7069750	0.37397392	0.249267824
7070500	0.375116832	0.248272912
7071250	0.376215712	0.25194016
7072000	0.375828352	0.248854096
7072750	0.378113216	0.247927344
7073500	0.376888096	0.250806384
7074250	0.376984992	0.24784624
7075000	0.37853008	0.249688624
7075750	0.376610592	0.248412544
7076500	0.37833488	0.247037616
7077250	0.378902496	0.249799408
7078000	0.376516992	0.24648456
7078750	0.378268992	0.245498176
7079500	0.379319008	0.24910176
7080250	0.378528096	0.245839904
7081000	0.379859456	0.24503512
7081750	0.380152576	0.24823032
7082500	0.37992928	0.244828784
7083250	0.381310688	0.245545696
7084000	0.38019584	0.2463176
7084750	0.381196928	0.244111392
7085500	0.38234576	0.247027792
7086250	0.379545888	0.243765328
7087000	0.381537344	0.242750336
7087750	0.382607872	0.246305936
7088500	0.381119488	0.24291168
7089250	0.382108448	0.241921488
7090000	0.383816928	0.245478752
7090750	0.382853792	0.241833008
7091500	0.384295104	0.241328224
7092250	0.38402928	0.244397568
7093000	0.383889728	0.241480048
7093750	0.385595616	0.243068288
7094500	0.3832072	0.24166208
7095250	0.385126784	0.23969736
7096000	0.385978624	0.243505952
7096750	0.383714752	0.239865664
7097500	0.385390656	0.238968928
7098250	0.386966432	0.242544912
7099000	0.386032864	0.239058496
7099750	0.387042368	0.238311008
7100500	0.387359872	0.241559712
7101250	0.387197248	0.23831328
7102000	0.388929664	0.238878288
7102750	0.387660544	0.239482944
7103500	0.388442656	0.23744392
7104250	0.38966096	0.240005216
7105000	0.386834304	0.237175488
7105750	0.389408128	0.236326912
7106500	0.390372224	0.239426656
7107250	0.388860992	0.236064688
7108000	0.39018192	0.2348484
7108750	0.391301632	0.238620736
7109500	0.390345824	0.235301072
7110250	0.392401472	0.235300976
7111000	0.391723616	0.237501664
7111750	0.391731904	0.234095296
7112500	0.393255136	0.236399616
7113250	0.391034048	0.234669392
7114000	0.392872192	0.233656608
7114750	0.39407104	0.2364376
7115500	0.3916952	0.232798096
7116250	0.393335488	0.231560496
7117000	0.394437888	0.235513152
7117750	0.39372016	0.231857104
7118500	0.39423872	0.230996
7119250	0.39597408	0.234610224
7120000	0.394781952	0.231429168
7120750	0.396824288	0.232054784
7121500	0.395392416	0.232627024
7122250	0.396385088	0.230438688
7123000	0.397944224	0.232982672
7123750	0.394648224	0.230153792
7124500	0.397024512	0.22850088
7125250	0.39837632	0.232208544
7126000	0.396778528	0.229499056
7126750	0.397668352	0.228249072
7127500	0.3993216	0.2313624
7128250	0.397998304	0.228007584
7129000	0.399689184	0.227236896
7129750	0.399426784	0.230002448
7130500	0.399306432	0.227175312
7131250	0.401083392	0.2289684
7132000	0.398481088	0.227332432
7132750	0.40009536	0.22581696
7133500	0.401873664	0.229002224
7134250	0.399448576	0.225758432
7135000	0.401442688	0.224719568
7135750	0.40292368	0.228058112
7136500	0.401218336	0.225039072
7137250	0.4025064	0.223557728
7138000	0.403140192	0.227403504
7138750	0.40261008	0.224672352
7139500	0.40506464	0.224540736
7140250	0.403017312	0.225377744
7141000	0.404215488	0.222852912
7141750	0.40542464	0.225686928
7142500	0.402978048	0.222945728
7143250	0.404564928	0.221703168
7144000	0.406367232	0.224773424
7144750	0.404443488	0.22169016
7145500	0.40601104	0.220546112
7146250	0.406988544	0.224166304
7147000	0.405800128	0.220744848
7147750	0.408282176	0.220423376
7148500	0.407891872	0.222536912
7149250	0.407522336	0.21967592
7150000	0.409514208	0.221725168
7150750	0.407408224	0.219601712
7151500	0.410221952	0.218572176
7152250	0.412186624	0.220995712
7153000	0.41013664	0.217513392
7153750	0.411863296	0.215959248
7154500	0.414530432	0.21930144
7155250	0.413146528	0.216199584
7156000	0.414420704	0.215229184
7156750	0.415818464	0.218237088
7157500	0.41459344	0.215030976
7158250	0.416626912	0.215975904
7159000	0.414628736	0.216211744
7159750	0.41554704	0.213980592
7160500	0.417264288	0.216719184
7161250	0.414122848	0.214125568
7162000	0.415989088	0.212824272
7162750	0.417924576	0.215779936
7163500	0.415876032	0.212516064
7164250	0.416990528	0.211709888
7165000	0.418904608	0.215000288
7165750	0.417330656	0.211734544
7166500	0.418851584	0.211321296
7167250	0.419080288	0.2132152
7168000	0.418957888	0.210637216
7168750	0.420941632	0.212168432
7169500	0.418174304	0.210567296
7170250	0.41968672	0.209156096
7171000	0.421623104	0.211884688
7171750	0.419253408	0.209178832
7172500	0.420504896	0.207971776
7173250	0.422224768	0.211069008
7174000	0.420454976	0.207881776
7174750	0.421315456	0.206751568
7175500	0.422509056	0.210279904
7176250	0.421458688	0.207163104
7177000	0.42342672	0.208002672
7177750	0.421344768	0.208225328
7178500	0.421663712	0.206654432
7179250	0.422404256	0.20927736
7180000	0.41900368	0.206951472
7180750	0.42043616	0.205891408
7181500	0.421789728	0.209066752
7182250	0.419262112	0.205913216
7183000	0.420539936	0.205010064
7183750	0.421580224	0.208262432
7184500	0.419899392	0.20576696
7185250	0.421328704	0.204835616
7186000	0.420769408	0.207224416
7186750	0.420252192	0.204338416
7187500	0.422416608	0.20657656
7188250	0.418690112	0.204584112
7189000	0.42081472	0.203106096
7189750	0.422445888	0.206231504
7190500	0.419426048	0.203118352
7191250	0.420382816	0.2017208
7192000	0.42261488	0.205473664
7192750	0.420792416	0.202264832
7193500	0.422209088	0.200291536
7194250	0.423340384	0.204269728
7195000	0.421677824	0.201229696
7195750	0.42360096	0.20188688
7196500	0.421677568	0.202026528
7197250	0.422919456	0.199710144
7198000	0.424038368	0.20243304
7198750	0.42058128	0.199799984
7199500	0.422085472	0.198269536
7200250	0.424382112	0.2018868
7201000	0.421787392	0.19874024
7201750	0.42326992	0.196895968
7202500	0.424624384	0.200937696
7203250	0.422655552	0.1977596
7204000	0.424677152	0.197144544
7204750	0.423839456	0.199455232
7205500	0.424028256	0.196799968
7206250	0.426134016	0.198817552
7207000	0.4222608	0.196653056
7207750	0.42423168	0.195209232
7208500	0.426268768	0.198263616
7209250	0.423463552	0.195379984
7210000	0.425091136	0.193855984
7210750	0.427055456	0.197125008
7211500	0.424705728	0.193861616
7212250	0.425306912	0.192824496
7213000	0.42742464	0.196327968
7213750	0.425474688	0.193218864
7214500	0.428147872	0.19349312
7215250	0.425643296	0.19397872
7216000	0.426689536	0.191595232
7216750	0.428723392	0.194402032
7217500	0.424802912	0.19181248
7218250	0.427132384	0.189945552
7219000	0.429230176	0.193518592
7219750	0.426637056	0.190320976
7220500	0.427892672	0.189084112
7221250	0.429674528	0.192781936
7222000	0.427849984	0.18970168
7222750	0.429851968	0.188459152
7223500	0.429381984	0.190902592
7224250	0.428965984	0.188177328
7225000	0.43145024	0.190569968
7225750	0.427277664	0.188238752
7226500	0.429841088	0.186358208
7227250	0.432222848	0.189208352
7228000	0.428634048	0.186762576
7228750	0.429688384	0.185505584
7229500	0.432569472	0.18880616
7230250	0.429832064	0.186123984
7231000	0.4307272	0.18425056
7231750	0.433197152	0.187427248
7232500	0.431265856	0.184350032
7233250	0.433341984	0.185704224
7234000	0.4312192	0.185227856
7234750	0.432730304	0.182815456
7235500	0.434874048	0.18553856
7236250	0.430703136	0.183080656
7237000	0.432514496	0.181539104
7237750	0.434944672	0.185116448
7238500	0.432622208	0.181948816
7239250	0.4341304	0.180255568
7240000	0.435751424	0.18376
7240750	0.433513984	0.180766752
7241500	0.435198528	0.180478976
7242250	0.43514064	0.182052592
7243000	0.434870272	0.179600992
7243750	0.437277952	0.181597328
7244500	0.433308704	0.179709904
7245250	0.43534176	0.177852032
7246000	0.437772096	0.181087104
7246750	0.434542112	0.177984064
7247500	0.43561072	0.176653952
7248250	0.43859312	0.179940864
7249000	0.436068032	0.177078752
7249750	0.437059744	0.175683264
7250500	0.43862912	0.179119552
7251250	0.436999328	0.175460144
7252000	0.439836256	0.176206928
7252750	0.437119552	0.176670096
7253500	0.438216	0.1742244
7254250	0.440809504	0.176947792
7255000	0.437048928	0.174596336
7255750	0.438852864	0.173006928
7256500	0.441353536	0.176314608
7257250	0.438349568	0.173011152
7258000	0.4396512	0.171848624
7258750	0.442000992	0.175161504
7259500	0.439962624	0.171953584
7260250	0.441931936	0.171411984
7261000	0.440939904	0.173424448
7261750	0.444563776	0.170840768
7262500	0.445039328	0.172700944
7263250	0.44420688	0.170093008
7264000	0.446999488	0.17180552
7264750	0.44302352	0.170250224
7265500	0.445214496	0.16809664
7266250	0.44740928	0.170917984
7267000	0.444156608	0.168619104
7267750	0.44531744	0.16703016
7268500	0.44824096	0.170518384
7269250	0.44563856	0.167626704
7270000	0.446799392	0.165911296
7270750	0.44909808	0.168790944
7271500	0.4468472	0.166298672
7272250	0.449438208	0.167053728
7273000	0.446987328	0.167065136
7273750	0.448027328	0.164522944
7274500	0.450386336	0.167032336
7275250	0.446326048	0.165051648
7276000	0.448486528	0.163379504
7276750	0.45106496	0.166138944
7277500	0.448230464	0.163481952
7278250	0.448944416	0.162031248
7279000	0.451886944	0.164968928
7279750	0.449226944	0.162107664
7280500	0.451192384	0.1616516
7281250	0.451024352	0.16354464
7282000	0.45065296	0.160696192
7282750	0.453482496	0.162142672
7283500	0.449086528	0.161164992
7284250	0.450870976	0.159371344
7285000	0.453964448	0.16182416
7285750	0.450604096	0.159650304
7286500	0.451630656	0.157651536
7287250	0.454719968	0.160711152
7288000	0.451984864	0.158065728
7288750	0.452722016	0.156718048
7289500	0.454779552	0.159650944
7290250	0.452909056	0.156938448
7291000	0.455432992	0.157101824
7291750	0.453135776	0.157608896
7292500	0.453678752	0.155035536
7293250	0.456648192	0.157508784
7294000	0.45303392	0.155589568
7294750	0.454416832	0.153869104
7295500	0.457340768	0.15629496
7296250	0.454242144	0.154203488
7297000	0.454765696	0.15275376
7297750	0.45787488	0.155617008
7298500	0.455571552	0.15270568
7299250	0.456806208	0.151953344
7300000	0.457427136	0.153873168
