# Hz S RI R 50
3500000	-0.500594496	-0.177766816
3501250	-0.50074	-0.17769072
3502500	-0.500838624	-0.176476784
3503750	-0.501096416	-0.176678832
3505000	-0.5011232	-0.175174096
3506250	-0.501540064	-0.174160112
3507500	-0.50144768	-0.174454336
3508750	-0.501669952	-0.172444128
3510000	-0.502261824	-0.171476032
3511250	-0.50218416	-0.172368672
3512500	-0.501968032	-0.17034416
3513750	-0.502099648	-0.169494112
3515000	-0.502624096	-0.169745792
3516250	-0.50257872	-0.167863408
3517500	-0.502775776	-0.168326848
3518750	-0.5028144	-0.166851456
3520000	-0.50295376	-0.16592248
3521250	-0.503313056	-0.166234048
3522500	-0.503248928	-0.164208656
3523750	-0.503722304	-0.16325856
3525000	-0.50386192	-0.164047488
3526250	-0.503923008	-0.16242656
3527500	-0.50392656	-0.160263456
3528750	-0.504335872	-0.16199672
3530000	-0.504325632	-0.159979344
3531250	-0.505273568	-0.159507184
3532500	-0.504472192	-0.1588716
3533750	-0.504858016	-0.157852304
3535000	-0.505240864	-0.158023936
3536250	-0.505090464	-0.156284672
3537500	-0.505495136	-0.155122464
3538750	-0.505540864	-0.156019264
3540000	-0.505456928	-0.15421216
3541250	-0.505192288	-0.152715824
3542500	-0.506118592	-0.153715648
3543750	-0.50614464	-0.151542128
3545000	-0.50633024	-0.150978752
3546250	-0.506308032	-0.151359488
3547500	-0.506423296	-0.14972744
3548750	-0.506801536	-0.149874736
3550000	-0.506606816	-0.148372976
3551250	-0.507220672	-0.147661664
3552500	-0.507065344	-0.147654928
3553750	-0.506888992	-0.145938736
3555000	-0.506976608	-0.144612672
3556250	-0.507081504	-0.145360672
3557500	-0.50724064	-0.14342064
3558750	-0.507655744	-0.142734736
3560000	-0.5076704	-0.143203824
3561250	-0.507758208	-0.141415008
3562500	-0.508085792	-0.140995168
3563750	-0.508122496	-0.14057368
3565000	-0.508526912	-0.139151984
3566250	-0.508325504	-0.139520208
3567500	-0.50855024	-0.137883936
3568750	-0.508272096	-0.1361432
3570000	-0.508946176	-0.137328032
3571250	-0.508730176	-0.135424464
3572500	-0.50893296	-0.134142904
3573750	-0.509129536	-0.135226976
3575000	-0.509089216	-0.133017544
3576250	-0.509050496	-0.13193032
3577500	-0.509432128	-0.132767024
3578750	-0.509403584	-0.130914
3580000	-0.509721216	-0.131237504
3581250	-0.509740832	-0.129834952
3582500	-0.510305888	-0.128958776
3583750	-0.50998384	-0.12901528
3585000	-0.50989712	-0.127106232
3586250	-0.510539648	-0.125865952
3587500	-0.510266432	-0.126610872
3588750	-0.509644672	-0.125006336
3590000	-0.509728128	-0.122978
3591250	-0.510600992	-0.124320288
3592500	-0.5103088	-0.122456064
3593750	-0.510772512	-0.1219316
3595000	-0.510984608	-0.121631952
3596250	-0.51045328	-0.12043772
3597500	-0.51121968	-0.120739176
3598750	-0.510897344	-0.11892164
3600000	-0.511397824	-0.1180688
3601250	-0.51112784	-0.118588264
3602500	-0.511054624	-0.11668216
3603750	-0.510616192	-0.114682208
3605000	-0.511498944	-0.116369344
3606250	-0.511079072	-0.114085952
3607500	-0.511212352	-0.112887968
3608750	-0.511411296	-0.113590792
3610000	-0.511223136	-0.111872336
3611250	-0.51115536	-0.11175744
3612500	-0.511229216	-0.110570784
3613750	-0.511262848	-0.109575896
3615000	-0.511727616	-0.110063016
3616250	-0.51109088	-0.10819856
3617500	-0.511658432	-0.107133136
3618750	-0.511793728	-0.107841312
3620000	-0.511670944	-0.105340432
3621250	-0.514681344	-0.106133952
3622500	-0.51474224	-0.105485408
3623750	-0.514312512	-0.10432
3625000	-0.51497072	-0.104580848
3626250	-0.51468384	-0.102641136
3627500	-0.515172896	-0.101195224
3628750	-0.515001728	-0.10225876
3630000	-0.515133088	-0.1001788
3631250	-0.514608448	-0.09927728
3632500	-0.515324544	-0.099977448
3633750	-0.514653632	-0.097795376
3635000	-0.515518304	-0.09732004
3636250	-0.51532768	-0.097493056
3637500	-0.514992064	-0.095921136
3638750	-0.51567568	-0.096089744
3640000	-0.515167712	-0.0943302
3641250	-0.51542448	-0.093141336
3642500	-0.515659808	-0.093771792
3643750	-0.514867968	-0.091603872
3645000	-0.51478768	-0.0903858
3646250	-0.515683104	-0.091566472
3647500	-0.515022112	-0.089265984
3648750	-0.5153312	-0.087751816
3650000	-0.515518304	-0.0891458
3651250	-0.514927744	-0.08728952
3652500	-0.515454048	-0.086570144
3653750	-0.515331744	-0.086002032
3655000	-0.515473952	-0.084903336
3656250	-0.515603008	-0.085472328
3657500	-0.515259872	-0.083390968
3658750	-0.514678304	-0.082086896
3660000	-0.515622368	-0.083083672
3661250	-0.5151664	-0.080680504
3662500	-0.515435232	-0.079420992
3663750	-0.515792	-0.080795488
3665000	-0.515040704	-0.078470384
3666250	-0.514830464	-0.077410304
3667500	-0.515375008	-0.078045192
3668750	-0.515038208	-0.076861512
3670000	-0.515739392	-0.07691312
3671250	-0.51497872	-0.075122688
3672500	-0.51460528	-0.073681456
3673750	-0.5152192	-0.074615024
3675000	-0.514648928	-0.072357368
3676250	-0.515038912	-0.070979568
3677500	-0.515474496	-0.072453888
3678750	-0.514857664	-0.070370128
3680000	-0.515127776	-0.068856456
3681250	-0.515491488	-0.070095832
3682500	-0.514777952	-0.067950432
3683750	-0.515219104	-0.068045712
3685000	-0.515306816	-0.06741608
3686250	-0.5152216	-0.066083624
3687500	-0.5157352	-0.066210172
3688750	-0.514629856	-0.064469568
3690000	-0.514453184	-0.06295932
3691250	-0.515273088	-0.064206272
3692500	-0.514478688	-0.062129244
3693750	-0.51422512	-0.059741676
3695000	-0.515146144	-0.06193208
3696250	-0.514149024	-0.059728684
3697500	-0.5144912	-0.058832236
3698750	-0.514531072	-0.059194124
3700000	-0.514043328	-0.057265264
3701250	-0.514954816	-0.05785784
3702500	-0.514129984	-0.056124496
3703750	-0.51405792	-0.055392396
3705000	-0.514835584	-0.055948996
3706250	-0.514378656	-0.053762436
3707500	-0.51358848	-0.052994796
3708750	-0.515012736	-0.053798904
3710000	-0.513905344	-0.051261264
3711250	-0.513717888	-0.049480708
3712500	-0.514481888	-0.051446508
3713750	-0.51400608	-0.049555
3715000	-0.514229472	-0.04895972
3716250	-0.514108608	-0.048435056
3717500	-0.513968896	-0.047419588
3718750	-0.514374272	-0.047930632
3720000	-0.513320448	-0.04571358
3721250	-0.513189024	-0.044793152
3722500	-0.514059488	-0.045660396
3723750	-0.51314128	-0.043590004
3725000	-0.513679136	-0.041736996
3726250	-0.513963104	-0.043589
3727500	-0.513035712	-0.041614408
3728750	-0.512540576	-0.041129352
3730000	-0.513861184	-0.041006656
3731250	-0.51299376	-0.03918508
3732500	-0.514097984	-0.039900072
3733750	-0.513194496	-0.038107076
3735000	-0.513174464	-0.036968524
3736250	-0.513755616	-0.037843576
3737500	-0.512841152	-0.035617728
3738750	-0.51305968	-0.034183556
3740000	-0.51349872	-0.035742208
3741250	-0.512647392	-0.033602972
3742500	-0.512323264	-0.032340854
3743750	-0.514005664	-0.033703276
3745000	-0.512870624	-0.031634338
3746250	-0.513263776	-0.03131656
3747500	-0.51305408	-0.031012232
3748750	-0.512884736	-0.02965575
3750000	-0.513007584	-0.029901458
3751250	-0.512180384	-0.027990476
3752500	-0.512653696	-0.026681008
3753750	-0.513054624	-0.028131058
3755000	-0.511906144	-0.02567682
3756250	-0.511988224	-0.024492812
3757500	-0.51276016	-0.02587614
3758750	-0.511724896	-0.023943846
3760000	-0.51240528	-0.022390232
3761250	-0.512539616	-0.023599368
3762500	-0.511738784	-0.021674046
3763750	-0.512615904	-0.02239057
3765000	-0.511654784	-0.02052734
3766250	-0.511437472	-0.02010343
3767500	-0.512546368	-0.020152496
3768750	-0.511142304	-0.018660858
3770000	-0.510255872	-0.016159218
3771250	-0.512332128	-0.018427578
3772500	-0.510515584	-0.016057715
3773750	-0.510182208	-0.014430573
3775000	-0.511412448	-0.016001674
3776250	-0.50994848	-0.014197819
3777500	-0.511123488	-0.013548348
3778750	-0.510749568	-0.01299087
3780000	-0.510385024	-0.012082482
3781250	-0.511273792	-0.01258562
3782500	-0.509928096	-0.010956363
3783750	-0.509602976	-0.009822513
3785000	-0.511293952	-0.010396487
3786250	-0.509779648	-0.008277199
3787500	-0.509423808	-0.006084675
3788750	-0.511054816	-0.008209377
3790000	-0.509217312	-0.00644743
3791250	-0.509563936	-0.005211249
3792500	-0.510284768	-0.005750066
3793750	-0.509400256	-0.004100221
3795000	-0.510420672	-0.004802597
3796250	-0.509182112	-0.003369525
3797500	-0.508948032	-0.002137611
3798750	-0.510131584	-0.002580222
3800000	-0.508551584	-0.000905812
3801250	-0.508927232	0.001144473
3802500	-0.510012992	-0.00052779
3803750	-0.508307808	0.00130887
3805000	-0.508145408	0.003009579
3806250	-0.50986128	0.001493536
3807500	-0.508080256	0.003616959
3808750	-0.508856	0.003591632
3810000	-0.508318432	0.004157702
3811250	-0.508449856	0.004694049
3812500	-0.508967712	0.0046818
3813750	-0.507409408	0.006990269
3815000	-0.507527232	0.008029136
3816250	-0.508864416	0.006580791
3817500	-0.506910624	0.008462621
3818750	-0.506778592	0.010486788
3820000	-0.50859152	0.008904472
3821250	-0.506901856	0.010649333
3822500	-0.506582368	0.012132241
3823750	-0.508091264	0.011209257
3825000	-0.506476352	0.012452577
3826250	-0.507917472	0.012415451
3827500	-0.506591808	0.013850082
3828750	-0.50664192	0.014635047
3830000	-0.507665984	0.014460466
3831250	-0.506095936	0.016278359
3832500	-0.505372928	0.017527086
3833750	-0.50761216	0.016402783
3835000	-0.505475168	0.018433852
3836250	-0.505722592	0.02045458
3837500	-0.507101824	0.01840017
3838750	-0.505608192	0.019904188
3840000	-0.506201856	0.020587116
3841250	-0.506000832	0.021344482
3842500	-0.505264416	0.022375368
3843750	-0.506631616	0.022077474
3845000	-0.504926752	0.023352568
3846250	-0.504885504	0.024588624
3847500	-0.506557632	0.023918458
3848750	-0.50432016	0.025825266
3850000	-0.504073792	0.027969198
3851250	-0.506176832	0.025725094
3852500	-0.503749856	0.027476874
3853750	-0.504600288	0.028662966
3855000	-0.50539328	0.02855624
3856250	-0.504297184	0.02972588
3857500	-0.505670016	0.029402702
3858750	-0.503816064	0.031325978
3860000	-0.503723072	0.03196101
3861250	-0.504991712	0.031653106
3862500	-0.5033688	0.0333834
3863750	-0.503215328	0.035019196
3865000	-0.504936352	0.03372258
3866250	-0.502832288	0.034930828
3867500	-0.502088896	0.037027792
3868750	-0.504949376	0.035930084
3870000	-0.502504576	0.03718968
3871250	-0.504034336	0.038010124
3872500	-0.503206784	0.038450236
3873750	-0.50272048	0.039087072
3875000	-0.50417584	0.03935624
3876250	-0.502007776	0.040947792
3877500	-0.50187488	0.04220748
3878750	-0.503731968	0.041452552
3880000	-0.501596448	0.0428217
3881250	-0.500281568	0.044366832
3882500	-0.503326112	0.043249168
3883750	-0.501307072	0.044889176
3885000	-0.501355936	0.046673172
3886250	-0.502445216	0.045746396
3887500	-0.501112512	0.0465253
3888750	-0.502516384	0.047045784
3890000	-0.500653024	0.048650264
3891250	-0.500970784	0.049795584
3892500	-0.502073472	0.049105852
3893750	-0.499740832	0.0505396
3895000	-0.49926016	0.052129836
3896250	-0.501580608	0.051383996
3897500	-0.499072224	0.052660416
3898750	-0.497946656	0.05558618
3900000	-0.50109648	0.053566868
3901250	-0.49907472	0.054736052
3902500	-0.499716768	0.055623864
3903750	-0.498933152	0.056022716
3905000	-0.49858848	0.057053788
3906250	-0.50006688	0.057226988
3907500	-0.49805376	0.05834586
3908750	-0.49702496	0.059898684
3910000	-0.499656448	0.059397556
3911250	-0.497055872	0.060641668
3912500	-0.49569328	0.063175128
3913750	-0.498834592	0.061371532
3915000	-0.496529792	0.062464428
3916250	-0.495917824	0.064100908
3917500	-0.497804096	0.063766392
3918750	-0.495112992	0.063199476
3920000	-0.497843104	0.065547696
3921250	-0.495847296	0.066143208
3922500	-0.495695456	0.066807332
3923750	-0.497438624	0.06712552
3925000	-0.494890688	0.068774416
3926250	-0.493883328	0.071001072
3927500	-0.496703264	0.069312456
3928750	-0.493932832	0.07025328
3930000	-0.492633984	0.07217108
3931250	-0.496018432	0.071462272
3932500	-0.493196512	0.072926104
3933750	-0.493846016	0.074241616
3935000	-0.493442688	0.074218568
3936250	-0.493093728	0.075237
3937500	-0.494492704	0.075450904
3938750	-0.491719296	0.07660348
3940000	-0.491196288	0.078451472
3941250	-0.493802016	0.077702848
3942500	-0.491046752	0.078466232
3943750	-0.489319744	0.080718824
3945000	-0.4929864	0.080185472
3946250	-0.490452032	0.081104312
3947500	-0.490523776	0.083288368
3948750	-0.492176128	0.082393528
3950000	-0.49111728	0.082493568
3951250	-0.492694592	0.083538256
3952500	-0.490199872	0.084158576
3953750	-0.489991424	0.08585612
3955000	-0.492141184	0.085446176
3956250	-0.489105376	0.086419576
3957500	-0.4874256	0.087759424
3958750	-0.491425024	0.08764192
3960000	-0.488371776	0.088523032
3961250	-0.486782528	0.090968952
3962500	-0.490497888	0.09001428
3963750	-0.487627232	0.090369136
3965000	-0.488286688	0.09179664
3966250	-0.488268128	0.091647984
3967500	-0.488035552	0.093083128
3968750	-0.489442464	0.093428928
3970000	-0.486948512	0.093510784
3971250	-0.485651168	0.095450992
3972500	-0.48874448	0.095240704
3973750	-0.486000032	0.096105384
3975000	-0.485005152	0.097400192
3976250	-0.488306976	0.097284256
3977500	-0.485870944	0.097791832
3978750	-0.484502304	0.099198368
3980000	-0.486949504	0.09901324
3981250	-0.485791744	0.100061704
3982500	-0.48738944	0.100756864
3983750	-0.483947168	0.101004392
3985000	-0.484472416	0.101671624
3986250	-0.487003456	0.102321968
3987500	-0.484053184	0.102725208
3988750	-0.482861696	0.104652016
3990000	-0.486427616	0.104151272
3991250	-0.48352256	0.1040792
3992500	-0.481095936	0.106278832
3993750	-0.48551392	0.106433768
3995000	-0.482781024	0.106369368
3996250	-0.483445536	0.107934032
3997500	-0.483132288	0.107993168
3998750	-0.482232416	0.108869768
4000000	-0.483780128	0.109701472
