# Hz S RI R 50
3500000	-0.503484064	-0.178212544
3565500	-0.511694784	-0.139445232
3631000	-0.516327808	-0.098937776
3696500	-0.516833056	-0.0603102
3762000	-0.512271456	-0.021188228
3827500	-0.507919072	0.015951412
3893000	-0.503544864	0.050252648
3958500	-0.493608672	0.08732864
4024000	-0.482868704	0.123591448
4089500	-0.465775648	0.156920048
4155000	-0.44711856	0.190738672
4220500	-0.428477216	0.22271392
4286000	-0.403974752	0.252603856
4351500	-0.380424416	0.280971584
4417000	-0.3506936	0.30557488
4482500	-0.318468384	0.326419104
4548000	-0.289045312	0.347814112
4613500	-0.257371776	0.361512512
4679000	-0.223183744	0.374680608
4744500	-0.190458608	0.385769312
4810000	-0.15457904	0.392168
4875500	-0.119359704	0.39726432
4941000	-0.083794088	0.398101792
5006500	-0.047268936	0.392348096
5072000	-0.01076352	0.387506944
5137500	0.02297962	0.373206976
5203000	0.054482796	0.354685824
5268500	0.088386312	0.334091392
5334000	0.110908472	0.305633984
5399500	0.126885592	0.273851328
5465000	0.14200144	0.246078336
5530500	0.144389056	0.215121376
5596000	0.1466928	0.18604776
5661500	0.143809664	0.158131696
5727000	0.126682296	0.135073392
5792500	0.114664776	0.113316032
5858000	0.093336968	0.104509784
5923500	0.067191688	0.100903864
5989000	0.0424584	0.097672888
6054500	0.024199924	0.119022112
6120000	0.015027316	0.146135168
6185500	0.009340796	0.163664704
6251000	0.022446006	0.187466672
6316500	0.034820216	0.209053392
6382000	0.050925508	0.223108224
6447500	0.075849448	0.234841904
6513000	0.098584008	0.242407616
6578500	0.12333572	0.237701408
6644000	0.147041488	0.235759408
6709500	0.165784112	0.233501824
6775000	0.183526336	0.225407584
6840500	0.204426736	0.219267248
6906000	0.225102992	0.214396208
6971500	0.244891456	0.201419744
7037000	0.26625288	0.188407584
7102500	0.28600608	0.174996464
7168000	0.302917216	0.156011504
7233500	0.321881376	0.135381664
7299000	0.334252352	0.114806208
7364500	0.347204	0.089763672
7430000	0.359654688	0.064548792
7495500	0.365203008	0.040638412
7561000	0.370581216	0.012819635
7626500	0.37505456	-0.015015538
7692000	0.375776864	-0.039358504
7757500	0.373859424	-0.066640556
7823000	0.371332416	-0.094542248
7888500	0.366925856	-0.118600224
7954000	0.359357024	-0.14540568
8019500	0.351324352	-0.170071392
8085000	0.340053152	-0.19466912
8150500	0.3272128	-0.219033168
8216000	0.313627712	-0.240585648
8281500	0.297089312	-0.261697776
8347000	0.279255392	-0.283711008
8412500	0.261847504	-0.301316224
8478000	0.241365376	-0.319529024
8543500	0.21904984	-0.336073056
8609000	0.19934584	-0.3507552
8674500	0.17318496	-0.36497296
8740000	0.149487904	-0.376230656
8805500	0.126877336	-0.38688752
8871000	0.098426088	-0.39441072
8936500	0.073250192	-0.401418656
9002000	0.04816264	-0.407808128
9067500	0.018965396	-0.40984832
9133000	-0.007012793	-0.414367136
9198500	-0.03380294	-0.414107296
9264000	-0.066038252	-0.41101504
9329500	-0.096748416	-0.409971456
9395000	-0.122235632	-0.4045288
9460500	-0.155154112	-0.392289856
9526000	-0.187065648	-0.383570208
9591500	-0.213999328	-0.368599136
9657000	-0.242754672	-0.350696256
9722500	-0.272925376	-0.332136576
9788000	-0.296818016	-0.308636032
9853500	-0.322644928	-0.283577984
9919000	-0.345954272	-0.254564192
9984500	-0.363389088	-0.222505552
10050000	-0.380967424	-0.187270336
10115500	-0.393197568	-0.156463952
10181000	-0.399708928	-0.116753752
10246500	-0.403330272	-0.077245584
10312000	-0.406710336	-0.044085368
10377500	-0.398830016	-0.003976703
10443000	-0.38977456	0.031978782
10508500	-0.378621088	0.06526346
10574000	-0.363763616	0.097373744
10639500	-0.34901152	0.12873612
10705000	-0.323661792	0.155146016
10770500	-0.303001152	0.183155248
10836000	-0.277113216	0.212674496
10901500	-0.245756368	0.223316848
10967000	-0.215606608	0.244207152
11032500	-0.179816064	0.259416192
11098000	-0.150753744	0.258060336
11163500	-0.115740448	0.264644832
11229000	-0.083934144	0.262243456
11294500	-0.056649768	0.254432256
11360000	-0.026085194	0.247144784
11425500	-0.005455221	0.233951168
11491000	0.017970244	0.220860176
11556500	0.039748296	0.208366768
11622000	0.049983548	0.19464504
11687500	0.071492368	0.180056576
11753000	0.091375048	0.163167632
11818500	0.095057792	0.1512708
11884000	0.114892992	0.130515296
11949500	0.129199432	0.110362928
12015000	0.130939512	0.095422136
12080500	0.144253344	0.066497088
12146000	0.148460032	0.048783076
12211500	0.1488376	0.022091408
12277000	0.14984904	-0.011639368
12342500	0.146520912	-0.02830965
12408000	0.132937256	-0.064130896
12473500	0.113397264	-0.09598224
12539000	0.107018912	-0.103847192
12604500	0.07548976	-0.133457648
12670000	0.040713936	-0.15113288
12735500	0.035192356	-0.155075216
12801000	-0.010216028	-0.16733304
12866500	-0.036973052	-0.17011896
12932000	-0.057356084	-0.16911008
12997500	-0.102616744	-0.159679824
13063000	-0.120835216	-0.158915728
13128500	-0.15696864	-0.130885648
13194000	-0.183451664	-0.103457736
13259500	-0.202943856	-0.10325696
13325000	-0.223121088	-0.054015376
13390500	-0.228978288	-0.017997378
13456000	-0.253688576	-0.010815932
13521500	-0.245688848	0.040838624
13587000	-0.242056224	0.073560328
13652500	-0.254381952	0.097062128
13718000	-0.227342944	0.135328784
13783500	-0.22429232	0.163818704
13849000	-0.199409968	0.188151648
13914500	-0.173019424	0.209052416
13980000	-0.161647952	0.23764184
14045500	-0.12513924	0.244939504
14111000	-0.09957788	0.25330896
14176500	-0.077612456	0.27756368
14242000	-0.0464009	0.271014624
14307500	-0.020523138	0.271968608
14373000	0.008618613	0.284649664
14438500	0.033717508	0.272051296
14504000	0.05925294	0.26929824
14569500	0.085167488	0.26213088
14635000	0.106212808	0.249084128
14700500	0.131623952	0.239820192
14766000	0.148472752	0.221647632
14831500	0.165253088	0.206060352
14897000	0.185953216	0.189504512
14962500	0.195615456	0.168103888
15028000	0.206553616	0.1484508
15093500	0.220408592	0.12768224
15159000	0.223520944	0.105175568
15224500	0.228646112	0.084132208
15290000	0.23294392	0.061636792
15355500	0.230335936	0.040485592
15421000	0.230250128	0.019200478
15486500	0.223835472	-0.001607366
15552000	0.217781072	-0.019103068
15617500	0.21128176	-0.038826032
15683000	0.199501536	-0.054886936
15748500	0.18949112	-0.069789976
15814000	0.17767512	-0.084968648
15879500	0.16243624	-0.09619608
15945000	0.148527504	-0.108767128
16010500	0.134090008	-0.117127752
16076000	0.117120712	-0.123175024
16141500	0.100639528	-0.129567952
16207000	0.082634992	-0.131378216
16272500	0.066561068	-0.132798568
16338000	0.049988708	-0.131715984
16403500	0.031590154	-0.12713608
16469000	0.016250795	-0.122766608
16534500	0.003967622	-0.115302928
16600000	-0.010877436	-0.10410492
16665500	-0.025864414	-0.091277704
16731000	-0.02981422	-0.082971232
16796500	-0.038161424	-0.067072072
16862000	-0.044106212	-0.050261068
16927500	-0.044169544	-0.040091132
16993000	-0.045592072	-0.023765952
17058500	-0.042407836	-0.01216619
17124000	-0.037283572	0.005755632
17189500	-0.03114987	0.016637834
17255000	-0.023011752	0.025587882
17320500	-0.009464986	0.040353604
17386000	0.005961013	0.047298364
17451500	0.013148208	0.048416444
17517000	0.03267884	0.052915244
17582500	0.053300912	0.050659472
17648000	0.056491296	0.04947892
17713500	0.07502908	0.044751276
17779000	0.085054216	0.0357597
17844500	0.09731584	0.027526978
17910000	0.105377736	0.016801534
17975500	0.11126568	0.008096581
18041000	0.120651072	-0.009226448
18106500	0.121111056	-0.019949102
18172000	0.125235872	-0.029353002
18237500	0.124395624	-0.046023392
18303000	0.118662816	-0.059504044
18368500	0.125011472	-0.0671876
18434000	0.120739128	-0.081742032
18499500	0.114544144	-0.090230536
18565000	0.11532224	-0.104026128
18630500	0.109002216	-0.114042496
18696000	0.105192696	-0.125504088
18761500	0.096021616	-0.138085072
18827000	0.090427024	-0.145682992
18892500	0.081529472	-0.158434016
18958000	0.070913536	-0.166396144
19023500	0.061195544	-0.1722444
19089000	0.047841028	-0.185447632
19154500	0.035275716	-0.191799584
19220000	0.023621018	-0.195180096
19285500	0.006442331	-0.204313408
19351000	-0.007440163	-0.207956544
19416500	-0.0220394	-0.210358016
19482000	-0.041684908	-0.212437504
19547500	-0.0555027	-0.213969744
19613000	-0.073438552	-0.213445632
19678500	-0.089761584	-0.211770528
19744000	-0.104563712	-0.21008656
19809500	-0.1262584	-0.20364424
19875000	-0.143684224	-0.19768472
19940500	-0.158242832	-0.1923292
20006000	-0.179991504	-0.179292352
20071500	-0.196706656	-0.168746464
20137000	-0.21168968	-0.157605808
20202500	-0.229126688	-0.138307472
20268000	-0.242664784	-0.122635376
20333500	-0.255153008	-0.103215592
20399000	-0.266076656	-0.082555392
20464500	-0.275791616	-0.06450922
20530000	-0.281965664	-0.039981748
20595500	-0.287407712	-0.018020754
20661000	-0.291065216	0.002872968
20726500	-0.289853152	0.029344824
20792000	-0.28842544	0.052412572
20857500	-0.285901824	0.073544184
20923000	-0.277328448	0.098137968
20988500	-0.269740992	0.11911968
21054000	-0.260981024	0.139336176
21119500	-0.248356112	0.160021696
21185000	-0.237341696	0.177419664
21250500	-0.222945264	0.195950128
21316000	-0.20801816	0.210462048
21381500	-0.194971488	0.224036016
21447000	-0.175359264	0.239334336
21512500	-0.160172304	0.249106496
21578000	-0.14506568	0.25855368
21643500	-0.121732976	0.27039488
21709000	-0.106201328	0.277265504
21774500	-0.089268384	0.283927296
21840000	-0.065267316	0.28925936
21905500	-0.049666716	0.294447904
21971000	-0.027360494	0.29586432
22036500	-0.009423246	0.297584448
22102000	0.007889952	0.300389248
22167500	0.030589924	0.295895584
22233000	0.0461548	0.296989792
22298500	0.062907428	0.296065056
22364000	0.084473656	0.285485248
22429500	0.101019752	0.283780768
22495000	0.116832976	0.280740544
22560500	0.134852656	0.267043616
22626000	0.151336368	0.26308704
22691500	0.166101712	0.253902432
22757000	0.180994464	0.242931056
22822500	0.197304464	0.235662624
22888000	0.210394288	0.222338544
22953500	0.226734	0.213328704
23019000	0.240853552	0.202668336
23084500	0.25051016	0.184863456
23150000	0.265808576	0.17188976
23215500	0.27825072	0.15963648
23281000	0.284552832	0.139577088
23346500	0.29692288	0.124160736
23412000	0.306453792	0.109644896
23477500	0.310851744	0.089215576
23543000	0.319964128	0.071615976
23608500	0.323052544	0.05334482
23674000	0.329089472	0.033235606
23739500	0.334469344	0.014697403
23805000	0.332043424	-0.004861362
23870500	0.33635104	-0.025937398
23936000	0.339550016	-0.04538146
24001500	0.331173344	-0.063840604
24067000	0.331471904	-0.085521056
24132500	0.331024224	-0.105861976
24198000	0.31948384	-0.12261572
24263500	0.316535584	-0.144620656
24329000	0.30957968	-0.162002608
24394500	0.298712192	-0.180314896
24460000	0.290770656	-0.201568752
24525500	0.278729792	-0.214829952
24591000	0.266383744	-0.236029248
24656500	0.255279808	-0.255150832
24722000	0.240971472	-0.26456192
24787500	0.22346176	-0.284432576
24853000	0.21025304	-0.300955552
24918500	0.193934704	-0.307527936
24984000	0.173246352	-0.323742464
25049500	0.157234144	-0.336949088
25115000	0.138976672	-0.34333088
25180500	0.11472292	-0.354272352
25246000	0.097960864	-0.362919936
25311500	0.07465664	-0.368828704
25377000	0.051400672	-0.3764144
25442500	0.031334482	-0.38036
25508000	0.005074913	-0.380985216
25573500	-0.01837214	-0.387789504
25639000	-0.038289784	-0.385355904
25704500	-0.064387248	-0.381900192
25770000	-0.091035096	-0.384621344
25835500	-0.112192088	-0.377226368
25901000	-0.136666032	-0.369105728
25966500	-0.162093024	-0.364977088
26032000	-0.184288928	-0.353730624
26097500	-0.207393056	-0.343397344
26163000	-0.230320224	-0.3312992
26228500	-0.251657872	-0.31472928
26294000	-0.278569664	-0.301071328
26359500	-0.293224256	-0.283259136
26425000	-0.312991456	-0.26343688
26490500	-0.326156544	-0.243384032
26556000	-0.341651328	-0.221056816
26621500	-0.363547456	-0.19604256
26687000	-0.369363616	-0.175112512
26752500	-0.380588576	-0.150080496
26818000	-0.392023872	-0.122568656
26883500	-0.396129568	-0.097199296
26949000	-0.404909824	-0.068930776
27014500	-0.40735136	-0.043868668
27080000	-0.408240928	-0.016475125
27145500	-0.410713024	0.017171568
27211000	-0.407122496	0.03732016
27276500	-0.403386464	0.064901456
27342000	-0.398386208	0.098692464
27407500	-0.390644192	0.116859048
27473000	-0.381833696	0.143473104
27538500	-0.370717248	0.172645968
27604000	-0.358890688	0.191384144
27669500	-0.345217408	0.216357792
27735000	-0.329856608	0.237970704
27800500	-0.312681312	0.257868112
27866000	-0.291933504	0.281298848
27931500	-0.275469856	0.296392768
27997000	-0.25131256	0.316117248
28062500	-0.22570296	0.334756448
28128000	-0.207627984	0.344292576
28193500	-0.183586256	0.35765056
28259000	-0.158630832	0.36862624
28324500	-0.135733952	0.375576256
28390000	-0.1080742	0.384244576
28455500	-0.085088456	0.388617984
28521000	-0.05959664	0.392448672
28586500	-0.028924236	0.394493184
28652000	-0.009837888	0.3941424
28717500	0.01604504	0.393828288
28783000	0.046415784	0.390399648
28848500	0.063971824	0.385665312
28914000	0.08918404	0.38070448
28979500	0.115474144	0.372334688
29045000	0.133047952	0.364073664
29110500	0.157532432	0.354922784
29176000	0.17742536	0.343467808
29241500	0.197597968	0.331344224
29307000	0.220095088	0.314678816
29372500	0.234214	0.30375312
29438000	0.253606944	0.288012864
29503500	0.27346752	0.266793632
29569000	0.283438752	0.25532016
29634500	0.299851392	0.236579184
29700000	0.315712128	0.212656272
