# Hz S RI R 50
28000000	0.188314832	-0.183289984
28017000	0.186153536	-0.18790584
28034000	0.186933408	-0.190531104
28051000	0.189342528	-0.188198576
28068000	0.18558152	-0.194735648
28085000	0.186534608	-0.196788032
28102000	0.190390544	-0.193782688
28119000	0.184636432	-0.201545104
28136000	0.185530864	-0.204106576
28153000	0.189244704	-0.202230624
28170000	0.183683824	-0.209866288
28187000	0.18428384	-0.211740256
28204000	0.184558384	-0.213388816
28221000	0.18253816	-0.218450288
28238000	0.185030624	-0.219468336
28255000	0.180811104	-0.224150864
28272000	0.18064568	-0.228273552
28289000	0.186836672	-0.228939504
28306000	0.17794432	-0.234159536
28323000	0.177453824	-0.238430336
28340000	0.183494208	-0.23957368
28357000	0.173920864	-0.245527872
28374000	0.173493824	-0.249046656
28391000	0.1762248	-0.251664848
28408000	0.169462112	-0.256483344
28425000	0.169196048	-0.259748992
28442000	0.166561104	-0.263694848
28459000	0.163749136	-0.268413456
28476000	0.167859584	-0.273125056
28493000	0.159521456	-0.275495168
28510000	0.15704728	-0.280342592
28527000	0.162019392	-0.285848352
28544000	0.15113448	-0.28774592
28561000	0.149079184	-0.291950688
28578000	0.152270032	-0.297793984
28595000	0.142153184	-0.29933808
28612000	0.140051488	-0.30355472
28629000	0.13802552	-0.30799392
28646000	0.132003504	-0.311184608
28663000	0.131730616	-0.316557184
28680000	0.125352232	-0.318586944
28697000	0.12075548	-0.322751488
28714000	0.122133504	-0.331270016
28731000	0.112406272	-0.329490112
28748000	0.108449208	-0.333371232
28765000	0.109286008	-0.34168
28782000	0.099080856	-0.339843232
28799000	0.095117264	-0.343492224
28816000	0.092678976	-0.34979216
28833000	0.084479792	-0.34918592
28850000	0.08114728	-0.35332656
28867000	0.075319488	-0.355996
28884000	0.069367152	-0.35854032
28901000	0.0661356	-0.366064128
28918000	0.05874694	-0.363720576
28935000	0.05342416	-0.366665184
28952000	0.04981392	-0.375301024
28969000	0.041947208	-0.37088416
28986000	0.036404796	-0.373732608
29003000	0.032084496	-0.381137568
29020000	0.024141162	-0.376940416
29037000	0.018913288	-0.3798448
29054000	0.012981421	-0.382849184
29071000	0.006047861	-0.38255296
29088000	0.000089493	-0.387300768
29105000	-0.006173381	-0.38552864
29122000	-0.012644146	-0.38693312
29139000	-0.020089218	-0.394057184
29156000	-0.025395792	-0.388691168
29173000	-0.031787384	-0.39007168
29190000	-0.039054884	-0.396328
29207000	-0.045119376	-0.390614848
29224000	-0.051351436	-0.391885024
29241000	-0.058777896	-0.395179488
29258000	-0.064930888	-0.391690848
29275000	-0.07142452	-0.393095648
29292000	-0.078257448	-0.392162816
29309000	-0.085171552	-0.391590848
29326000	-0.09394384	-0.394581248
29343000	-0.098409528	-0.390883232
29360000	-0.105357624	-0.39019952
29377000	-0.114742144	-0.393772768
29394000	-0.118794856	-0.388014368
29411000	-0.125660824	-0.387475904
29428000	-0.134746544	-0.389750336
29445000	-0.139266624	-0.384346176
29462000	-0.146243136	-0.38356112
29479000	-0.153425232	-0.382355648
29496000	-0.159439296	-0.379165696
29513000	-0.167910448	-0.378972192
29530000	-0.172802528	-0.375610688
29547000	-0.179717728	-0.373186304
29564000	-0.19	-0.373318208
29581000	-0.192731648	-0.367983296
29598000	-0.199487648	-0.36574848
29615000	-0.209194368	-0.365528192
29632000	-0.212136128	-0.359648608
29649000	-0.218880832	-0.357035008
29666000	-0.22704328	-0.354907616
29683000	-0.231093392	-0.349962912
29700000	-0.238075008	-0.347112096
