# Hz S RI R 50
24890000	-0.093944632	0.521549408
24891000	-0.094800896	0.519435776
24892000	-0.093113392	0.521842528
24893000	-0.097606784	0.520536064
24894000	-0.092801024	0.519371744
24895000	-0.091343064	0.521671936
24896000	-0.09614108	0.520275296
24897000	-0.091258456	0.520063392
24898000	-0.08993144	0.522037024
24899000	-0.092194952	0.520148992
24900000	-0.08885068	0.520395232
24901000	-0.088453776	0.521196064
24902000	-0.089038144	0.52019776
24903000	-0.087258288	0.522138592
24904000	-0.090257112	0.52099776
24905000	-0.087169	0.51996
24906000	-0.08556552	0.522219776
24907000	-0.090440144	0.520965152
24908000	-0.0855222	0.520568
24909000	-0.087974232	0.521191584
24910000	-0.08464568	0.51980288
24911000	-0.082714264	0.52202016
24912000	-0.08767664	0.520829376
24913000	-0.08294668	0.520567424
24914000	-0.08128336	0.522434304
24915000	-0.084667848	0.520776448
24916000	-0.08080932	0.52067136
24917000	-0.079634072	0.522161536
24918000	-0.08072224	0.520435392
24919000	-0.078321712	0.522099552
24920000	-0.08044756	0.521516032
24921000	-0.07881196	0.520478176
24922000	-0.077011144	0.52276416
24923000	-0.081818408	0.521666816
24924000	-0.077104528	0.520951104
24925000	-0.075314392	0.523021504
24926000	-0.079971408	0.5215184
24927000	-0.075545576	0.520935424
24928000	-0.073794456	0.52278752
24929000	-0.07579348	0.521148576
24930000	-0.072938888	0.52202528
24931000	-0.072774688	0.52245296
24932000	-0.073468752	0.520773184
24933000	-0.071159048	0.522711648
24934000	-0.075279448	0.522125056
24935000	-0.071537512	0.52126176
24936000	-0.06941628	0.52317296
24937000	-0.074536592	0.52208208
24938000	-0.070006032	0.521235232
24939000	-0.068119648	0.52305056
24940000	-0.071053328	0.521737824
24941000	-0.067678544	0.521838496
24942000	-0.066176644	0.523109856
24943000	-0.067756376	0.521382688
24944000	-0.06519174	0.522490976
24945000	-0.067227976	0.522385888
24946000	-0.065713464	0.521616352
24947000	-0.06374774	0.52358336
24948000	-0.068636712	0.522480832
24949000	-0.064350716	0.521395136
24950000	-0.062227592	0.523224704
24951000	-0.066512408	0.522329152
24952000	-0.0625576	0.521971104
24953000	-0.060650692	0.523337472
24954000	-0.062832216	0.521935232
24955000	-0.059846344	0.5221736
24956000	-0.060311168	0.522659008
24957000	-0.06036506	0.521775776
24958000	-0.057985684	0.52364688
24959000	-0.061933916	0.522687744
24960000	-0.05858236	0.521677984
24961000	-0.056282192	0.523425632
24962000	-0.06136016	0.5226696
24963000	-0.05696134	0.522007872
24964000	-0.05480652	0.523748224
24965000	-0.058027728	0.522381664
24966000	-0.054430712	0.521919424
24967000	-0.053219568	0.522858336
24968000	-0.054290292	0.522145216
24969000	-0.052146648	0.523249344
24970000	-0.054580716	0.5228064
24971000	-0.052951824	0.521648704
24972000	-0.050638852	0.523592064
24973000	-0.055506004	0.522846112
24974000	-0.051158984	0.522354432
24975000	-0.048793292	0.523741472
24976000	-0.053144128	0.522548544
24977000	-0.049454744	0.521913696
24978000	-0.04748558	0.523432128
24979000	-0.049498708	0.522244096
24980000	-0.04664434	0.522709504
24981000	-0.046875576	0.522833472
24982000	-0.047298456	0.521707488
24983000	-0.04491722	0.523331872
24984000	-0.049021744	0.522904704
24985000	-0.045424752	0.522239968
24986000	-0.042983104	0.523602304
24987000	-0.048109748	0.522868224
24988000	-0.04381274	0.521832832
24989000	-0.04161272	0.52339328
24990000	-0.0445145	0.522470048
