# Hz S RI R 50
21000000	0.232205392	-0.304988128
21004500	0.239532096	-0.302171392
21009000	0.231568592	-0.306844544
21013500	0.232771584	-0.30669808
21018000	0.235859504	-0.3072392
21022500	0.227145856	-0.30884208
21027000	0.238102992	-0.30734144
21031500	0.2294192	-0.310219296
21036000	0.224493328	-0.311766848
21040500	0.237113664	-0.309612128
21045000	0.228597792	-0.313623456
21049500	0.226013872	-0.314446368
21054000	0.234921888	-0.314582848
21058500	0.227520944	-0.3168104
21063000	0.233387344	-0.316845248
21067500	0.229663072	-0.318658592
21072000	0.223804944	-0.320266464
21076500	0.233382576	-0.319898464
21081000	0.224603728	-0.321774368
21085500	0.219842576	-0.322827712
21090000	0.232574144	-0.322661888
21094500	0.223369808	-0.325427296
21099000	0.218347392	-0.32630624
21103500	0.230876112	-0.326969248
21108000	0.222070192	-0.328695264
21112500	0.224058144	-0.329815488
21117000	0.227370208	-0.330909344
21121500	0.22070488	-0.332464576
21126000	0.22760368	-0.33316864
21130500	0.219624704	-0.33411168
21135000	0.215378624	-0.335082944
21139500	0.226644672	-0.336161632
21144000	0.217449488	-0.33759216
21148500	0.21233896	-0.33825952
21153000	0.224930608	-0.340657184
21157500	0.215755344	-0.34117392
21162000	0.213763984	-0.342568704
21166500	0.222502608	-0.343904672
21171000	0.214730896	-0.345012384
21175500	0.219897696	-0.346848096
21180000	0.215028816	-0.347177152
21184500	0.210455696	-0.347890656
21189000	0.2195928	-0.349960352
21193500	0.21047192	-0.350133408
21198000	0.20569064	-0.350655328
21202500	0.217431264	-0.3544928
21207000	0.208609792	-0.35390784
21211500	0.20354024	-0.35432064
21216000	0.215859408	-0.357285632
21220500	0.207000864	-0.3577888
21225000	0.208082384	-0.3598048
21229500	0.209856464	-0.361371904
21234000	0.204362416	-0.361341824
21238500	0.21130208	-0.364559744
21243000	0.20399192	-0.363843296
21247500	0.19864808	-0.36394512
21252000	0.20893488	-0.368463168
21256500	0.20020056	-0.366954944
21261000	0.195300448	-0.36749568
21265500	0.20714096	-0.371646816
21270000	0.198065296	-0.370978688
21274500	0.195884176	-0.372323904
21279000	0.203069056	-0.37587568
21283500	0.195713776	-0.375025792
21288000	0.201018512	-0.378849632
21292500	0.19666136	-0.37813056
21297000	0.191326816	-0.377864064
21301500	0.199381952	-0.38236288
21306000	0.190779104	-0.380173472
21310500	0.185826208	-0.380233024
21315000	0.197087328	-0.385837248
21319500	0.188255104	-0.384256736
21324000	0.18317344	-0.383986816
21328500	0.193473632	-0.390332128
21333000	0.185502384	-0.388127968
21337500	0.186744528	-0.39113808
21342000	0.188808256	-0.3930032
21346500	0.182410144	-0.392111872
21351000	0.187681664	-0.396706944
21355500	0.180473328	-0.393699648
21360000	0.175893792	-0.393892
21364500	0.185484992	-0.400144384
21369000	0.177145536	-0.39739952
21373500	0.171867024	-0.397151968
21378000	0.181573776	-0.404521216
21382500	0.173956928	-0.40126784
21387000	0.171365312	-0.402775904
21391500	0.17801984	-0.40772944
21396000	0.170864736	-0.405626112
21400500	0.17427256	-0.410426944
21405000	0.169930704	-0.40838976
21409500	0.164913952	-0.407491456
21414000	0.17225776	-0.414077088
21418500	0.164689232	-0.410616384
21423000	0.159358112	-0.409948096
21427500	0.1680692	-0.41807312
21432000	0.161018816	-0.414328608
21436500	0.155843856	-0.413900128
21441000	0.165091568	-0.421853152
21445500	0.157700064	-0.418533856
21450000	0.157531216	-0.421915488
