# Hz S RI R 50
18068000	0.20359576	0.413849568
18069000	0.202486336	0.414124096
18070000	0.202528544	0.413319712
18071000	0.20553856	0.413539424
18072000	0.20660312	0.412628096
18073000	0.203386896	0.412397056
18074000	0.201559344	0.411764608
18075000	0.20789616	0.412076032
18076000	0.204639392	0.412198848
18077000	0.202998656	0.4111344
18078000	0.208748928	0.411170816
18079000	0.205909648	0.410875744
18080000	0.20789632	0.410647776
18081000	0.20768712	0.410382272
18082000	0.206358624	0.41016656
18083000	0.210978416	0.410436704
18084000	0.207852704	0.410271104
18085000	0.206048496	0.40952848
18086000	0.212338688	0.410013024
18087000	0.208839488	0.40972272
18088000	0.207035248	0.409210144
18089000	0.213698624	0.409140576
18090000	0.210287136	0.409098656
18091000	0.210462032	0.408578464
18092000	0.213365632	0.408402432
18093000	0.211300816	0.408356768
18094000	0.215210336	0.408053504
18095000	0.212152208	0.407908896
18096000	0.211235264	0.40730624
18097000	0.216736272	0.407730208
18098000	0.213364496	0.40737616
18099000	0.211521104	0.407001312
18100000	0.217762208	0.407035744
18101000	0.214549072	0.40711376
18102000	0.21278912	0.4063752
18103000	0.219015856	0.406492608
18104000	0.216023952	0.40639888
18105000	0.217546976	0.405828928
18106000	0.217543024	0.405493472
18107000	0.216118224	0.405240416
18108000	0.220743008	0.40539904
18109000	0.217591152	0.405273408
18110000	0.216118672	0.405057376
18111000	0.22238496	0.40470656
18112000	0.218938352	0.404872608
18113000	0.217042928	0.404499968
18114000	0.223449952	0.404428448
18115000	0.220236656	0.404434624
18116000	0.220434528	0.403615936
18117000	0.223148128	0.40338432
18118000	0.221266688	0.40347968
18119000	0.225152912	0.403344704
18120000	0.221952384	0.403181664
18121000	0.221075168	0.403112
18122000	0.226718896	0.402883136
18123000	0.223332272	0.4030696
18124000	0.22165792	0.402730112
18125000	0.227906336	0.402479104
18126000	0.224673472	0.402655072
18127000	0.223354464	0.402248992
18128000	0.228926688	0.40170496
18129000	0.226140896	0.401796448
18130000	0.228555344	0.401273696
18131000	0.227792592	0.401107616
18132000	0.226399216	0.401220192
18133000	0.231282	0.4008344
18134000	0.2278376	0.400992832
18135000	0.22621912	0.400778272
18136000	0.232314928	0.400378496
18137000	0.228985696	0.400575008
18138000	0.227273728	0.40040768
18139000	0.233710992	0.3997472
18140000	0.23042264	0.399887392
18141000	0.230733056	0.399295168
18142000	0.233359744	0.398945824
18143000	0.231393072	0.399052448
18144000	0.235149168	0.398563424
18145000	0.232256256	0.398717728
18146000	0.231168832	0.398337536
18147000	0.237001712	0.398160704
18148000	0.233611712	0.398176928
18149000	0.23197392	0.398193344
18150000	0.238028784	0.397192608
18151000	0.234727568	0.397576416
18152000	0.233450784	0.39719824
18153000	0.238894144	0.396704736
18154000	0.236153216	0.396888928
18155000	0.238152912	0.396192448
18156000	0.237499728	0.396108672
18157000	0.236203776	0.395937728
18158000	0.241188928	0.39561184
18159000	0.237785728	0.395765056
18160000	0.236224768	0.395697792
18161000	0.242268624	0.39479952
18162000	0.238986432	0.395183968
18163000	0.237299376	0.395130528
18164000	0.243585296	0.39428096
18165000	0.240309408	0.394508832
18166000	0.240703232	0.393831552
18167000	0.242991936	0.393496864
18168000	0.241016528	0.393683872
