# Hz S RI R 50
14000000	0.07028196	-0.241665056
14003500	0.069397032	-0.237448192
14007000	0.070995	-0.243446432
14010500	0.069981544	-0.238559008
14014000	0.070044952	-0.24032824
14017500	0.07078472	-0.245469776
14021000	0.069124512	-0.238399936
14024500	0.070371144	-0.241899776
14028000	0.070559016	-0.248631152
14031500	0.069834128	-0.242114
14035000	0.0706786	-0.246176272
14038500	0.070078392	-0.249797952
14042000	0.069797552	-0.246237088
14045500	0.071240704	-0.251502816
14049000	0.070782144	-0.250192464
14052500	0.070569072	-0.249239952
14056000	0.07048784	-0.25498104
14059500	0.07057368	-0.247949648
14063000	0.070889872	-0.251034224
14066500	0.070674064	-0.25782552
14070000	0.07098348	-0.250687088
14073500	0.070811024	-0.254584944
14077000	0.070299984	-0.259396944
14080500	0.069945304	-0.254450112
14084000	0.071016256	-0.258859488
14087500	0.070460088	-0.261781152
14091000	0.070246368	-0.258286864
14094500	0.070553408	-0.264198128
14098000	0.071602632	-0.260018352
14101500	0.070748544	-0.260406768
14105000	0.070152536	-0.267526176
14108500	0.0715754	-0.25999
14112000	0.0707414	-0.26422832
14115500	0.069756192	-0.269246688
14119000	0.070876512	-0.263611472
14122500	0.070388664	-0.266580048
14126000	0.068898352	-0.271818048
14129500	0.070092456	-0.26794112
14133000	0.069856864	-0.273435456
14136500	0.070299248	-0.272466272
14140000	0.070130744	-0.270559008
14143500	0.06895508	-0.277707616
14147000	0.071376352	-0.271538208
14150500	0.07006308	-0.273810112
14154000	0.068494304	-0.279573728
14157500	0.071088096	-0.273587968
14161000	0.069930416	-0.276028064
14164500	0.067876736	-0.28293712
14168000	0.070026256	-0.277424928
14171500	0.068642232	-0.282365664
14175000	0.067871432	-0.284543232
14178500	0.068835704	-0.281031328
14182000	0.067330536	-0.288179264
14185500	0.070059536	-0.28469008
14189000	0.068450264	-0.284550528
14192500	0.066798532	-0.290518624
14196000	0.070122768	-0.284799392
14199500	0.068473096	-0.286759872
14203000	0.065798624	-0.29384176
14206500	0.069015776	-0.288864192
14210000	0.067150424	-0.291812704
14213500	0.065093072	-0.29561664
14217000	0.0670947	-0.291936864
14220500	0.065191584	-0.297991872
14224000	0.065907644	-0.298205664
14227500	0.074914416	-0.297016352
14231000	0.071403704	-0.304016032
14234500	0.073740488	-0.299864064
14238000	0.071315072	-0.304033536
14241500	0.07131764	-0.305334688
14245000	0.070886424	-0.302304896
14248500	0.067952888	-0.309956
14252000	0.072742112	-0.3066016
14255500	0.068818536	-0.306317888
14259000	0.066204256	-0.312373344
14262500	0.070636688	-0.309175392
14266000	0.067719224	-0.308776096
14269500	0.063682928	-0.31593792
14273000	0.06750956	-0.312910912
14276500	0.064288492	-0.31397296
14280000	0.062088116	-0.317941664
14283500	0.064364552	-0.314602368
14287000	0.060921656	-0.320547776
14290500	0.061802296	-0.32116352
14294000	0.061896396	-0.318400672
14297500	0.058302872	-0.324402464
14301000	0.06325826	-0.321883968
14304500	0.06042908	-0.321040224
14308000	0.055573232	-0.327878144
14311500	0.06119334	-0.32539872
14315000	0.057427112	-0.325391456
14318500	0.053986752	-0.330126176
14322000	0.05767558	-0.327655328
14325500	0.05441236	-0.330654592
14329000	0.052642844	-0.333570656
14332500	0.054535748	-0.330406208
14336000	0.050504252	-0.336423168
14339500	0.054275372	-0.336239296
14343000	0.05259404	-0.333811264
14346500	0.047528712	-0.34019392
14350000	0.05370062	-0.338482912
