# Hz S RI R 50
10100000	0.099120832	0.470685856
10100500	0.09957844	0.464117248
10101000	0.098800848	0.469080096
10101500	0.101318128	0.459306528
10102000	0.099607096	0.4655456
10102500	0.099282592	0.47052512
10103000	0.102303104	0.458932224
10103500	0.100200448	0.464437376
10104000	0.099633072	0.467435584
10104500	0.101797904	0.459012736
10105000	0.100302728	0.46537392
10105500	0.101733448	0.459456992
10106000	0.10158288	0.461439136
10106500	0.101127944	0.466889792
10107000	0.103112432	0.458347296
10107500	0.101720872	0.464927264
10108000	0.101651952	0.469497664
10108500	0.10409208	0.457732384
10109000	0.102546528	0.463709856
10109500	0.101432848	0.469102688
10110000	0.104298784	0.457757408
10110500	0.102446288	0.464106752
10111000	0.10292552	0.461957728
10111500	0.104145128	0.458872512
10112000	0.102389168	0.464202688
10112500	0.105115448	0.457287808
10113000	0.103908408	0.463551712
10113500	0.103993528	0.467695968
10114000	0.105982768	0.456911584
10114500	0.104235816	0.46297024
10115000	0.103845976	0.468391072
10115500	0.10651512	0.457029952
10116000	0.105186744	0.463239424
10116500	0.104614072	0.464886784
10117000	0.107207184	0.456892832
10117500	0.105599112	0.462483296
10118000	0.106538352	0.457160704
10118500	0.10629952	0.460913056
10119000	0.105709312	0.464936704
10119500	0.108380456	0.4560464
10120000	0.107084192	0.462366976
10120500	0.106898368	0.467533216
10121000	0.108952336	0.456115808
10121500	0.107783248	0.462365056
10122000	0.107250536	0.467250912
10122500	0.10968968	0.455584032
10123000	0.10808716	0.461504544
10123500	0.108567592	0.459651456
10124000	0.109164504	0.458067936
10124500	0.107695016	0.464929664
10125000	0.110464264	0.455488704
10125500	0.109520864	0.460401568
10126000	0.108014864	0.466721728
10126500	0.111155336	0.455538208
10127000	0.11002268	0.462182976
10127500	0.109149736	0.467184096
10128000	0.1122234	0.454778624
10128500	0.110687056	0.461114048
10129000	0.110224208	0.462692512
10129500	0.111931096	0.455505184
10130000	0.11014356	0.463208832
10130500	0.112366144	0.455194656
10131000	0.111995128	0.45791616
10131500	0.110342328	0.464650112
10132000	0.113543704	0.454860032
10132500	0.112565616	0.461854656
10133000	0.111731248	0.466014656
10133500	0.11443804	0.454083392
10134000	0.113134528	0.460276352
10134500	0.112586128	0.464701728
10135000	0.114893832	0.454528576
10135500	0.113328696	0.460958368
10136000	0.113935784	0.457692064
10136500	0.114878616	0.455516
10137000	0.112732	0.463202112
10137500	0.115789256	0.454034528
10138000	0.121260584	0.466010112
10138500	0.1218628	0.456705312
10139000	0.121218128	0.462008064
10139500	0.121323288	0.465277568
10140000	0.122225992	0.456213632
10140500	0.121140216	0.461078496
10141000	0.121115656	0.459101952
10141500	0.121370936	0.458589504
10142000	0.121562392	0.46228768
10142500	0.121901792	0.455606624
10143000	0.1212906	0.460006624
10143500	0.121792552	0.46440624
10144000	0.122124136	0.455313472
10144500	0.12160924	0.460933152
10145000	0.12186948	0.465452192
10145500	0.122934352	0.454626368
10146000	0.121872616	0.459922688
10146500	0.121747936	0.461174528
10147000	0.122489256	0.45529376
10147500	0.121981424	0.460794272
10148000	0.122709288	0.454542432
10148500	0.122614568	0.457736864
10149000	0.12305088	0.462779392
10149500	0.12360672	0.454138944
10150000	0.12308224	0.459996576
