# Hz S RI R 50
7000000	0.186701424	-0.281686976
7003000	0.176722848	-0.295365696
7006000	0.184256368	-0.285920256
7009000	0.181074784	-0.289931552
7012000	0.17320928	-0.302048704
7015000	0.180494016	-0.292340448
7018000	0.177027184	-0.29774432
7021000	0.174372976	-0.303056416
7024000	0.176563056	-0.299094816
7027000	0.173122176	-0.304647648
7030000	0.173709504	-0.303429664
7033000	0.169686768	-0.307010368
7036000	0.163874528	-0.315991904
7039000	0.169678752	-0.30874208
7042000	0.166164368	-0.31301408
7045000	0.157224928	-0.324556832
7048000	0.16551352	-0.31444496
7051000	0.161986432	-0.319747616
7054000	0.154606832	-0.328362528
7057000	0.160854832	-0.320209216
7060000	0.15795296	-0.325011488
7063000	0.157098704	-0.325733472
7066000	0.1544448	-0.327210784
7069000	0.14986312	-0.33501536
7072000	0.15339736	-0.32922272
7075000	0.149671184	-0.332292416
7078000	0.140824464	-0.343648096
7081000	0.148847376	-0.334126784
7084000	0.1450536	-0.339351104
7087000	0.135650432	-0.350315776
7090000	0.143782896	-0.339266016
7093000	0.140874384	-0.343861536
7096000	0.13613672	-0.348207968
7099000	0.138325936	-0.345347456
7102000	0.133319128	-0.350221856
7105000	0.135612864	-0.347637088
7108000	0.132194488	-0.350270464
7111000	0.122464504	-0.359124544
7114000	0.1307306	-0.35196416
7117000	0.125626144	-0.356664352
7120000	0.132760432	-0.361441088
7123000	0.131549288	-0.36177408
7126000	0.123196256	-0.36823824
7129000	0.130294368	-0.363698432
7132000	0.1254832	-0.366159392
7135000	0.11086368	-0.373485728
7138000	0.125089112	-0.367312832
7141000	0.117986728	-0.371831648
7144000	0.104608848	-0.379597536
7147000	0.119040624	-0.371141696
7150000	0.11404616	-0.376115616
7153000	0.106788384	-0.378665344
7156000	0.112871104	-0.376120064
7159000	0.10505096	-0.380078912
7162000	0.109228032	-0.377709312
7165000	0.10499892	-0.379852608
7168000	0.09147828	-0.386386528
7171000	0.104571904	-0.381131808
7174000	0.09683156	-0.385852224
7177000	0.084915048	-0.391419584
7180000	0.098406768	-0.383890016
7183000	0.093206104	-0.388081536
7186000	0.08118304	-0.393036768
7189000	0.092482288	-0.3876408
7192000	0.084752544	-0.391260128
7195000	0.084695312	-0.3915992
7198000	0.084981576	-0.393108352
7201000	0.073103064	-0.396731296
7204000	0.082672384	-0.392872384
7207000	0.07480272	-0.395574944
7210000	0.063485304	-0.399171168
7213000	0.07738256	-0.39448064
7216000	0.071307792	-0.398760096
7219000	0.0556009	-0.403538592
7222000	0.071358232	-0.398697632
7225000	0.06412536	-0.4018264
7228000	0.057593088	-0.403527648
7231000	0.064796248	-0.40081056
7234000	0.05843606	-0.404940192
7237000	0.06170364	-0.40259456
7240000	0.054542944	-0.404365088
7243000	0.043758492	-0.407217696
7246000	0.056234552	-0.404230624
7249000	0.049960112	-0.407715712
7252000	0.034922256	-0.412048928
7255000	0.0504877	-0.406683456
7258000	0.042774376	-0.41062384
7261000	0.03051986	-0.412603264
7264000	0.044678008	-0.408789632
7267000	0.037543336	-0.413261024
7270000	0.037060368	-0.412161536
7273000	0.03535064	-0.412080032
7276000	0.027128502	-0.41465184
7279000	0.035499676	-0.412633472
7282000	0.028834124	-0.414941536
7285000	0.014068854	-0.41688592
7288000	0.029708666	-0.414852224
7291000	0.020691644	-0.417790176
7294000	0.007862423	-0.419420096
7297000	0.024422038	-0.416016256
7300000	0.016912508	-0.420060288
