# Hz S RI R 50
3500000	0.694298432	0.240520592
3505000	0.695747584	0.233864464
3510000	0.697629184	0.233417776
3515000	0.698780992	0.226139376
3520000	0.70126496	0.22233624
3525000	0.702461696	0.222856112
3530000	0.703391936	0.215145168
3535000	0.70499296	0.20987808
3540000	0.70705792	0.212221232
3545000	0.70786368	0.20422144
3550000	0.710789696	0.199626112
3555000	0.711535552	0.200836784
3560000	0.712482368	0.19322264
3565000	0.714183552	0.191780656
3570000	0.715240192	0.187383168
3575000	0.717091072	0.18267368
3580000	0.717944064	0.179422256
3585000	0.71932832	0.175115072
3590000	0.720858048	0.174866816
3595000	0.72160384	0.167058608
3600000	0.723456448	0.162202272
3605000	0.724794624	0.163644032
3610000	0.724846208	0.155374352
3615000	0.726655872	0.14914248
3620000	0.728249408	0.152432752
3625000	0.728297024	0.144059376
3630000	0.731002176	0.139917248
3635000	0.731544448	0.139370304
3640000	0.731457856	0.133078696
3645000	0.733825088	0.133265512
3650000	0.733365952	0.124858424
3655000	0.735550848	0.120629184
3660000	0.737385664	0.121422688
3665000	0.73585152	0.112636528
3670000	0.737820096	0.106497216
3675000	0.74001248	0.10981812
3680000	0.73851104	0.100811232
3685000	0.740392832	0.095557104
3690000	0.742628992	0.097988464
3695000	0.741160256	0.089703272
3700000	0.743834496	0.08832168
3705000	0.74348192	0.083207216
3710000	0.744317888	0.077846528
3715000	0.746619456	0.07842832
3720000	0.744714112	0.069827224
3725000	0.745018752	0.065150472
3730000	0.74892896	0.066627816
3735000	0.745719104	0.057438252
3740000	0.747140096	0.051228036
3745000	0.750693888	0.054609364
3750000	0.747695296	0.045954428
3755000	0.74886624	0.041634784
3760000	0.751475264	0.040804956
3765000	0.749657024	0.034766432
3770000	0.753487744	0.03461498
3775000	0.750212416	0.02588081
3780000	0.751031296	0.021763998
3785000	0.755020032	0.022734488
3790000	0.750848896	0.013870923
3795000	0.74911776	0.007320642
3800000	0.756254848	0.010504627
3805000	0.751270528	0.001803343
3810000	0.750438656	-0.003982613
3815000	0.75702976	-0.001953187
3820000	0.752226944	-0.009593442
3825000	0.754958592	-0.012957445
3830000	0.75448896	-0.016198189
3835000	0.753808704	-0.021425168
3840000	0.758117056	-0.02266764
3845000	0.752256576	-0.02980779
3850000	0.751976384	-0.035281964
3855000	0.758425664	-0.034773544
3860000	0.752478336	-0.042038596
3865000	0.749431168	-0.047502524
3870000	0.758773248	-0.046855988
3875000	0.752435776	-0.053812128
3880000	0.752398976	-0.057995296
3885000	0.756647424	-0.060028772
3890000	0.752218432	-0.065891772
3895000	0.75821408	-0.068278208
3900000	0.751039296	-0.073761016
3905000	0.752127616	-0.078274896
3910000	0.7578592	-0.080041816
3915000	0.750298816	-0.085249912
3920000	0.747374208	-0.089912888
3925000	0.757058816	-0.092553528
3930000	0.749279232	-0.097225664
3935000	0.746829824	-0.100467216
3940000	0.756463168	-0.104996568
3945000	0.749075904	-0.109188824
3950000	0.7517024	-0.112636904
3955000	0.749925184	-0.117180352
3960000	0.74822912	-0.121895928
3965000	0.75365088	-0.125544368
3970000	0.745547584	-0.128019336
3975000	0.744279808	-0.131632584
3980000	0.752071488	-0.138094448
3985000	0.744227776	-0.139937344
3990000	0.741925632	-0.144299376
3995000	0.749830592	-0.15014904
4000000	0.742641344	-0.151032592
