# Hz S RI R 50
3500000	0.693941504	0.239191376
3565500	0.713543936	0.188545424
3631000	0.731304896	0.141323872
3696500	0.742700224	0.089977984
3762000	0.750353984	0.035798508
3827500	0.758650688	-0.011664801
3893000	0.7526944	-0.067672576
3958500	0.74482432	-0.117830856
4024000	0.747342656	-0.172874144
4089500	0.731252928	-0.220243664
4155000	0.716505664	-0.270686848
4220500	0.69984192	-0.327433952
4286000	0.674971648	-0.37327792
4351500	0.646696832	-0.42108144
4417000	0.61445344	-0.467888768
4482500	0.579494208	-0.509675456
4548000	0.537332864	-0.550606336
4613500	0.498553056	-0.586104384
4679000	0.451145248	-0.622513664
4744500	0.401999168	-0.648325248
4810000	0.350690304	-0.67635712
4875500	0.290433216	-0.696758528
4941000	0.232690464	-0.714144256
5006500	0.173878496	-0.725143104
5072000	0.116087696	-0.727119424
5137500	0.054463608	-0.725846464
5203000	-0.008397705	-0.718267776
5268500	-0.060923048	-0.703790208
5334000	-0.12014624	-0.684515712
5399500	-0.176016336	-0.65922176
5465000	-0.227056432	-0.628835392
5530500	-0.280763296	-0.588612288
5596000	-0.323049088	-0.546454528
5661500	-0.364337504	-0.492523968
5727000	-0.3961184	-0.431588512
5792500	-0.421133152	-0.378728192
5858000	-0.436453376	-0.309246688
5923500	-0.436586432	-0.236000448
5989000	-0.431821152	-0.181123312
6054500	-0.40904688	-0.115426648
6120000	-0.37946432	-0.058751384
6185500	-0.351699264	-0.015441725
6251000	-0.304136704	0.030574572
6316500	-0.260113632	0.064655572
6382000	-0.201544832	0.09009916
6447500	-0.133222968	0.107265488
6513000	-0.077902608	0.112964968
6578500	-0.007166071	0.0931402
6644000	0.0672726	0.055084704
6709500	0.104272144	0.020039402
6775000	0.1414284	-0.044891588
6840500	0.166696144	-0.123271816
6906000	0.162691728	-0.17306768
6971500	0.147498	-0.240737184
7037000	0.119451336	-0.296530592
7102500	0.080117104	-0.335006432
7168000	0.034180148	-0.380059584
7233500	-0.002637471	-0.386323136
7299000	-0.047859264	-0.407439808
7364500	-0.106609416	-0.425580512
7430000	-0.124928152	-0.424746336
7495500	-0.177742288	-0.429873632
7561000	-0.238700544	-0.424738912
7626500	-0.2566396	-0.423466912
7692000	-0.30872704	-0.408760832
7757500	-0.356751776	-0.3853824
7823000	-0.38261744	-0.370987168
7888500	-0.426433088	-0.338189728
7954000	-0.455378272	-0.319534848
8019500	-0.485663328	-0.28235536
8085000	-0.514158432	-0.230116848
8150500	-0.540579072	-0.214502208
8216000	-0.55678176	-0.164336928
8281500	-0.563146688	-0.103972656
8347000	-0.590151424	-0.089976832
8412500	-0.591985536	-0.038643496
8478000	-0.575869184	0.014029771
8543500	-0.601024832	0.0422151
8609000	-0.589310848	0.087492584
8674500	-0.585478464	0.127110704
8740000	-0.581528896	0.166384864
8805500	-0.559853952	0.204238992
8871000	-0.55756224	0.248494496
8936500	-0.529835584	0.27633152
9002000	-0.503310752	0.293567008
9067500	-0.498090944	0.354751072
9133000	-0.468911968	0.37464592
9198500	-0.44970464	0.381675616
9264000	-0.421760224	0.44379712
9329500	-0.384422624	0.443416864
9395000	-0.373215776	0.481274112
9460500	-0.33092368	0.51865776
9526000	-0.30320768	0.531754432
9591500	-0.260901184	0.557922432
9657000	-0.233679024	0.573462272
9722500	-0.205969744	0.589628096
9788000	-0.148151936	0.601373184
9853500	-0.12017088	0.612504192
9919000	-0.0873348	0.629090496
9984500	-0.03044635	0.622015424
10050000	0.003327521	0.631416064
10115500	0.042084096	0.636812928
10181000	0.091419672	0.620495872
10246500	0.130517168	0.621744064
10312000	0.171529984	0.61006496
10377500	0.21251904	0.597974336
10443000	0.253327216	0.587049216
10508500	0.290921472	0.56283584
10574000	0.330181472	0.54716704
10639500	0.368663744	0.530538208
10705000	0.3997032	0.496375424
10770500	0.436484352	0.472618912
10836000	0.472463328	0.446658816
10901500	0.495391424	0.406059424
10967000	0.525963424	0.372891488
11032500	0.552699008	0.336662432
11098000	0.569935104	0.295068192
11163500	0.591893952	0.254069328
11229000	0.602785856	0.211693056
11294500	0.617095872	0.167235312
11360000	0.628113984	0.121839688
11425500	0.628374784	0.079964232
11491000	0.631755328	0.032939464
11556500	0.633179072	-0.012505786
11622000	0.624216704	-0.053409224
11687500	0.616503296	-0.099518344
11753000	0.607292672	-0.144228592
11818500	0.588942592	-0.184780736
11884000	0.570088064	-0.227309744
11949500	0.547517184	-0.26647112
12015000	0.520281504	-0.30343696
12080500	0.490715808	-0.339897696
12146000	0.457156256	-0.36891168
12211500	0.421363488	-0.398226176
12277000	0.384264736	-0.4268832
12342500	0.343748032	-0.441394432
12408000	0.301376928	-0.458611168
12473500	0.25679144	-0.47599088
12539000	0.216208896	-0.476165472
12604500	0.170446512	-0.478193472
12670000	0.126303928	-0.476002336
12735500	0.089411808	-0.464374368
12801000	0.04872298	-0.44951584
12866500	0.015552923	-0.431878304
12932000	-0.016723037	-0.407719552
12997500	-0.045182712	-0.379899392
13063000	-0.064232276	-0.3542728
13128500	-0.077823248	-0.319363616
13194000	-0.086304528	-0.287785664
13259500	-0.089991312	-0.260108
13325000	-0.081617352	-0.230167248
13390500	-0.072232056	-0.208785168
13456000	-0.061801164	-0.189236144
13521500	-0.039984956	-0.176871328
13587000	-0.025798666	-0.17012664
13652500	-0.007084471	-0.168062448
13718000	0.007678633	-0.173343936
13783500	0.02012186	-0.177186736
13849000	0.033749616	-0.191109472
13914500	0.035859192	-0.197210528
13980000	0.044995288	-0.212413824
14045500	0.04927408	-0.2312264
14111000	0.050823152	-0.239174688
14176500	0.051716292	-0.260436832
14242000	0.047449264	-0.286312416
14307500	0.044922276	-0.302666912
14373000	0.032590106	-0.3291224
14438500	0.016255016	-0.354132096
14504000	-0.000250228	-0.374089248
14569500	-0.031668816	-0.398328096
14635000	-0.05847838	-0.41784176
14700500	-0.09051972	-0.428679296
14766000	-0.133129584	-0.437722016
14831500	-0.169375424	-0.443698784
14897000	-0.20600776	-0.440303808
14962500	-0.2508268	-0.430429376
15028000	-0.287514688	-0.42138768
15093500	-0.322072032	-0.404741472
15159000	-0.35838272	-0.382429952
15224500	-0.388528576	-0.362884224
15290000	-0.419084832	-0.333322848
15355500	-0.4472504	-0.305441312
15421000	-0.468738784	-0.278923616
15486500	-0.490178112	-0.241812944
15552000	-0.510739456	-0.209212976
15617500	-0.523750976	-0.1785104
15683000	-0.534310944	-0.138040192
15748500	-0.545601408	-0.10203204
15814000	-0.551566208	-0.0704396
15879500	-0.552415104	-0.031010908
15945000	-0.555709632	0.004173323
16010500	-0.55320864	0.038514596
16076000	-0.548112064	0.074559672
16141500	-0.545336256	0.106631328
16207000	-0.532582048	0.141051888
16272500	-0.523057472	0.175370224
16338000	-0.51485856	0.203980576
16403500	-0.4964448	0.233641616
16469000	-0.48159216	0.265506
16534500	-0.46862992	0.29251728
16600000	-0.447215616	0.317894752
16665500	-0.42678944	0.347397824
16731000	-0.408221184	0.371970528
16796500	-0.383333504	0.393576896
16862000	-0.359262432	0.418715488
16927500	-0.33213808	0.4369952
16993000	-0.30185504	0.456376192
17058500	-0.277912672	0.476578432
17124000	-0.247132384	0.48768064
17189500	-0.212566112	0.498217984
17255000	-0.185612432	0.516396896
17320500	-0.155292816	0.521834144
17386000	-0.121858344	0.524448992
17451500	-0.089164376	0.538634688
17517000	-0.05900554	0.539118528
17582500	-0.02591744	0.539613696
17648000	0.007467001	0.540860864
17713500	0.037120644	0.53679104
17779000	0.0745608	0.53559952
17844500	0.10225964	0.527433984
17910000	0.130616752	0.518716992
17975500	0.169137344	0.509125664
18041000	0.195211776	0.496920448
18106500	0.2215304	0.483603008
18172000	0.256598592	0.464421824
18237500	0.279588768	0.447875936
18303000	0.303627872	0.429553856
18368500	0.33087856	0.403867648
18434000	0.350522624	0.383456544
18499500	0.37189984	0.356823776
18565000	0.38885056	0.333649472
18630500	0.405716768	0.30999856
18696000	0.420041248	0.27851232
18761500	0.432859104	0.25584784
18827000	0.444926688	0.22989736
18892500	0.451031648	0.195929456
18958000	0.459437056	0.172241808
19023500	0.466170368	0.145378768
19089000	0.464266528	0.112786168
19154500	0.46846752	0.088543408
19220000	0.46654384	0.061025892
19285500	0.461625632	0.034258936
19351000	0.46066384	0.009721932
19416500	0.45117456	-0.015511691
19482000	0.44808624	-0.03888978
19547500	0.442438016	-0.06153156
19613000	0.426206016	-0.082235768
19678500	0.420001312	-0.103948632
19744000	0.412183424	-0.12432188
19809500	0.39195952	-0.137522272
19875000	0.382202976	-0.156475024
19940500	0.371493152	-0.173026032
20006000	0.352676672	-0.180125776
20071500	0.34157008	-0.194157552
20137000	0.327518624	-0.202443968
20202500	0.315614784	-0.210836608
20268000	0.304346432	-0.221699232
20333500	0.29145168	-0.2220908
20399000	0.283590976	-0.232344688
20464500	0.272883296	-0.241870432
20530000	0.267999584	-0.23706648
20595500	0.261771952	-0.249496688
20661000	0.252754992	-0.259683408
20726500	0.255390016	-0.25705648
20792000	0.248205344	-0.273357568
20857500	0.244166304	-0.282686656
20923000	0.244480752	-0.292994944
20988500	0.234113472	-0.308654048
21054000	0.235474128	-0.321016224
21119500	0.221749984	-0.338279424
21185000	0.208255184	-0.354396512
21250500	0.208393408	-0.3742136
21316000	0.187296848	-0.38916432
21381500	0.16747944	-0.405289216
21447000	0.161228352	-0.429586176
21512500	0.134747664	-0.441595264
21578000	0.109621	-0.456225984
21643500	0.091198456	-0.477955328
21709000	0.06173766	-0.485033408
21774500	0.034015492	-0.500819328
21840000	0.004109446	-0.507927296
21905500	-0.028486712	-0.509215712
21971000	-0.060883772	-0.520717856
22036500	-0.09241264	-0.5147792
22102000	-0.126538488	-0.507583328
22167500	-0.162846912	-0.514850144
22233000	-0.193191648	-0.5013128
22298500	-0.224983728	-0.485214432
22364000	-0.263500656	-0.48265824
22429500	-0.28949888	-0.463685856
22495000	-0.3218928	-0.44439392
22560500	-0.35437248	-0.427638464
22626000	-0.376949536	-0.403583168
22691500	-0.407506272	-0.379940544
22757000	-0.426369856	-0.3551728
22822500	-0.444409536	-0.325768864
22888000	-0.473262976	-0.296647552
22953500	-0.48671664	-0.269042432
23019000	-0.496265792	-0.236103248
23084500	-0.51926768	-0.201219968
23150000	-0.528275136	-0.17137536
23215500	-0.532425696	-0.136749616
23281000	-0.5452032	-0.0994734
23346500	-0.547867776	-0.067022904
23412000	-0.549064576	-0.029809972
23477500	-0.54928064	0.003121877
23543000	-0.544373248	0.036090868
23608500	-0.540558272	0.074307416
23674000	-0.533398816	0.1050236
23739500	-0.520736992	0.132152904
23805000	-0.510612832	0.172676464
23870500	-0.497765568	0.201322464
23936000	-0.48100672	0.225016272
24001500	-0.463116704	0.262619056
24067000	-0.44462048	0.287551264
24132500	-0.422882304	0.311783936
24198000	-0.399946432	0.339645504
24263500	-0.377312288	0.36133168
24329000	-0.349406496	0.383746688
24394500	-0.325086624	0.403782304
24460000	-0.299961856	0.419083776
24525500	-0.266083264	0.436974592
24591000	-0.238217376	0.452921184
24656500	-0.211428896	0.461828832
24722000	-0.17380696	0.473355168
24787500	-0.14266928	0.482897952
24853000	-0.113188832	0.48694624
24918500	-0.07691712	0.490579008
24984000	-0.043248696	0.492683744
25049500	-0.012204621	0.490129248
25115000	0.021811196	0.48662208
25180500	0.0521366	0.481178336
25246000	0.083365272	0.473262048
25311500	0.115414296	0.462130336
25377000	0.140816592	0.453410752
25442500	0.171705216	0.43755824
25508000	0.19870488	0.418906816
25573500	0.222222944	0.406289216
25639000	0.24863776	0.384620448
25704500	0.26883056	0.361247296
25770000	0.290878976	0.342468896
25835500	0.309054112	0.318341504
25901000	0.32407792	0.29490848
25966500	0.34238656	0.268791872
26032000	0.353316128	0.24544024
26097500	0.366912224	0.220023856
26163000	0.37632368	0.190434192
26228500	0.382393856	0.16736152
26294000	0.389774688	0.137484848
26359500	0.391523616	0.109673312
26425000	0.393411424	0.085377064
26490500	0.391452416	0.056290208
26556000	0.388365024	0.030717394
26621500	0.384696192	0.006236393
26687000	0.37499648	-0.018450086
26752500	0.368418112	-0.042172608
26818000	0.355971264	-0.0634394
26883500	0.342371648	-0.082156624
26949000	0.330396384	-0.101101944
27014500	0.313944064	-0.1152906
27080000	0.300367008	-0.127921048
27145500	0.285319552	-0.140021616
27211000	0.26877824	-0.147587312
27276500	0.257133328	-0.15455784
27342000	0.242716112	-0.160870192
27407500	0.230635856	-0.16370672
27473000	0.220609184	-0.167607488
27538500	0.209999088	-0.168383264
27604000	0.203855152	-0.170901968
27669500	0.197310576	-0.17180496
27735000	0.19188688	-0.16897928
27800500	0.188950736	-0.176690288
27866000	0.187732752	-0.179068944
27931500	0.187646944	-0.177693728
27997000	0.18424312	-0.190751488
28062500	0.1843824	-0.19735368
28128000	0.186472768	-0.20225424
28193500	0.180434288	-0.217083472
28259000	0.178958464	-0.22830664
28324500	0.174954992	-0.240988912
28390000	0.168298752	-0.256398672
28455500	0.166106464	-0.271162464
28521000	0.152360624	-0.28539824
28586500	0.14086624	-0.301264448
28652000	0.134473952	-0.320268992
28717500	0.11230464	-0.32950656
28783000	0.0959284	-0.343236512
28848500	0.081173008	-0.361154592
28914000	0.056493496	-0.365613088
28979500	0.035550664	-0.375557248
29045000	0.012839471	-0.385411552
29110500	-0.01190586	-0.388097216
29176000	-0.036320416	-0.394166592
29241500	-0.0617902	-0.394694112
29307000	-0.087809936	-0.394250112
29372500	-0.116724576	-0.395688096
29438000	-0.140060384	-0.38738592
29503500	-0.166165904	-0.381261248
29569000	-0.195383552	-0.37566416
29634500	-0.216877648	-0.361607232
29700000	-0.241631024	-0.349399488
