# Hz S RI R 50
3500000	0.584642432	0.449088768
3762000	0.697159808	0.297761792
4024000	0.759020864	0.108993408
4286000	0.776887552	-0.085314816
4548000	0.730551104	-0.274836896
4810000	0.640371264	-0.456373216
5072000	0.508050496	-0.60571264
5334000	0.330446432	-0.691565056
5596000	0.149245264	-0.750024704
5858000	-0.071373232	-0.736956608
6120000	-0.288145376	-0.65972256
6382000	-0.46218544	-0.471512256
6644000	-0.51620192	-0.195046848
6906000	-0.343820128	0.07394764
7168000	-0.006487866	0.074120256
7430000	0.121200112	-0.235338384
7692000	-0.108597648	-0.414176288
7954000	-0.26852448	-0.355431776
8216000	-0.296661344	-0.239367568
8478000	-0.374958976	-0.3156408
8740000	-0.517971328	-0.269445728
9002000	-0.628518336	-0.108503488
9264000	-0.677358656	0.075214952
9526000	-0.640556992	0.278731776
9788000	-0.542536448	0.44499056
10050000	-0.402857344	0.571539392
10312000	-0.241801536	0.65016064
10574000	-0.058465184	0.687930624
10836000	0.128879072	0.67383712
11098000	0.312064672	0.602788992
11360000	0.470976928	0.467714272
11622000	0.573086144	0.272743232
11884000	0.573488448	0.022573804
12146000	0.355116352	-0.191817888
12408000	0.094695448	0.016920474
12670000	0.354146656	0.21334584
12932000	0.567318592	0.019521264
13194000	0.57389696	-0.21330272
13456000	0.483731168	-0.409361376
13718000	0.327590656	-0.548959296
13980000	0.138131392	-0.617600832
14242000	-0.065676212	-0.6100464
14504000	-0.245116816	-0.521714208
14766000	-0.368433088	-0.370483264
15028000	-0.405919488	-0.179068928
15290000	-0.338768416	-0.007786919
15552000	-0.182633616	0.078501144
15814000	-0.034538664	0.026785136
16076000	0.012778041	-0.082286808
16338000	-0.013987926	-0.157279088
16600000	-0.03268255	-0.235053376
16862000	-0.134342544	-0.324857184
17124000	-0.291826144	-0.33156608
17386000	-0.429091168	-0.256622816
17648000	-0.523911584	-0.137248704
17910000	-0.571813312	0.008720573
18172000	-0.57276096	0.163361584
18434000	-0.525510784	0.309197696
18696000	-0.439515456	0.43503728
18958000	-0.321351136	0.537142272
19220000	-0.179702848	0.60137056
19482000	-0.025712196	0.625452992
19744000	0.13207744	0.604510464
20006000	0.271273696	0.544589504
20268000	0.386929024	0.449918016
20530000	0.47523728	0.335384096
20792000	0.526557696	0.20354256
21054000	0.543868736	0.070992184
21316000	0.52490144	-0.059566556
21578000	0.484362592	-0.170955296
21840000	0.410207744	-0.269606592
22102000	0.326567648	-0.340948352
22364000	0.230124112	-0.388380736
22626000	0.13692144	-0.397593664
22888000	0.055154092	-0.39037424
23150000	-0.010579364	-0.367391392
23412000	-0.060888168	-0.338546368
23674000	-0.08694136	-0.313792384
23936000	-0.111997072	-0.310857888
24198000	-0.15601496	-0.31411168
24460000	-0.212808624	-0.306713952
24722000	-0.274840992	-0.28228224
24984000	-0.34757568	-0.2447396
25246000	-0.411713376	-0.184196848
25508000	-0.458032864	-0.101499568
25770000	-0.47709456	0.008927413
26032000	-0.484383264	0.12283348
26294000	-0.456351264	0.22963576
26556000	-0.398375936	0.335752704
26818000	-0.300489728	0.430755392
27080000	-0.183084672	0.49502384
27342000	-0.047242184	0.521825312
27604000	0.091935184	0.509656064
27866000	0.221051632	0.45832576
28128000	0.330796288	0.371476896
28390000	0.412003264	0.259582336
28652000	0.456848	0.12907316
28914000	0.458214432	-0.009768023
29176000	0.419786528	-0.138316336
29438000	0.340219264	-0.24165472
29700000	0.2400532	-0.30578352
