# Hz S RI R 50
3500000	0.475201984	0.244474592
3762000	0.526375424	0.125112848
4024000	0.547184256	-0.004980091
4286000	0.539493056	-0.141932176
4548000	0.485611936	-0.27781264
4810000	0.38841568	-0.409698144
5072000	0.221951168	-0.506048928
5334000	0.005395267	-0.493270304
5596000	-0.174830944	-0.324476064
5858000	-0.142361072	-0.042798904
6120000	0.150377968	-0.01343526
6382000	0.252761424	-0.212135664
6644000	0.195382496	-0.405412768
6906000	0.031400626	-0.513322176
7168000	-0.155887664	-0.518036128
7430000	-0.3138712	-0.435411584
7692000	-0.380338912	-0.297622432
7954000	-0.381122528	-0.209963568
8216000	-0.391067488	-0.151799952
8478000	-0.435841728	-0.08175464
8740000	-0.468751744	-0.028410244
9002000	-0.489306272	0.072159464
9264000	-0.480353728	0.198004432
9526000	-0.413888416	0.348479392
9788000	-0.305123104	0.45659088
10050000	-0.153080032	0.500657088
10312000	-0.000431345	0.509101632
10574000	0.140836752	0.46973152
10836000	0.240833872	0.381554944
11098000	0.328588224	0.26807624
11360000	0.35872176	0.084554624
11622000	0.31843952	-0.003603204
11884000	0.143238336	-0.091259208
12146000	0.03282332	0.11206924
12408000	0.122415744	0.180569712
12670000	0.284994976	0.149022512
12932000	0.368633568	0.050206
13194000	0.400554848	-0.063122384
13456000	0.381257344	-0.198480688
13718000	0.323773696	-0.30339344
13980000	0.234703984	-0.388363936
14242000	0.117560464	-0.43941696
14504000	-0.017939148	-0.463811808
14766000	-0.150978784	-0.419592448
15028000	-0.244877792	-0.323569536
15290000	-0.29704576	-0.204779056
15552000	-0.267664528	-0.09285132
15814000	-0.193302256	-0.047483924
16076000	-0.143706768	-0.061858276
16338000	-0.151206144	-0.089447496
16600000	-0.180338576	-0.085633344
16862000	-0.193463456	-0.062252076
17124000	-0.181121776	-0.049080228
17386000	-0.199940064	-0.074231936
17648000	-0.264893504	-0.080037896
17910000	-0.356596544	-0.024304138
18172000	-0.402341856	0.095784008
18434000	-0.380881408	0.23078192
18696000	-0.305493312	0.345606656
18958000	-0.196897312	0.421674624
19220000	-0.071575232	0.449321088
19482000	0.046360712	0.437376768
19744000	0.142098368	0.39519712
20006000	0.214748496	0.339133184
20268000	0.269509056	0.27790464
20530000	0.315987456	0.214748688
20792000	0.343776896	0.146789584
21054000	0.366977504	0.072217616
21316000	0.371809888	-0.000824998
21578000	0.369880928	-0.072952744
21840000	0.347674976	-0.154692784
22102000	0.312011392	-0.228546544
22364000	0.25667632	-0.29650016
22626000	0.179967696	-0.34490064
22888000	0.0945938	-0.375064672
23150000	0.007884198	-0.378331072
23412000	-0.077511568	-0.359779648
23674000	-0.150523872	-0.312961888
23936000	-0.189032944	-0.252011712
24198000	-0.200469424	-0.198744256
24460000	-0.197051616	-0.171078336
24722000	-0.204994224	-0.169179792
24984000	-0.243969248	-0.169673824
25246000	-0.30794048	-0.146210144
25508000	-0.374406496	-0.08320708
25770000	-0.414154624	0.023685174
26032000	-0.409967936	0.144662992
26294000	-0.35730464	0.25911096
26556000	-0.267351952	0.345324576
26818000	-0.158111584	0.397828288
27080000	-0.042752744	0.41141584
27342000	0.068794176	0.395323744
27604000	0.16323664	0.350446176
27866000	0.240415136	0.282972288
28128000	0.298222528	0.198286944
28390000	0.327159104	0.110033024
28652000	0.331434112	0.015917283
28914000	0.303947104	-0.076765504
29176000	0.257636192	-0.149920944
29438000	0.186331136	-0.197578256
29700000	0.109742056	-0.214724208
