# Hz S RI R 50
7000000	-0.221323824	0.123380456
7003300	-0.212121568	0.118347768
7006600	-0.212891472	0.126375376
7009900	-0.205558448	0.122127704
7013200	-0.203228448	0.127238456
7016500	-0.197735344	0.124711616
7019800	-0.19282912	0.12110604
7023100	-0.192229584	0.127686856
7026400	-0.18524192	0.121493688
7029700	-0.182743216	0.127960296
7033000	-0.176834	0.124889056
7036300	-0.169919376	0.119965088
7039600	-0.169489776	0.12878312
7042900	-0.162767072	0.121560544
7046200	-0.154906992	0.116065672
7049500	-0.15576888	0.129212696
7052800	-0.149589968	0.12263288
7056100	-0.141968688	0.117428216
7059400	-0.142502112	0.128375832
7062700	-0.136269984	0.121627272
7066000	-0.13235752	0.124707536
7069300	-0.128301072	0.126100136
7072600	-0.122148312	0.119360896
7075900	-0.120071736	0.12643756
7079200	-0.114366224	0.118067928
7082500	-0.107218584	0.111078456
7085800	-0.106563304	0.124113672
7089100	-0.100653144	0.116561096
7092400	-0.093920856	0.106574368
7095700	-0.092796088	0.121298984
7099000	-0.0876772	0.113818128
7102300	-0.082191128	0.110259984
7105600	-0.079285744	0.117785344
7108900	-0.074133704	0.1103454
7112200	-0.070523064	0.114545328
7115500	-0.065985844	0.108874752
7118800	-0.06139616	0.100803504
7122100	-0.057650932	0.111210344
7125400	-0.053552144	0.102114856
7128700	-0.047924196	0.091028896
7132000	-0.044606812	0.106210288
7135300	-0.04101884	0.097285968
7138600	-0.03559032	0.086989896
7141900	-0.032059056	0.100825032
7145200	-0.028237864	0.091948176
7148500	-0.023427638	0.0923932
7151800	-0.019763978	0.091914952
7155100	-0.016595455	0.08212312
7158400	-0.011497581	0.09012704
7161700	-0.008453864	0.081715464
7165000	-0.006205003	0.069622464
7168300	0.000680132	0.082923176
7171600	0.002614967	0.072733184
7174900	0.004894156	0.06001842
7178200	0.012198071	0.075625392
7181500	0.013610934	0.066075272
7184800	0.016912712	0.059512732
7188100	0.023767354	0.066821628
7191400	0.024998318	0.057209968
7194700	0.030715698	0.060647456
7198000	0.033532012	0.054027868
7201300	0.03361256	0.041522144
7204600	0.041223304	0.052142632
7207900	0.04094724	0.041442864
7211200	0.04207064	0.028283854
7214500	0.051225888	0.043009384
7217800	0.050945392	0.033135258
7221100	0.052244852	0.019048624
7224400	0.061518492	0.033053748
7227700	0.060294392	0.023030842
7231000	0.065023208	0.02188979
7234300	0.070345528	0.020929414
7237600	0.070314464	0.010405994
7240900	0.075872664	0.014389987
7244200	0.074138776	0.004857044
7247500	0.071993784	-0.007292957
7250800	0.084127032	0.003857774
7254100	0.082711736	-0.006237267
7257400	0.07921172	-0.02063159
7260700	0.092014136	-0.007807934
7264000	0.089414528	-0.017221342
7267300	0.088940064	-0.025736252
7270600	0.099224056	-0.01999139
7273900	0.098238464	-0.030257254
7277200	0.103132232	-0.02899332
7280500	0.102238816	-0.03566222
7283800	0.09821988	-0.048623276
7287100	0.10909492	-0.040458204
7290400	0.10536572	-0.049300712
7293700	0.09995796	-0.066135168
7297000	0.114987704	-0.052903904
7300300	0.11027908	-0.06172416
7303600	0.104850368	-0.07865168
7306900	0.1194248	-0.066005432
7310200	0.115872344	-0.074694064
7313500	0.117946336	-0.079309456
7316800	0.122367056	-0.08064468
7320100	0.116036744	-0.091333408
7323400	0.125419752	-0.08810984
7326700	0.12199988	-0.094981
7330000	0.110921952	-0.110693552
