# Hz S RI R 50
3500000	0.605942016	0.419686912
3762000	0.710445824	0.256522384
4024000	0.769346048	0.072896264
4286000	0.768188032	-0.131686064
4548000	0.712997504	-0.325233984
4810000	0.600535552	-0.504833568
5072000	0.42611408	-0.632718464
5334000	0.223757712	-0.719940544
5596000	0.009426771	-0.712577344
5858000	-0.219460384	-0.628242624
6120000	-0.389902304	-0.389634752
6382000	-0.3223216	-0.086033072
6644000	-0.009970822	0.023884716
6906000	0.190886112	-0.22279016
7168000	0.074309016	-0.484256704
7430000	-0.181524144	-0.552161344
7692000	-0.362740224	-0.466334048
7954000	-0.474316128	-0.320151264
8216000	-0.517578016	-0.211019872
8478000	-0.482056672	-0.092398648
8740000	-0.50926512	-0.039399348
9002000	-0.51318992	-0.001612447
9264000	-0.539498944	0.101767736
9526000	-0.565318528	0.203283184
9788000	-0.523335936	0.401511328
10050000	-0.406492736	0.550414976
10312000	-0.242132064	0.645099648
10574000	-0.063238284	0.684090496
10836000	0.126449568	0.672096832
11098000	0.303278528	0.606406464
11360000	0.454223936	0.489275264
11622000	0.561909632	0.331701504
11884000	0.624467456	0.151276624
12146000	0.620693376	-0.057551536
12408000	0.526489312	-0.258739712
12670000	0.353055424	-0.394402272
12932000	0.111171208	-0.396688832
13194000	-0.044389968	-0.213127648
13456000	-0.026494496	-0.022517022
13718000	0.207036096	0.022432304
13980000	0.334327776	-0.147048608
14242000	0.311123328	-0.341420256
14504000	0.15268728	-0.47059856
14766000	-0.022711576	-0.494882016
15028000	-0.173692896	-0.428678976
15290000	-0.245072288	-0.303757472
15552000	-0.241478096	-0.184595472
15814000	-0.159944912	-0.148127168
16076000	-0.121098008	-0.210336352
16338000	-0.176026224	-0.278702304
16600000	-0.285804064	-0.28436544
16862000	-0.395302944	-0.234352096
17124000	-0.469650528	-0.130015224
17386000	-0.497286336	-0.006137655
17648000	-0.478542464	0.11063592
17910000	-0.432100576	0.201688
18172000	-0.380240416	0.271829216
18434000	-0.314058432	0.344199488
18696000	-0.233972032	0.39603456
18958000	-0.139126624	0.425416992
19220000	-0.048281256	0.415238624
19482000	0.018191748	0.384679552
19744000	0.054046444	0.360858144
20006000	0.085481816	0.367831232
20268000	0.14714496	0.390038912
20530000	0.247287488	0.388211296
20792000	0.361317376	0.342478752
21054000	0.457108512	0.250305392
21316000	0.524008448	0.12922952
21578000	0.549980672	-0.010783098
21840000	0.537374208	-0.152093744
22102000	0.47762304	-0.291408352
22364000	0.384612	-0.403563136
22626000	0.26199824	-0.481009504
22888000	0.120956728	-0.508857024
23150000	-0.009422037	-0.492497184
23412000	-0.111260312	-0.432918176
23674000	-0.15901064	-0.35507168
23936000	-0.162736384	-0.312766624
24198000	-0.175859376	-0.317140032
24460000	-0.234059392	-0.330693952
24722000	-0.325839872	-0.317950176
24984000	-0.416690432	-0.254675888
25246000	-0.495480128	-0.141548352
25508000	-0.532205824	-0.01723112
25770000	-0.515161888	0.10715784
26032000	-0.460892288	0.215678176
26294000	-0.38449328	0.33196064
26556000	-0.299303104	0.401073312
26818000	-0.18413616	0.454976992
27080000	-0.055255416	0.460962816
27342000	0.060386884	0.439326368
27604000	0.15494472	0.380943328
27866000	0.224659264	0.310682304
28128000	0.269463104	0.234305456
28390000	0.295262208	0.159315456
28652000	0.303752768	0.087894984
28914000	0.296403584	0.018463322
29176000	0.276578784	-0.034123924
29438000	0.261776864	-0.078405176
29700000	0.249260224	-0.120946032
