# Hz S RI R 50
28000000	-0.388671808	0.281939552
28004250	-0.386962944	0.283005696
28008500	-0.386741152	0.284038208
28012750	-0.382329248	0.278650272
28017000	-0.384538048	0.287243552
28021250	-0.382931616	0.28866096
28025500	-0.378406784	0.278530464
28029750	-0.38138208	0.291235872
28034000	-0.379315104	0.291971616
28038250	-0.376340384	0.282673408
28042500	-0.378737696	0.295217888
28046750	-0.37515168	0.295807488
28051000	-0.374465024	0.295136416
28055250	-0.37511744	0.298504992
28059500	-0.371250752	0.295580352
28063750	-0.372393088	0.30121392
28068000	-0.371418848	0.302700512
28072250	-0.368188704	0.292728832
28076500	-0.36928464	0.30507456
28080750	-0.367282496	0.305748032
28085000	-0.365632288	0.29362768
28089250	-0.366219392	0.309084192
28093500	-0.363307008	0.309752576
28097750	-0.362251712	0.304179488
28102000	-0.36261024	0.312547872
28106250	-0.358933536	0.311597888
28110500	-0.359733984	0.314577792
28114750	-0.359407744	0.316245248
28119000	-0.356655968	0.30904192
28123250	-0.356531232	0.318368256
28127500	-0.354837408	0.318900672
28131750	-0.354005824	0.30782016
28136000	-0.353383424	0.322242624
28140250	-0.350869504	0.322926368
28144500	-0.350327776	0.312887552
28148750	-0.349797472	0.325713824
28153000	-0.346754912	0.32558384
28157250	-0.346422272	0.325151264
28161500	-0.346548128	0.3292264
28165750	-0.34365072	0.325055488
28170000	-0.343457056	0.330924576
28174250	-0.342261728	0.331706176
28178500	-0.343175648	0.321717984
28182750	-0.34045376	0.334765088
28187000	-0.337635584	0.335521952
28191250	-0.34021696	0.3229304
28195500	-0.336686464	0.338222656
28199750	-0.334181344	0.33794032
28204000	-0.335059584	0.333390848
28208250	-0.333324928	0.34176384
28212500	-0.329698816	0.340279488
28216750	-0.330205152	0.343162464
28221000	-0.329577536	0.3440728
28225250	-0.329463072	0.336775296
28229500	-0.327001216	0.346820384
28233750	-0.325010624	0.347675968
28238000	-0.328396832	0.335813376
28242250	-0.323437792	0.35015184
28246500	-0.32116272	0.349694528
28250750	-0.324597408	0.340595072
28255000	-0.319987776	0.353654176
28259250	-0.316628288	0.353041376
28263500	-0.317213568	0.352795264
28267750	-0.316229984	0.35600768
28272000	-0.315270048	0.35177888
28276250	-0.313444	0.358050816
28280500	-0.311880384	0.35928928
28284750	-0.315609888	0.349133696
28289000	-0.309661088	0.361367968
28293250	-0.307639456	0.361184224
28297500	-0.314031296	0.350097856
28301750	-0.306108544	0.364773408
28306000	-0.303235744	0.364074272
28310250	-0.306117312	0.359687872
28314500	-0.3023016	0.36751664
28318750	-0.299817568	0.364924864
28323000	-0.299582432	0.368908384
28327250	-0.2984824	0.370514848
28331500	-0.300302656	0.364003168
28335750	-0.295843616	0.371995104
28340000	-0.294322016	0.371716608
28344250	-0.30100192	0.362585664
28348500	-0.292210336	0.37538256
28352750	-0.289563104	0.374908512
28357000	-0.297148736	0.366828576
28361250	-0.28829088	0.378363872
28365500	-0.286030144	0.376370336
28369750	-0.286753632	0.377580064
28374000	-0.284692928	0.380993376
28378250	-0.28446512	0.376583904
28382500	-0.281906144	0.382444992
28386750	-0.28085296	0.38230432
28391000	-0.287086336	0.375213216
28395250	-0.278152064	0.385581952
28399500	-0.275590496	0.384964128
28403750	-0.28577056	0.37638352
28408000	-0.274086432	0.388364032
28412250	-0.272347744	0.386956288
28416500	-0.275625632	0.3840504
28420750	-0.270447232	0.391321088
28425000	-0.268808256	0.388044608
28429250	-0.267644496	0.392076352
28433500	-0.266640032	0.392827264
28437750	-0.271034304	0.387705664
28442000	-0.263847984	0.395229728
28446250	-0.261547184	0.395247648
28450500	-0.271247168	0.387850176
28454750	-0.259834624	0.398011648
28459000	-0.258195552	0.396644064
28463250	-0.26777512	0.391866752
28467500	-0.255811664	0.400860832
28471750	-0.253686848	0.398970272
28476000	-0.254711472	0.400026304
28480250	-0.252225632	0.402693888
28484500	-0.253838096	0.39930096
28488750	-0.249338688	0.40462304
28493000	-0.247530624	0.405122272
28497250	-0.256473504	0.39973056
28501500	-0.245383408	0.407208192
28505750	-0.24405504	0.405950816
28510000	-0.256275472	0.401296096
28514250	-0.241258592	0.410119424
28518500	-0.239239648	0.408356448
28522750	-0.245330016	0.407454816
28527000	-0.23733984	0.412170464
28531250	-0.23691792	0.409347232
28535500	-0.234455504	0.413624384
28539750	-0.233279168	0.414875712
28544000	-0.238543616	0.410697888
28548250	-0.23068416	0.41617536
28552500	-0.2298488	0.41508272
28556750	-0.240691296	0.412185568
28561000	-0.226536896	0.41888736
28565250	-0.224680768	0.41739008
28569500	-0.2357052	0.415776544
28573750	-0.222324832	0.421074944
28578000	-0.22149776	0.418824064
28582250	-0.226777392	0.41936192
28586500	-0.218128928	0.423064224
28590750	-0.21789104	0.420381088
28595000	-0.21549008	0.42406736
28599250	-0.215061472	0.424574112
28603500	-0.220150592	0.422417248
28607750	-0.211378864	0.426820064
28612000	-0.209644352	0.425921696
28616250	-0.220813488	0.42407856
28620500	-0.207198128	0.429158016
28624750	-0.206815072	0.42754224
28629000	-0.217163568	0.428061792
28633250	-0.2029128	0.431516
28637500	-0.202117504	0.429288
28641750	-0.20253624	0.431530016
28646000	-0.199403392	0.433300512
28650250	-0.201856576	0.431109536
28654500	-0.19597648	0.434894816
28658750	-0.194491472	0.43458496
28663000	-0.204470064	0.434180832
28667250	-0.191889952	0.437051808
28671500	-0.191701536	0.435668096
28675750	-0.204262512	0.437406144
28680000	-0.18748976	0.439436224
28684250	-0.186522672	0.437422432
28688500	-0.192661216	0.439433024
28692750	-0.183310144	0.441422272
28697000	-0.184211936	0.439219968
28701250	-0.180287232	0.442616672
28705500	-0.178840112	0.443413632
28709750	-0.184917824	0.44279696
28714000	-0.17626416	0.444884608
28718250	-0.176208992	0.443892256
28722500	-0.185537808	0.445360928
28726750	-0.17157304	0.447190912
28731000	-0.170902336	0.44525024
28735250	-0.181616048	0.449610304
28739500	-0.167336736	0.449005056
28743750	-0.16797936	0.447207008
28748000	-0.166996064	0.450096992
28752250	-0.163086352	0.451070016
28756500	-0.166266432	0.449890752
28760750	-0.15996128	0.452123264
28765000	-0.160117184	0.45178512
28769250	-0.168218976	0.454495552
28773500	-0.155398496	0.45445952
28777750	-0.154982784	0.4524696
28782000	-0.167614208	0.458637312
28786250	-0.150965312	0.45604048
28790500	-0.151613104	0.45478896
28794750	-0.155308112	0.45878512
28799000	-0.146401648	0.458273472
28803250	-0.147681472	0.456160352
28807500	-0.14371872	0.458802304
28811750	-0.143115888	0.459567904
28816000	-0.148311712	0.461042304
28820250	-0.138735824	0.461207136
28824500	-0.138092464	0.45982064
28828750	-0.14867688	0.465746464
28833000	-0.134289648	0.463172864
28837250	-0.135189408	0.4619112
28841500	-0.143314816	0.468560384
28845750	-0.129611296	0.464932864
28850000	-0.130039152	0.463114016
28854250	-0.129022224	0.465715136
28858500	-0.12558216	0.46619648
28862750	-0.128748504	0.466264768
28867000	-0.121657008	0.4676696
28871250	-0.120753656	0.466954336
28875500	-0.128424736	0.471399104
28879750	-0.117314592	0.469190336
28884000	-0.118206416	0.46838672
28888250	-0.126362056	0.476135648
28892500	-0.112290136	0.471023392
28896750	-0.112921576	0.469488288
28901000	-0.11619524	0.475175008
28905250	-0.10790992	0.472526976
28909500	-0.109925944	0.471527712
28913750	-0.104451824	0.472962304
28918000	-0.102917608	0.473532992
28922250	-0.108438184	0.476624896
28926500	-0.099699232	0.474900288
28930750	-0.10083264	0.474680224
28935000	-0.108255624	0.48319344
28939250	-0.09469328	0.476588992
28943500	-0.095427976	0.475273952
28947750	-0.101705408	0.48467792
28952000	-0.089979224	0.477855264
28956250	-0.09167544	0.47707024
28960500	-0.08891128	0.479671456
28964750	-0.085152064	0.479421984
28969000	-0.088395152	0.480124352
28973250	-0.081669448	0.480073152
28977500	-0.082443232	0.480389408
28981750	-0.087851712	0.487099104
28986000	-0.076825424	0.4816992
28990250	-0.077662072	0.480567296
28994500	-0.08452288	0.492625056
28998750	-0.071779024	0.482790112
29003000	-0.073516488	0.482728224
29007250	-0.074465648	0.48825376
29011500	-0.066599124	0.484034592
29015750	-0.068759832	0.48363264
29020000	-0.0635824	0.484351296
29024250	-0.06348338	0.4854936
29028500	-0.066580712	0.48939088
29032750	-0.058281516	0.485890016
29037000	-0.058461956	0.485279072
29041250	-0.064381452	0.495695168
29045500	-0.053354088	0.486968928
29049750	-0.054897724	0.487503648
29054000	-0.057831396	0.497160928
29058250	-0.048067964	0.487978432
29062500	-0.04944536	0.48764608
29066750	-0.046871168	0.489407008
29071000	-0.043806016	0.489645216
29075250	-0.04656274	0.4920232
29079500	-0.039640824	0.489408032
29083750	-0.039020912	0.489521632
29088000	-0.043730204	0.49833696
29092250	-0.034456612	0.490753024
29096500	-0.035819708	0.491380352
29100750	-0.03907554	0.50334512
29105000	-0.029053012	0.491701024
29109250	-0.030410338	0.49129872
29113500	-0.030047982	0.497986752
29117750	-0.02418553	0.492402144
29122000	-0.026245398	0.493448288
29126250	-0.02088595	0.492173568
29130500	-0.019186538	0.492834144
29134750	-0.02242508	0.498954848
29139000	-0.015209318	0.493389504
29143250	-0.016569892	0.4947544
29147500	-0.018373886	0.505314176
29151750	-0.009780291	0.494168224
29156000	-0.010976676	0.494380064
29160250	-0.01190334	0.505539904
29164500	-0.004617797	0.494919456
29168750	-0.006236769	0.496131456
29173000	-0.002864333	0.496673888
29177250	0.000548232	0.49559152
29181500	-0.001669111	0.4982528
29185750	0.004065358	0.49549616
29190000	0.003738695	0.497070176
29194250	0.002486645	0.504998144
29198500	0.00994817	0.496050976
29202750	0.008540702	0.496398944
29207000	0.008208175	0.51015264
29211250	0.015114389	0.4966984
29215500	0.013655223	0.49801696
29219750	0.015683501	0.503356992
29224000	0.020540196	0.496904928
29228250	0.018872334	0.498111072
29232500	0.023393256	0.496571904
29236750	0.024396144	0.498303488
29241000	0.023572614	0.502984992
29245250	0.029570648	0.496903488
29249500	0.028923158	0.497507264
29253750	0.029434554	0.509356608
29258000	0.034933012	0.497529184
29262250	0.0335923	0.499353792
29266500	0.03595018	0.509406912
29270750	0.040608636	0.497527584
29275000	0.03919662	0.498719936
29279250	0.042571884	0.499438464
29283500	0.045353484	0.498220128
29287750	0.044374524	0.501538112
29292000	0.049379652	0.49717136
29296250	0.049886692	0.497846624
29300500	0.04995106	0.506974944
29304750	0.055023512	0.497498112
29309000	0.054117312	0.500011872
29313250	0.055562752	0.508765984
29317500	0.060649084	0.497367456
29321750	0.059648168	0.498569856
29326000	0.062872596	0.50451344
29330250	0.065854676	0.497361312
29334500	0.064822792	0.499961056
29338750	0.069114672	0.49669136
29343000	0.071015576	0.497040544
29347250	0.070737976	0.502597568
29351500	0.075154304	0.49670112
29355750	0.074852736	0.499199232
29360000	0.078251552	0.509323968
29364250	0.081049208	0.496274624
29368500	0.080319224	0.497444672
29372750	0.084621256	0.508047584
29377000	0.086337544	0.495976576
29381250	0.085859032	0.498437824
29385500	0.088945328	0.497907936
29389750	0.091862296	0.49564624
29394000	0.091411296	0.499374784
29398250	0.095230352	0.494944064
29402500	0.096053264	0.497111936
29406750	0.098627904	0.504386976
29411000	0.101210584	0.494182336
29415250	0.100712256	0.495855136
29419500	0.106465448	0.507637504
29423750	0.106823824	0.493810592
29428000	0.10668016	0.49656512
29432250	0.110983808	0.500385344
29436500	0.112459872	0.493153408
29440750	0.112115264	0.495416416
29445000	0.115340544	0.492578528
29449250	0.117213296	0.493919488
29453500	0.118869032	0.498468032
29457750	0.121539496	0.491472128
29462000	0.121895904	0.492775168
29466250	0.127098736	0.502974144
29470500	0.12734692	0.49081168
29474750	0.12751132	0.493444
29479000	0.133345304	0.500856576
29483250	0.13293116	0.489706464
29487500	0.132809416	0.49175872
29491750	0.1358316	0.491101824
29496000	0.138150688	0.489549312
29500250	0.139224992	0.493351008
29504500	0.141850864	0.48786096
29508750	0.143069552	0.488330528
29513000	0.147044816	0.496576448
29517250	0.147668896	0.48677136
29521500	0.148454688	0.489760832
29525750	0.155534432	0.498587776
29530000	0.153421008	0.485522688
29534250	0.153667104	0.487616192
29538500	0.158738832	0.491485696
29542750	0.158874272	0.484583936
29547000	0.159333024	0.487378048
29551250	0.161726512	0.483631168
29555500	0.163938784	0.48329952
29559750	0.166779456	0.488925344
29564000	0.1679496	0.481911616
29568250	0.169456544	0.485036
29572500	0.175963632	0.49170288
29576750	0.173733264	0.480302624
29581000	0.174289648	0.482315552
29585250	0.182078752	0.489349024
29589500	0.179206512	0.478967616
29593750	0.180230128	0.481924608
29598000	0.183162656	0.480327648
29602250	0.184688992	0.477586144
29606500	0.186527424	0.481266784
29610750	0.187842128	0.476319968
29615000	0.19015056	0.47841312
29619250	0.195088464	0.483568992
29623500	0.193808208	0.474341024
29627750	0.194908672	0.476261984
29632000	0.204048384	0.484140224
29636250	0.199366912	0.472622208
29640500	0.200851536	0.475343424
29644750	0.205894976	0.477261856
29649000	0.205160624	0.470717664
29653250	0.206117088	0.473072736
29657500	0.207948112	0.470075008
29661750	0.2103628	0.470708032
29666000	0.215493488	0.475579328
29670250	0.213913664	0.46748864
29674500	0.215251248	0.468756768
29678750	0.222243568	0.474887136
29683000	0.21949	0.465487744
29687250	0.221564448	0.4679824
29691500	0.229661792	0.472716064
29695750	0.225110992	0.463222336
29700000	0.226442832	0.465262688
