# Hz S RI R 50
24890000	0.269289664	-0.348660032
24890250	0.271601792	-0.353855584
24890500	0.269132224	-0.348792928
24890750	0.268117344	-0.353704416
24891000	0.272644672	-0.354722144
24891250	0.2686976	-0.348899648
24891500	0.26831224	-0.353559392
24891750	0.272429088	-0.353935808
24892000	0.268388576	-0.348872352
24892250	0.268174144	-0.35374672
24892500	0.270157888	-0.35051296
24892750	0.268213328	-0.351263584
24893000	0.269479712	-0.354045376
24893250	0.268722848	-0.34955536
24893500	0.267378576	-0.354189792
24893750	0.27146512	-0.355414272
24894000	0.26799256	-0.34966208
24894250	0.267182528	-0.354253248
24894500	0.271972256	-0.355798496
24894750	0.26770416	-0.349867424
24895000	0.267367328	-0.354480192
24895250	0.2703048	-0.353261472
24895500	0.26748488	-0.350471008
24895750	0.267371952	-0.354528832
24896000	0.268066592	-0.350672224
24896250	0.266820464	-0.353449888
24896500	0.269308736	-0.355577664
24896750	0.267265328	-0.350658112
24897000	0.266000992	-0.355295456
24897250	0.270744384	-0.356596992
24897500	0.266802464	-0.350656
24897750	0.266388352	-0.355316416
24898000	0.270428384	-0.355740064
24898250	0.266613696	-0.350810688
24898500	0.265946592	-0.355531296
24898750	0.268211392	-0.352549632
24899000	0.266254224	-0.352374624
24899250	0.267135648	-0.355713472
24899500	0.266670736	-0.3515616
24899750	0.264944464	-0.356112896
24900000	0.269252096	-0.357373792
24900250	0.265845456	-0.351562176
24900500	0.265192592	-0.356174752
24900750	0.269662816	-0.357459616
24901000	0.265763312	-0.351713056
24901250	0.265279808	-0.356313248
24901500	0.268374928	-0.355374528
24901750	0.265634752	-0.351869568
24902000	0.265285616	-0.356070432
24902250	0.266412016	-0.352499264
24902500	0.26474208	-0.355321344
24902750	0.267259392	-0.357139872
24903000	0.26538152	-0.35232176
24903250	0.26412744	-0.357224672
24903500	0.268497824	-0.358284384
24903750	0.26491704	-0.352461408
24904000	0.264232848	-0.356939232
24904250	0.268538944	-0.358027264
24904500	0.264542016	-0.35255152
24904750	0.264270192	-0.3572656
24905000	0.266453984	-0.354685856
24905250	0.26423296	-0.354525184
24905500	0.265139248	-0.357665536
24905750	0.264846944	-0.353149376
24906000	0.263419248	-0.35737888
24906250	0.267175856	-0.358941152
24906500	0.264248336	-0.35339728
24906750	0.262901152	-0.357751712
24907000	0.267856336	-0.359507584
24907250	0.263549664	-0.353356704
24907500	0.263346608	-0.358023232
24907750	0.266575808	-0.357283424
24908000	0.263674672	-0.353706144
24908250	0.262945856	-0.357998176
24908500	0.26435032	-0.354381632
24908750	0.262998128	-0.356458496
24909000	0.264922736	-0.358773248
24909250	0.26348704	-0.354200448
24909500	0.261744864	-0.358883136
24909750	0.266469184	-0.36032864
24910000	0.262842928	-0.354129568
24910250	0.262271344	-0.358829728
24910500	0.266583712	-0.359937728
24910750	0.26273936	-0.35435616
24911000	0.2620036	-0.35901328
24911250	0.264571216	-0.356755104
24911500	0.262457664	-0.355475552
24911750	0.26300016	-0.358976896
24912000	0.263008864	-0.355001312
24912250	0.261028432	-0.359357376
24912500	0.264958288	-0.360653088
24912750	0.262016384	-0.355113696
24913000	0.260974288	-0.35972368
24913250	0.265604848	-0.361135552
24913500	0.261812176	-0.35527104
24913750	0.261018432	-0.35977312
24914000	0.264604832	-0.359637856
24914250	0.26136896	-0.355387904
24914500	0.261048288	-0.359785216
24914750	0.262508272	-0.356421984
24915000	0.260621312	-0.35868672
24915250	0.262756144	-0.360892672
24915500	0.261332128	-0.355965792
24915750	0.25992128	-0.360674944
24916000	0.264321184	-0.361889088
24916250	0.26097024	-0.356090144
24916500	0.259960112	-0.360507872
24916750	0.264502768	-0.362057344
24917000	0.260530736	-0.356260352
24917250	0.260047136	-0.3606616
24917500	0.262619376	-0.35884224
24917750	0.260200832	-0.357630592
24918000	0.260466432	-0.360905504
24918250	0.260830992	-0.356894592
24918500	0.259439744	-0.360460256
24918750	0.26271832	-0.362504768
24919000	0.260138064	-0.3568336
24919250	0.258699152	-0.361459488
24919500	0.263499824	-0.36316944
24919750	0.259738032	-0.356887712
24920000	0.259175456	-0.361519936
24920250	0.26273984	-0.361491008
24920500	0.259603376	-0.357155328
24920750	0.2588112	-0.36160368
24921000	0.260532288	-0.35820432
24921250	0.25899536	-0.35948704
24921500	0.260408288	-0.362192448
24921750	0.259463104	-0.357765632
24922000	0.257647936	-0.362265536
24922250	0.262276656	-0.363906592
24922500	0.25859552	-0.357725888
24922750	0.25802168	-0.362237856
24923000	0.262296288	-0.36377984
24923250	0.258686576	-0.3579448
24923500	0.257915104	-0.362346272
24923750	0.26073536	-0.360935872
24924000	0.25837776	-0.35871808
24924250	0.258569088	-0.362571776
24924500	0.258902544	-0.358753664
24924750	0.257081152	-0.362608544
24925000	0.260379136	-0.364002944
24925250	0.258138304	-0.358662496
24925500	0.2569328	-0.363318144
24925750	0.261416288	-0.364683712
24926000	0.2578772	-0.358672544
24926250	0.25677728	-0.363381152
24926500	0.260784	-0.363783552
24926750	0.257330592	-0.35894736
24927000	0.256793584	-0.363423232
24927250	0.2586796	-0.360094624
24927500	0.256646064	-0.361837152
24927750	0.258251136	-0.3643032
24928000	0.257326848	-0.35951744
24928250	0.255815088	-0.364160512
24928500	0.259955968	-0.365454464
24928750	0.256970768	-0.359505728
24929000	0.255740192	-0.36391312
24929250	0.26038856	-0.365848896
24929500	0.256601664	-0.35973264
24929750	0.255851664	-0.364186304
24930000	0.258798368	-0.362725184
24930250	0.256268864	-0.360674784
24930500	0.25593984	-0.364151872
24930750	0.256858416	-0.360485632
24931000	0.255501504	-0.363600064
24931250	0.258020992	-0.365505088
24931500	0.256191664	-0.360425984
24931750	0.254420544	-0.36491248
24932000	0.25934064	-0.366691008
24932250	0.2555972	-0.36048224
24932500	0.254846432	-0.365082816
24932750	0.258725728	-0.365526976
24933000	0.2556364	-0.360545888
24933250	0.254715168	-0.36513568
24933500	0.257098944	-0.361845888
24933750	0.25528944	-0.362413376
24934000	0.25613088	-0.365333024
24934250	0.255796048	-0.36111248
24934500	0.253562576	-0.365639232
24934750	0.25797584	-0.367536384
24935000	0.254780176	-0.361170752
24935250	0.253765312	-0.36566
24935500	0.258307248	-0.367398144
24935750	0.25475544	-0.361303456
24936000	0.253650816	-0.365799296
24936250	0.257147584	-0.364766176
24936500	0.254731808	-0.361544736
24936750	0.254221584	-0.365730752
24937000	0.255282432	-0.362273472
24937250	0.253262432	-0.3655624
24937500	0.25617144	-0.367373344
24937750	0.254373824	-0.361903712
24938000	0.252731952	-0.366542368
24938250	0.257154912	-0.368143936
24938500	0.253779504	-0.362205248
24938750	0.252597712	-0.366767712
24939000	0.256890064	-0.367610432
24939250	0.253450784	-0.362226464
24939500	0.252496176	-0.366766016
24939750	0.254951056	-0.363893888
24940000	0.2527512	-0.364736544
24940250	0.253669344	-0.367405088
24940500	0.253444816	-0.36294192
24940750	0.251680288	-0.367236384
24941000	0.255663152	-0.369011872
24941250	0.252851392	-0.363048224
24941500	0.251406128	-0.367303328
24941750	0.256118304	-0.369406976
24942000	0.252456064	-0.362972256
24942250	0.251653248	-0.367586336
24942500	0.254910768	-0.36678624
24942750	0.252362944	-0.363804224
24943000	0.251568048	-0.36747408
24943250	0.25296008	-0.363998816
24943500	0.25137576	-0.366613344
24943750	0.253756576	-0.368598528
24944000	0.252313264	-0.363677536
24944250	0.250175184	-0.367991712
24944500	0.254959248	-0.370159104
24944750	0.251616	-0.363754048
24945000	0.250595712	-0.368361888
24945250	0.254682816	-0.369393856
24945500	0.251514256	-0.363956128
24945750	0.250278064	-0.368522528
24946000	0.252860816	-0.365973696
24946250	0.250944288	-0.365520352
24946500	0.251536096	-0.369008704
24946750	0.251560544	-0.364732576
24947000	0.249241008	-0.36900656
24947250	0.253612048	-0.37080432
24947500	0.250726288	-0.364595872
24947750	0.2493368	-0.368994016
24948000	0.253943264	-0.37093728
24948250	0.250691504	-0.364724672
24948500	0.249450016	-0.369357376
24948750	0.252940976	-0.368833472
24949000	0.250293552	-0.365023904
24949250	0.249494928	-0.369130752
24949500	0.251110144	-0.365678976
24949750	0.248925696	-0.36850272
24950000	0.251342144	-0.370513824
24950250	0.24994024	-0.365427136
24950500	0.248285008	-0.370071424
24950750	0.2526604	-0.371492992
24951000	0.249660464	-0.365676384
24951250	0.248412656	-0.369977344
24951500	0.252712848	-0.371579104
24951750	0.249265744	-0.365634432
24952000	0.248266064	-0.370312608
24952250	0.251022048	-0.367831872
24952500	0.248827632	-0.36762224
24952750	0.249280384	-0.370376832
24953000	0.24974376	-0.3661608
24953250	0.248018288	-0.370049696
24953500	0.251355616	-0.371739456
24953750	0.249037152	-0.366187104
24954000	0.24721304	-0.370504128
24954250	0.252031984	-0.372712448
24954500	0.248560256	-0.366464512
24954750	0.247576848	-0.370912704
24955000	0.251080368	-0.370638848
24955250	0.24850936	-0.366567872
24955500	0.247299104	-0.370706976
24955750	0.249298512	-0.367396096
24956000	0.247610176	-0.369344128
24956250	0.249220832	-0.371978528
24956500	0.24840928	-0.367108672
24956750	0.24624384	-0.371324192
24957000	0.250865552	-0.373259072
24957250	0.247837584	-0.366947584
24957500	0.246536576	-0.371437696
24957750	0.25074384	-0.372962912
24958000	0.247875104	-0.36720784
24958250	0.246319696	-0.371527936
24958500	0.24925232	-0.369654368
24958750	0.246155552	-0.371105344
24959000	0.248792704	-0.373030496
24959250	0.247175408	-0.367758336
24959500	0.245366768	-0.37224944
24959750	0.249725136	-0.373778304
24960000	0.246943184	-0.367871136
24960250	0.245524096	-0.37219696
24960500	0.24980096	-0.373435936
24960750	0.24664408	-0.367970112
24961000	0.245591904	-0.37244832
24961250	0.248073536	-0.36973456
24961500	0.245921072	-0.370205856
24961750	0.246909712	-0.373218432
24962000	0.246712704	-0.368543264
24962250	0.244739184	-0.372760384
24962500	0.248450736	-0.374595168
24962750	0.2461908	-0.368557056
24963000	0.24422552	-0.372802912
24963250	0.24887224	-0.375143744
24963500	0.245636048	-0.368707104
24963750	0.244648544	-0.373152032
24964000	0.247954448	-0.372388096
24964250	0.24561176	-0.369306784
24964500	0.244416752	-0.37295328
24964750	0.246070464	-0.369615232
24965000	0.244507424	-0.37205664
24965250	0.246470736	-0.374179168
24965500	0.245368288	-0.36944784
24965750	0.242980384	-0.373768064
24966000	0.24772224	-0.375780096
24966250	0.24465712	-0.369408896
24966500	0.243432128	-0.373824224
24966750	0.247619024	-0.375093824
24967000	0.244753776	-0.369595808
24967250	0.243184176	-0.374112672
24967500	0.245968976	-0.371644608
24967750	0.244198576	-0.371037696
24968000	0.244388544	-0.37431136
24968250	0.24469144	-0.37024848
24968500	0.242222832	-0.374444352
24968750	0.246401232	-0.376356448
24969000	0.243813776	-0.370140768
24969250	0.242343024	-0.37466576
24969500	0.246795168	-0.376592576
24969750	0.24365688	-0.3704288
24970000	0.242283472	-0.374702144
24970250	0.24580344	-0.374446752
24970500	0.243515648	-0.37051296
24970750	0.24244568	-0.374602848
24971000	0.2442384	-0.371392928
24971250	0.241958256	-0.373968704
24971500	0.244241344	-0.376230432
24971750	0.243154528	-0.371053312
24972000	0.240989776	-0.375499552
24972250	0.245496032	-0.377275328
24972500	0.242839008	-0.37121072
24972750	0.241129888	-0.375495776
24973000	0.245517248	-0.377301792
24973250	0.242365056	-0.371235968
24973500	0.241212976	-0.375701376
24973750	0.24376864	-0.373455968
24974000	0.241778848	-0.373049632
24974250	0.241984064	-0.376181952
24974500	0.242543392	-0.371933408
24974750	0.240523712	-0.37566736
24975000	0.244050816	-0.37772496
24975250	0.242119472	-0.371808544
24975500	0.240138144	-0.37598976
24975750	0.244609664	-0.378474336
24976000	0.241719728	-0.37194
24976250	0.240329312	-0.376423584
24976500	0.243728592	-0.376253376
24976750	0.241471072	-0.37230656
24977000	0.23997936	-0.376237728
24977250	0.241977632	-0.373089088
24977500	0.240115904	-0.3748592
24977750	0.241668352	-0.37740048
24978000	0.241129024	-0.372744608
24978250	0.238615984	-0.376981568
24978500	0.24313464	-0.379230016
24978750	0.240473136	-0.372734688
24979000	0.238993504	-0.377202496
24979250	0.24332776	-0.378802464
24979500	0.240579824	-0.372882144
24979750	0.238944816	-0.377201664
24980000	0.241853104	-0.375438528
24980250	0.240156816	-0.37368272
24980500	0.24009808	-0.377411232
24980750	0.2408624	-0.37341904
24981000	0.23817736	-0.377362752
24981250	0.24177432	-0.379388384
24981500	0.239902736	-0.373424256
24981750	0.237929968	-0.377905024
24982000	0.242342784	-0.379926464
24982250	0.239357472	-0.373789408
24982500	0.23776728	-0.377928096
24982750	0.241680416	-0.378424768
24983000	0.239159376	-0.373799616
24983250	0.237844208	-0.378013952
24983500	0.240086432	-0.374934336
24983750	0.237814128	-0.376936224
24984000	0.239490544	-0.3792272
24984250	0.239008432	-0.374446048
24984500	0.236724416	-0.378674432
24984750	0.240932304	-0.380654304
24985000	0.23870712	-0.374521504
24985250	0.236835072	-0.378605184
24985500	0.24117456	-0.381032192
24985750	0.238367152	-0.374700832
24986000	0.23694072	-0.378811008
24986250	0.239768224	-0.3774072
24986500	0.237709296	-0.375886784
24986750	0.237259136	-0.379195872
24987000	0.238405296	-0.375335232
24987250	0.23624456	-0.378683552
24987500	0.239301456	-0.380581216
24987750	0.237838464	-0.375250336
24988000	0.235459344	-0.379464288
24988250	0.240125904	-0.38188144
24988500	0.237268112	-0.375435136
24988750	0.235722688	-0.379597088
24989000	0.239497568	-0.380250048
24989250	0.237131392	-0.37553104
24989500	0.235460704	-0.379635712
24989750	0.238043968	-0.376631424
24990000	0.236396672	-0.377598048
