# Hz S RI R 50
21000000	-0.247899168	0.070342664
21001125	-0.257319008	0.06952916
21002250	-0.24818696	0.07103236
21003375	-0.263165856	0.071043008
21004500	-0.255316432	0.071826896
21005625	-0.247746048	0.072015024
21006750	-0.263593472	0.071894032
21007875	-0.254968288	0.073054992
21009000	-0.253970688	0.073516848
21010125	-0.263501792	0.072937504
21011250	-0.254996896	0.074381864
21012375	-0.262409664	0.074726888
21013500	-0.26040968	0.07309856
21014625	-0.249716864	0.074630248
21015750	-0.2638956	0.075034936
21016875	-0.257334896	0.074295048
21018000	-0.248310272	0.07475852
21019125	-0.263790048	0.075606176
21020250	-0.254922544	0.076411112
21021375	-0.248943632	0.076722176
21022500	-0.26381552	0.07653812
21023625	-0.25514704	0.07763644
21024750	-0.258530048	0.078402888
21025875	-0.262110256	0.077314528
21027000	-0.253018624	0.078592768
21028125	-0.263210688	0.078852896
21029250	-0.258918848	0.077480944
21030375	-0.248839328	0.078538056
21031500	-0.263523552	0.079544216
21032625	-0.254711984	0.079559848
21033750	-0.247607008	0.07960212
21034875	-0.263546464	0.080173688
21036000	-0.25510696	0.081148808
21037125	-0.253002912	0.081458208
21038250	-0.263354416	0.081502264
21039375	-0.254625168	0.082051232
21040500	-0.2622892	0.083051056
21041625	-0.261316128	0.081753464
21042750	-0.251095888	0.082381928
21043875	-0.2630544	0.083216192
21045000	-0.256065552	0.082434768
21046125	-0.247958128	0.082916792
21047250	-0.263502	0.083971544
21048375	-0.255212224	0.08382388
21049500	-0.248553952	0.08355836
21050625	-0.263452448	0.084924336
21051750	-0.254452144	0.085470584
21052875	-0.257551216	0.086445144
21054000	-0.262234384	0.086023024
21055125	-0.253624016	0.08661768
21056250	-0.262731824	0.087310448
21057375	-0.257794672	0.085927984
21058500	-0.248828464	0.086333168
21059625	-0.263079408	0.087889704
21060750	-0.255466192	0.08720384
21061875	-0.247639632	0.087343312
21063000	-0.263414032	0.088695376
21064125	-0.254444752	0.088995528
21065250	-0.252204864	0.0893534
21066375	-0.26319512	0.089834632
21067500	-0.254455392	0.09007836
21068625	-0.26180944	0.09160108
21069750	-0.260573152	0.089597944
21070875	-0.25100392	0.090400096
21072000	-0.262836672	0.09178208
21073125	-0.256850832	0.090046256
21074250	-0.247733056	0.09031228
21075375	-0.262930272	0.092547
21076500	-0.254176352	0.092125352
21077625	-0.24745144	0.091428544
21078750	-0.263048832	0.093458136
21079875	-0.254478032	0.093819736
21081000	-0.256544	0.094405
21082125	-0.261884624	0.09415132
21083250	-0.25351328	0.094423984
21084375	-0.262397824	0.095930608
21085500	-0.259093888	0.094235936
21086625	-0.24825792	0.093977576
21087750	-0.262768128	0.096388104
21088875	-0.254036464	0.095256448
21090000	-0.247220432	0.09503264
21091125	-0.26290208	0.097316168
21092250	-0.25416016	0.09711504
21093375	-0.251129056	0.097177896
21094500	-0.262563552	0.0983928
21095625	-0.253606112	0.097842624
21096750	-0.2604712	0.099768376
21097875	-0.2606124	0.098528208
21099000	-0.250821136	0.098309912
21100125	-0.262342128	0.100419152
21101250	-0.255661248	0.098748248
21102375	-0.247398048	0.098188584
21103500	-0.262595056	0.10112064
21104625	-0.254260176	0.100354016
21105750	-0.2468976	0.099213576
21106875	-0.262483424	0.102159296
21108000	-0.25358	0.101484288
21109125	-0.255260768	0.102652296
21110250	-0.261793888	0.102937024
21111375	-0.252665664	0.102687696
21112500	-0.261421888	0.104379384
21113625	-0.2574372	0.102372536
21114750	-0.248272624	0.102181032
21115875	-0.26197904	0.10495216
21117000	-0.254787184	0.10360004
21118125	-0.24662616	0.102746608
21119250	-0.262188944	0.105662312
21120375	-0.253823936	0.10483368
21121500	-0.25009256	0.105076936
21122625	-0.262086512	0.106920024
21123750	-0.253243024	0.106279168
21124875	-0.25943288	0.108439032
21126000	-0.259605408	0.106642136
21127125	-0.250100768	0.106212912
21128250	-0.261135424	0.10883332
21129375	-0.255879216	0.106332744
21130500	-0.246725232	0.105998112
21131625	-0.261286256	0.109424192
21132750	-0.252975888	0.108060768
21133875	-0.245980272	0.106961536
21135000	-0.261240576	0.110590776
21136125	-0.252819248	0.109550768
21137250	-0.254012672	0.110309648
21138375	-0.260138448	0.110960776
21139500	-0.2518256	0.110255816
21140625	-0.260077504	0.11274464
21141750	-0.257645184	0.110757984
21142875	-0.247790288	0.109780968
21144000	-0.260624144	0.113371584
21145125	-0.252885872	0.11152868
21146250	-0.245633712	0.1102984
21147375	-0.260877728	0.114055736
21148500	-0.252305504	0.112859216
21149625	-0.247957008	0.11243536
21150750	-0.260313664	0.115147272
21151875	-0.251600208	0.113715488
21153000	-0.25739432	0.116109992
21154125	-0.258712496	0.115172984
21155250	-0.249207952	0.114127392
21156375	-0.2595388	0.117200408
21157500	-0.2536512	0.114566728
21158625	-0.245247696	0.113415952
21159750	-0.259688736	0.117713664
21160875	-0.25183624	0.116382048
21162000	-0.244499456	0.114314568
21163125	-0.259797808	0.118876712
21164250	-0.251099856	0.117298424
21165375	-0.251710928	0.118102736
21166500	-0.259296656	0.119750456
21167625	-0.250496624	0.118373296
21168750	-0.258275776	0.121086808
21169875	-0.255219904	0.118644696
21171000	-0.246351376	0.117802984
21172125	-0.259011808	0.121673584
21173250	-0.252314096	0.119046504
21174375	-0.244228496	0.117678488
21175500	-0.2591348	0.122445696
21176625	-0.250500112	0.120564584
21177750	-0.246358624	0.119834584
21178875	-0.258805184	0.123336648
21180000	-0.250357296	0.121862776
21181125	-0.254798704	0.124258256
21182250	-0.256755536	0.123123192
21183375	-0.247944528	0.121805952
21184500	-0.257954656	0.125502424
21185625	-0.253340336	0.122544904
21186750	-0.244169088	0.121121152
21187875	-0.258242064	0.126342968
21189000	-0.249950016	0.123719376
21190125	-0.243173632	0.12209492
21191250	-0.25809512	0.127300408
21192375	-0.249886784	0.125671672
21193500	-0.249666384	0.12616472
21194625	-0.257330128	0.128357512
21195750	-0.249255488	0.126486
21196875	-0.256767728	0.129724712
21198000	-0.255031104	0.127521976
21199125	-0.245446896	0.125554992
21200250	-0.257107472	0.130387904
21201375	-0.250145104	0.127575192
21202500	-0.242972192	0.125498448
21203625	-0.257329136	0.13117728
21204750	-0.249197568	0.1290236
21205875	-0.244061744	0.127370712
21207000	-0.2568748	0.13204828
21208125	-0.248349136	0.1295242
21209250	-0.252743424	0.13240452
21210375	-0.255662528	0.132375928
21211500	-0.24662968	0.130080704
21212625	-0.255804	0.134195984
21213750	-0.250981264	0.13085084
21214875	-0.242451904	0.129040824
21216000	-0.255993152	0.134647248
21217125	-0.248679904	0.132238344
21218250	-0.241391984	0.129432784
21219375	-0.255975808	0.13570912
21220500	-0.247777968	0.133073808
21221625	-0.247151232	0.133629752
21222750	-0.255668944	0.136747088
21223875	-0.247626032	0.13437816
21225000	-0.254392896	0.138034704
21226125	-0.252832656	0.135693232
21227250	-0.2440188	0.13342248
21228375	-0.255451472	0.138910096
21229500	-0.249449312	0.135530208
21230625	-0.24131256	0.132963224
21231750	-0.25495008	0.139277024
21232875	-0.247027008	0.136294496
21234000	-0.24186232	0.13452336
21235125	-0.254947424	0.1401916
21236250	-0.246559584	0.137175072
21237375	-0.249734944	0.139793104
21238500	-0.253029728	0.139858736
21239625	-0.244659536	0.137388768
21240750	-0.253739056	0.142233632
21241875	-0.250254336	0.138787536
21243000	-0.2411036	0.136247952
21244125	-0.253861808	0.142825056
21245250	-0.24602704	0.139526224
21246375	-0.23983888	0.13705552
21247500	-0.253974176	0.143845984
21248625	-0.246090032	0.141162528
21249750	-0.244347312	0.14091648
21250875	-0.253157648	0.14469232
21252000	-0.245278176	0.141616064
21253125	-0.251952144	0.145847664
21254250	-0.251086064	0.143583328
21255375	-0.241949904	0.141098752
21256500	-0.252394528	0.146393888
21257625	-0.246264592	0.142581296
21258750	-0.238954192	0.140207952
21259875	-0.252428592	0.1470904
21261000	-0.244934464	0.144070352
21262125	-0.239279168	0.141631936
21263250	-0.252360128	0.148357072
21264375	-0.24435616	0.144848352
21265500	-0.247048448	0.147729952
21266625	-0.251223296	0.14871528
21267750	-0.242726176	0.1455592
21268875	-0.250927664	0.150260144
21270000	-0.246807008	0.146449376
21271125	-0.238939456	0.1437956
21272250	-0.251264512	0.150979696
21273375	-0.244472368	0.147205888
21274500	-0.237785104	0.144320704
21275625	-0.25112104	0.151561376
21276750	-0.243285792	0.14822152
21277875	-0.240944272	0.148273632
21279000	-0.250442352	0.152484592
21280125	-0.242842544	0.149408128
21281250	-0.248547824	0.153782384
21282375	-0.248054352	0.151223456
21283500	-0.239568032	0.148249184
21284625	-0.24991112	0.154754064
21285750	-0.24506816	0.150698128
21286875	-0.236936208	0.14787672
21288000	-0.249978208	0.155206016
21289125	-0.242249328	0.151638592
21290250	-0.236661232	0.149124448
21291375	-0.249667744	0.15642464
21292500	-0.241904736	0.152889536
21293625	-0.243796208	0.1551124
21294750	-0.2478796	0.156162224
21295875	-0.240506112	0.152963792
21297000	-0.24805904	0.158282832
21298125	-0.2454772	0.15486992
21299250	-0.237180944	0.151876672
21300375	-0.248133184	0.158792016
21301500	-0.24103088	0.154456336
21302625	-0.234957152	0.151751072
21303750	-0.248202448	0.159800848
21304875	-0.240902192	0.156425264
21306000	-0.238608496	0.155822768
21307125	-0.24785592	0.161000704
21308250	-0.240365808	0.156941328
21309375	-0.245874432	0.161796144
21310500	-0.245913712	0.160189776
21311625	-0.237473328	0.156390336
21312750	-0.246763488	0.162575808
21313875	-0.241535616	0.158280784
21315000	-0.234299968	0.155248048
21316125	-0.2467164	0.163323824
21317250	-0.239625296	0.159229552
21318375	-0.233780784	0.156017712
21319500	-0.246238672	0.16425472
21320625	-0.238931424	0.160289376
21321750	-0.240156592	0.162283568
21322875	-0.245501584	0.164642
21324000	-0.23757384	0.16089544
21325125	-0.244737568	0.166088848
21326250	-0.241815712	0.162202528
21327375	-0.233860048	0.159111776
21328500	-0.245173296	0.16692552
21329625	-0.239024528	0.162453808
21330750	-0.232480224	0.159128688
21331875	-0.245084128	0.167867536
21333000	-0.237813184	0.163645792
21334125	-0.235202144	0.162580064
21335250	-0.2447868	0.168831456
21336375	-0.237129552	0.164705792
21337500	-0.241906208	0.1693872
21338625	-0.242622112	0.167410368
21339750	-0.234658368	0.163654992
21340875	-0.243248864	0.170644816
21342000	-0.239374752	0.16585208
21343125	-0.231712048	0.162363984
21344250	-0.24352456	0.17145576
21345375	-0.23645192	0.166739424
21346500	-0.230913008	0.163166416
21347625	-0.243148144	0.17218984
21348750	-0.236104528	0.16794048
21349875	-0.236644496	0.169667872
21351000	-0.241894432	0.172269248
21352125	-0.233108768	0.167170368
21353250	-0.24207656	0.17438464
21354375	-0.237021392	0.169592112
21355500	-0.230359776	0.166244496
21356625	-0.241935232	0.175240912
21357750	-0.235056656	0.1705588
21358875	-0.22990288	0.166773024
21360000	-0.241440864	0.17597096
21361125	-0.234377696	0.171291776
21362250	-0.23594272	0.173850544
21363375	-0.240483488	0.176209216
21364500	-0.233165376	0.171744064
21365625	-0.239952992	0.177568832
21366750	-0.236855232	0.173588464
21367875	-0.229709104	0.16980488
21369000	-0.24014888	0.178658448
21370125	-0.234513056	0.17359496
21371250	-0.228344272	0.16975728
21372375	-0.239910176	0.179644256
21373500	-0.23311808	0.17470928
21374625	-0.231213472	0.174093696
21375750	-0.239981568	0.180681728
21376875	-0.232741424	0.175732544
21378000	-0.237110752	0.18095232
21379125	-0.23767264	0.178731856
21380250	-0.229970176	0.174355664
21381375	-0.238299072	0.182072688
21382500	-0.234599456	0.176971776
21383625	-0.22740664	0.173010208
21384750	-0.238484272	0.182734368
21385875	-0.23198736	0.177802496
21387000	-0.226907232	0.174243248
21388125	-0.238062448	0.183894448
21389250	-0.231478	0.17922248
21390375	-0.232107792	0.180864272
21391500	-0.236841424	0.183616
21392625	-0.229956336	0.179041136
21393750	-0.236173328	0.185250928
21394875	-0.234868672	0.181901872
21396000	-0.22693848	0.177187936
21397125	-0.236180992	0.186113744
21398250	-0.230466048	0.180673984
21399375	-0.225164448	0.177100096
21400500	-0.235965664	0.187176256
21401625	-0.230058816	0.18198
21402750	-0.227207472	0.180253968
21403875	-0.235373552	0.187756544
21405000	-0.22920688	0.182340144
21406125	-0.233077744	0.1881724
21407250	-0.234197296	0.18695992
21408375	-0.226125984	0.181372448
21409500	-0.234196736	0.189624528
21410625	-0.230226448	0.184537344
21411750	-0.224038512	0.1802728
21412875	-0.234460288	0.190763168
21414000	-0.22830288	0.185355328
21415125	-0.223601744	0.180993072
21416250	-0.234087824	0.191682816
21417375	-0.227499376	0.186092848
21418500	-0.227713904	0.187752128
21419625	-0.233070336	0.191847408
21420750	-0.226759824	0.186725072
21421875	-0.231960384	0.192928784
21423000	-0.230260976	0.188866944
21424125	-0.223440416	0.184602
21425250	-0.232180192	0.193894144
21426375	-0.227768832	0.188409072
21427500	-0.221824928	0.183926848
21428625	-0.231959856	0.194539584
21429750	-0.225996832	0.18905448
21430875	-0.223124768	0.187648448
21432000	-0.231505312	0.195725136
21433125	-0.225571392	0.190319152
21434250	-0.228441056	0.195654128
21435375	-0.23005888	0.194316512
21436500	-0.223137184	0.189221664
21437625	-0.230042528	0.197415536
21438750	-0.227555104	0.192356928
21439875	-0.220377744	0.187504048
21441000	-0.230009968	0.198100672
21442125	-0.224296464	0.192214416
21443250	-0.219694576	0.187964656
21444375	-0.229664208	0.198853424
21445500	-0.223746576	0.193453904
21446625	-0.2233648	0.194906224
21447750	-0.228568416	0.199040048
21448875	-0.222854608	0.193786032
21450000	-0.227653024	0.200571952
