# Hz S RI R 50
18068000	-0.16172672	-0.324700864
18068250	-0.177882368	-0.333626464
18068500	-0.159067696	-0.324272608
18068750	-0.124163088	-0.316029888
18069000	-0.178319104	-0.334123168
18069250	-0.161737872	-0.32417536
18069500	-0.154071536	-0.32260672
18069750	-0.178083152	-0.33325104
18070000	-0.156560016	-0.322953408
18070250	-0.178237264	-0.331573216
18070500	-0.17654312	-0.332492928
18070750	-0.137495904	-0.318999008
18071000	-0.179154768	-0.33314928
18071250	-0.161361392	-0.3245208
18071500	-0.12570524	-0.31684016
18071750	-0.179006512	-0.333353568
18072000	-0.162929392	-0.323801664
18072250	-0.13796232	-0.318269696
18072500	-0.179335792	-0.332998336
18072750	-0.161078896	-0.32335184
18073000	-0.173585392	-0.327634976
18073250	-0.1790376	-0.332652608
18073500	-0.149841456	-0.321013408
18073750	-0.17973056	-0.33175392
18074000	-0.16797472	-0.326593856
18074250	-0.127558976	-0.315834336
18074500	-0.18024872	-0.332375392
18074750	-0.163356704	-0.323402112
18075000	-0.12723392	-0.315039168
18075250	-0.180607088	-0.33234192
18075500	-0.162233952	-0.322425504
18075750	-0.155969008	-0.321685408
18076000	-0.129525992	-0.314715008
18076250	-0.182692096	-0.3292144
18076500	-0.162611936	-0.32040592
18076750	-0.126583624	-0.313467008
18077000	-0.182866512	-0.329604
18077250	-0.165461792	-0.320456192
18077500	-0.153481984	-0.318939968
18077750	-0.182946992	-0.329378592
18078000	-0.162714432	-0.319496768
18078250	-0.18283736	-0.327074624
18078500	-0.182431088	-0.328880512
18078750	-0.141801408	-0.31578208
18079000	-0.183498896	-0.328551904
18079250	-0.166625744	-0.321596608
18079500	-0.128315512	-0.313550688
18079750	-0.183861136	-0.328919456
18080000	-0.16612352	-0.319723264
18080250	-0.135822688	-0.315143968
18080500	-0.18413576	-0.328671744
18080750	-0.16430416	-0.319370048
18081000	-0.174021776	-0.322617536
18081250	-0.183908144	-0.328222624
18081500	-0.150291216	-0.316889984
18081750	-0.18442512	-0.327127552
18082000	-0.173974992	-0.323405536
18082250	-0.130511912	-0.313966176
18082500	-0.185056336	-0.327590144
18082750	-0.16767992	-0.319539136
18083000	-0.129204232	-0.31282608
18083250	-0.18514136	-0.327827616
18083500	-0.165768784	-0.318717184
18083750	-0.153317792	-0.317250624
18084000	-0.18511312	-0.32755744
18084250	-0.167762752	-0.318647008
18084500	-0.185035584	-0.324768672
18084750	-0.182258656	-0.325758656
18085000	-0.144285808	-0.314883552
18085250	-0.185622608	-0.326774464
18085500	-0.174020624	-0.321569696
18085750	-0.131227272	-0.312056224
18086000	-0.186287232	-0.326675104
18086250	-0.166337072	-0.317995872
18086500	-0.13581112	-0.313249216
18086750	-0.186283872	-0.326927936
18087000	-0.168305792	-0.317888544
18087250	-0.17316984	-0.3200544
18087500	-0.185809664	-0.326125024
18087750	-0.157044	-0.316028832
18088000	-0.186751264	-0.325470816
18088250	-0.180962736	-0.323838944
18088500	-0.134310432	-0.312760544
18088750	-0.187384672	-0.325809536
18089000	-0.166615712	-0.317212
18089250	-0.130961064	-0.311848
18089500	-0.187755648	-0.325793728
18089750	-0.169955888	-0.31716304
18090000	-0.154515584	-0.315273984
18090250	-0.187590144	-0.325110496
18090500	-0.167884256	-0.316920864
18090750	-0.187152624	-0.32262576
18091000	-0.186922096	-0.324652448
18091250	-0.148936272	-0.313970432
18091500	-0.188206208	-0.324345312
18091750	-0.17137976	-0.317996608
18092000	-0.13282992	-0.311411456
18092250	-0.1885784	-0.324807904
18092500	-0.170706544	-0.316170176
18092750	-0.13745816	-0.311283936
18093000	-0.188966768	-0.324559328
18093250	-0.168713296	-0.315560512
18093500	-0.174855328	-0.317762816
18093750	-0.188985312	-0.323994272
18094000	-0.162865248	-0.315349312
18094250	-0.18927968	-0.322631232
18094500	-0.17919552	-0.31964864
18094750	-0.145103968	-0.31166608
18095000	-0.189545712	-0.32357984
18095250	-0.17218464	-0.3169632
18095500	-0.133145216	-0.310579456
18095750	-0.189893552	-0.323734144
18096000	-0.169892672	-0.314842528
18096250	-0.155290144	-0.313580256
18096500	-0.189799104	-0.323332992
18096750	-0.17188976	-0.315111648
18097000	-0.189251408	-0.320113952
18097250	-0.187885088	-0.321727232
18097500	-0.150226288	-0.312128416
18097750	-0.190578608	-0.322267072
18098000	-0.17937936	-0.318151776
18098250	-0.135636848	-0.31022768
18098500	-0.190986656	-0.322514368
18098750	-0.170590816	-0.314330112
18099000	-0.137922064	-0.310084384
18099250	-0.191340832	-0.322757216
18099500	-0.173106608	-0.314248544
18099750	-0.17486664	-0.315576896
18100000	-0.190716912	-0.322040256
18100250	-0.162698864	-0.312434176
18100500	-0.19153704	-0.320551392
18100750	-0.186448688	-0.319922496
18101000	-0.141283216	-0.310197408
18101250	-0.192063728	-0.321174048
18101500	-0.170516432	-0.313491584
18101750	-0.134851232	-0.3099904
18102000	-0.192458224	-0.321717248
18102250	-0.17413224	-0.31333392
18102500	-0.156500016	-0.31096016
18102750	-0.192480752	-0.321140928
18103000	-0.172083872	-0.312798752
18103250	-0.191910528	-0.317720704
18103500	-0.192075808	-0.320590592
18103750	-0.154993536	-0.31096208
18104000	-0.192853936	-0.320233568
18104250	-0.176933376	-0.314466624
18104500	-0.136833184	-0.30952976
18104750	-0.193193872	-0.320640096
18105000	-0.175339744	-0.312793504
18105250	-0.1413652	-0.309502272
18105500	-0.1936328	-0.320650272
18105750	-0.17309392	-0.311955872
18106000	-0.176619744	-0.313690016
18106250	-0.193599136	-0.319870464
18106500	-0.167826848	-0.31126192
18106750	-0.193834832	-0.318418656
18107000	-0.184580336	-0.316391616
18107250	-0.14343352	-0.3089288
18107500	-0.19442696	-0.31913696
18107750	-0.178147696	-0.313071104
18108000	-0.137403504	-0.30860528
18108250	-0.19482192	-0.31943744
18108500	-0.174171744	-0.311283328
18108750	-0.157653712	-0.30972336
18109000	-0.195085904	-0.319163648
18109250	-0.176020176	-0.311080608
18109500	-0.193308032	-0.315326272
18109750	-0.19358448	-0.318122432
18110000	-0.156323888	-0.309351936
18110250	-0.19507952	-0.318217024
18110500	-0.184258736	-0.314522144
18110750	-0.13960072	-0.308241888
18111000	-0.195681088	-0.318168032
18111250	-0.174916688	-0.31081472
18111500	-0.140124272	-0.308182432
18111750	-0.196067104	-0.3184256
18112000	-0.17718008	-0.310345408
18112250	-0.17739584	-0.311469824
18112500	-0.1956996	-0.318055136
18112750	-0.16910696	-0.309496
18113000	-0.196363472	-0.31648784
18113250	-0.1914328	-0.315722816
18113500	-0.147595376	-0.307649152
18113750	-0.196777008	-0.317302016
18114000	-0.175242112	-0.310146816
18114250	-0.139106848	-0.307507616
18114500	-0.196913776	-0.31726192
18114750	-0.178742576	-0.309492096
18115000	-0.158574304	-0.307795968
18115250	-0.197330624	-0.316933696
18115500	-0.176335824	-0.309575936
18115750	-0.195629728	-0.313943904
18116000	-0.196238272	-0.31625184
18116250	-0.162539184	-0.307999936
18116500	-0.197506784	-0.3154696
18116750	-0.18272528	-0.310985632
18117000	-0.143269264	-0.307434752
18117250	-0.198304336	-0.316217344
18117500	-0.179322288	-0.308684224
18117750	-0.142251088	-0.306661888
18118000	-0.198730208	-0.31641888
18118250	-0.177679616	-0.308438784
18118500	-0.178572208	-0.310490656
18118750	-0.198395392	-0.315409472
18119000	-0.173317712	-0.307734976
18119250	-0.198664688	-0.31376032
18119500	-0.190264192	-0.31199648
18119750	-0.146888976	-0.306430496
18120000	-0.19900248	-0.314545344
18120250	-0.183087792	-0.30930912
18120500	-0.141511536	-0.30643376
18120750	-0.199322336	-0.3146576
18121000	-0.178483056	-0.307443488
18121250	-0.159375616	-0.306509856
18121500	-0.199698784	-0.314508416
18121750	-0.179914256	-0.307605344
18122000	-0.196847952	-0.3109232
18122250	-0.198600304	-0.313548192
18122500	-0.163568752	-0.306005728
18122750	-0.200246224	-0.31315248
18123000	-0.189188224	-0.310269696
18123250	-0.14358968	-0.305799488
18123500	-0.200521824	-0.313866304
18123750	-0.179076416	-0.307092928
18124000	-0.143327664	-0.305997088
18124250	-0.200739424	-0.313832544
18124500	-0.18161312	-0.306786368
18124750	-0.179514176	-0.307738112
18125000	-0.200317776	-0.313367104
18125250	-0.173333328	-0.30540864
18125500	-0.200538768	-0.311466016
18125750	-0.197567264	-0.311871424
18126000	-0.15209432	-0.30573616
18126250	-0.201536432	-0.312525376
18126500	-0.18026168	-0.30628448
18126750	-0.143106848	-0.305783392
18127000	-0.20194976	-0.31228592
18127250	-0.18305384	-0.305470912
18127500	-0.163437888	-0.30567904
18127750	-0.202043776	-0.311843904
18128000	-0.179780896	-0.305015168
18128250	-0.197738352	-0.30832976
18128500	-0.20136672	-0.311385856
18128750	-0.166326656	-0.30450496
18129000	-0.202496208	-0.31024112
18129250	-0.187845488	-0.307139456
18129500	-0.144969104	-0.304793888
18129750	-0.203070336	-0.310945408
18130000	-0.183570208	-0.304444416
18130250	-0.145415344	-0.304326816
18130500	-0.203103552	-0.31098576
18130750	-0.18150872	-0.304151584
18131000	-0.180384192	-0.306243168
18131250	-0.2031648	-0.310852224
18131500	-0.18002128	-0.303601408
18131750	-0.203304224	-0.308968928
18132000	-0.195597232	-0.308105824
18132250	-0.153942384	-0.304281024
18132500	-0.204107664	-0.309840288
18132750	-0.187773728	-0.30562496
18133000	-0.146009504	-0.303692896
18133250	-0.204261072	-0.309849984
18133500	-0.182288736	-0.303559456
18133750	-0.161306096	-0.303835904
18134000	-0.204403424	-0.309876064
18134250	-0.184617104	-0.303338016
18134500	-0.19904304	-0.30573824
18134750	-0.203352704	-0.308949632
18135000	-0.16728864	-0.302503392
18135250	-0.205028928	-0.308284672
18135500	-0.195082624	-0.306730976
18135750	-0.147940656	-0.303158432
18136000	-0.20557864	-0.308741632
18136250	-0.183179808	-0.302424832
18136500	-0.147044912	-0.302876096
18136750	-0.205444256	-0.308755232
18137000	-0.185715408	-0.302224352
18137250	-0.182014784	-0.303043904
18137500	-0.205332336	-0.30810032
18137750	-0.179350384	-0.301432864
18138000	-0.205538816	-0.305995424
18138250	-0.203068128	-0.307209472
18138500	-0.15889064	-0.302257312
18138750	-0.206290336	-0.306960416
18139000	-0.185280176	-0.302169696
18139250	-0.146950112	-0.302370176
18139500	-0.206825664	-0.307099264
18139750	-0.187197456	-0.300452128
18140000	-0.162163824	-0.301798496
18140250	-0.207247152	-0.30621744
18140500	-0.184911664	-0.299948256
18140750	-0.203298256	-0.302107424
18141000	-0.206831216	-0.303583808
18141250	-0.177668688	-0.298008672
18141500	-0.207459376	-0.301297952
18141750	-0.194982208	-0.300396864
18142000	-0.146443184	-0.300641856
18142250	-0.208050848	-0.302097984
18142500	-0.187438688	-0.296691744
18142750	-0.147125424	-0.299773856
18143000	-0.2084932	-0.301663232
18143250	-0.185032096	-0.296503872
18143500	-0.180720672	-0.29859792
18143750	-0.208418784	-0.301072096
18144000	-0.184800624	-0.29588048
18144250	-0.207824128	-0.299066272
18144500	-0.200956784	-0.29909456
18144750	-0.156940896	-0.298690592
18145000	-0.208872752	-0.300246816
18145250	-0.192873088	-0.297097664
18145500	-0.148032928	-0.299416096
18145750	-0.209169008	-0.300230784
18146000	-0.186151632	-0.2956296
18146250	-0.161752256	-0.29806544
18146500	-0.209587056	-0.300194368
18146750	-0.187858448	-0.295026496
18147000	-0.202210032	-0.296040736
18147250	-0.208166224	-0.299463616
18147500	-0.1716812	-0.296644704
18147750	-0.20971472	-0.298586912
18148000	-0.199988816	-0.298182592
18148250	-0.150461744	-0.298816864
18148500	-0.210187792	-0.29921984
18148750	-0.186388688	-0.295222944
18149000	-0.148682736	-0.2987552
18149250	-0.210331456	-0.299490336
18149500	-0.189353536	-0.294299104
18149750	-0.181761264	-0.296578368
18150000	-0.210185648	-0.299049376
18150250	-0.183920224	-0.294363616
18150500	-0.210069232	-0.29695904
18150750	-0.208184688	-0.299156928
18151000	-0.163289056	-0.29713136
18151250	-0.21100624	-0.2994144
18151500	-0.189558992	-0.296416576
18151750	-0.150608688	-0.299467296
18152000	-0.211202736	-0.301277504
18152250	-0.191352032	-0.295988992
18152500	-0.162885712	-0.298758976
18152750	-0.21141056	-0.302042176
18153000	-0.188743632	-0.296289632
18153250	-0.202377664	-0.298200256
18153500	-0.21053688	-0.301754208
18153750	-0.179559712	-0.297623296
18154000	-0.211270016	-0.3010016
18154250	-0.196880992	-0.29883552
18154500	-0.155449984	-0.299823168
18154750	-0.211825776	-0.301868928
18155000	-0.191522784	-0.296906368
18155250	-0.152986368	-0.299445024
18155500	-0.211866576	-0.302040064
18155750	-0.189670048	-0.297004672
18156000	-0.183488688	-0.297681856
18156250	-0.211583424	-0.30209984
18156500	-0.19004032	-0.296885152
18156750	-0.211230256	-0.300027072
18157000	-0.205775648	-0.300744384
18157250	-0.164684432	-0.298621088
18157500	-0.2119684	-0.301510848
18157750	-0.196930176	-0.29843872
18158000	-0.154020192	-0.299839648
18158250	-0.211962784	-0.302150208
18158500	-0.190110176	-0.296925408
18158750	-0.164317616	-0.298846688
18159000	-0.212306064	-0.302328224
18159250	-0.192310576	-0.29680976
18159500	-0.202753392	-0.298973792
18159750	-0.211232784	-0.301613696
18160000	-0.177525872	-0.297731776
18160250	-0.212618608	-0.300666208
18160500	-0.203874176	-0.300254656
18160750	-0.156549872	-0.29950752
18161000	-0.212757456	-0.301928736
18161250	-0.190704352	-0.296896064
18161500	-0.1545736	-0.299578656
18161750	-0.21304408	-0.301835488
18162000	-0.193264224	-0.296196672
18162250	-0.183212176	-0.297733472
18162500	-0.212629648	-0.301801888
18162750	-0.189277344	-0.296588896
18163000	-0.212735328	-0.29964448
18163250	-0.211426576	-0.301340928
18163500	-0.16925824	-0.297806368
18163750	-0.21343784	-0.300547904
18164000	-0.193701776	-0.297036832
18164250	-0.155913168	-0.299250528
18164500	-0.21359976	-0.301377728
18164750	-0.194338624	-0.29591648
18165000	-0.16517	-0.298013152
18165250	-0.213471296	-0.301170272
18165500	-0.19174672	-0.296097856
18165750	-0.2045552	-0.29701968
18166000	-0.213117424	-0.300869056
18166250	-0.182825888	-0.296902912
18166500	-0.213877424	-0.299655072
18166750	-0.201307712	-0.298381568
18167000	-0.158459424	-0.299182592
18167250	-0.214240112	-0.300508544
18167500	-0.195141472	-0.2950264
18167750	-0.157407008	-0.298536608
18168000	-0.214651312	-0.30051536
