# Hz S RI R 50
14000000	-0.364242048	0.225711296
14000875	-0.363647072	0.227125488
14001750	-0.367286944	0.227820912
14002625	-0.356214176	0.227484784
14003500	-0.367298528	0.228980416
14004375	-0.360147488	0.227561744
14005250	-0.352652992	0.2283968
14006125	-0.367290016	0.230270576
14007000	-0.35719296	0.229837056
14007875	-0.351944256	0.22895784
14008750	-0.36696112	0.23146
14009625	-0.35604	0.230849536
14010500	-0.356403136	0.231652864
14011375	-0.366048736	0.232927872
14012250	-0.355711328	0.23270288
14013125	-0.3638336	0.23411184
14014000	-0.361009888	0.233642272
14014875	-0.35185296	0.234059024
14015750	-0.36452384	0.235728048
14016625	-0.3570304	0.23522048
14017500	-0.349764992	0.234800272
14018375	-0.364273408	0.237032048
14019250	-0.35382704	0.236076288
14020125	-0.350445312	0.235673536
14021000	-0.364027008	0.238651152
14021875	-0.353351136	0.238566736
14022750	-0.357706304	0.239603936
14023625	-0.360907488	0.240759536
14024500	-0.350131552	0.241347168
14025375	-0.361539712	0.24334336
14026250	-0.357295744	0.243199024
14027125	-0.34723872	0.243036528
14028000	-0.361532832	0.244420576
14028875	-0.351172736	0.243348512
14029750	-0.3465216	0.24362328
14030625	-0.36127664	0.246078432
14031500	-0.350804032	0.245783968
14032375	-0.35029792	0.245842624
14033250	-0.360016896	0.247629312
14034125	-0.349446848	0.246548736
14035000	-0.357900384	0.248777104
14035875	-0.357297024	0.248816016
14036750	-0.346585952	0.248426656
14037625	-0.358548448	0.250235312
14038500	-0.350341344	0.248109664
14039375	-0.343826656	0.248778
14040250	-0.358609056	0.250962464
14041125	-0.348438688	0.250558048
14042000	-0.343990976	0.249588688
14042875	-0.357793824	0.252641264
14043750	-0.347005536	0.251320992
14044625	-0.351299072	0.252939344
14045500	-0.356338272	0.253833056
14046375	-0.345900864	0.253032768
14047250	-0.355426848	0.255015024
14048125	-0.350019744	0.253224608
14049000	-0.341658816	0.253603728
14049875	-0.35569968	0.255824928
14050750	-0.346770848	0.254843168
14051625	-0.341201088	0.253839312
14052500	-0.355311776	0.256805664
14053375	-0.345195136	0.254735024
14054250	-0.34467952	0.255144448
14055125	-0.354700192	0.256794128
14056000	-0.34467728	0.255835952
14056875	-0.351978464	0.257540704
14057750	-0.35054528	0.256272848
14058625	-0.341362848	0.255730368
14059500	-0.352920224	0.258474048
14060375	-0.346198784	0.257176432
14061250	-0.338988544	0.255770384
14062125	-0.352683552	0.259070544
14063000	-0.342733088	0.257016336
14063875	-0.339292992	0.256230656
14064750	-0.35207472	0.260423744
14065625	-0.342158464	0.25873208
14066500	-0.345370048	0.259624128
14067375	-0.349444128	0.261014704
14068250	-0.340188128	0.259320432
14069125	-0.34965392	0.262264816
14070000	-0.346039328	0.261624752
14070875	-0.337448064	0.259848832
14071750	-0.349553536	0.263133968
14072625	-0.340361312	0.260307616
14073500	-0.335998144	0.25956648
14074375	-0.349258624	0.264113696
14075250	-0.339722144	0.262281264
14076125	-0.338451584	0.262000112
14077000	-0.348234144	0.265584592
14077875	-0.338475232	0.26277504
14078750	-0.345425024	0.265632832
14079625	-0.34553536	0.266403312
14080500	-0.336120576	0.263759696
14081375	-0.34601472	0.267344112
14082250	-0.33906944	0.264464976
14083125	-0.333128928	0.263829776
14084000	-0.345956864	0.268262528
14084875	-0.337028864	0.26635664
14085750	-0.333070592	0.26460528
14086625	-0.345315328	0.269657696
14087500	-0.335961024	0.266734608
14088375	-0.33853696	0.268268256
14089250	-0.344006816	0.270699808
14090125	-0.33453648	0.26840744
14091000	-0.34293808	0.271471104
14091875	-0.338394688	0.269493088
14092750	-0.330929344	0.268485472
14093625	-0.342961952	0.272998688
14094500	-0.334665152	0.270931872
14095375	-0.33007232	0.268870944
14096250	-0.342148768	0.27429152
14097125	-0.33295264	0.271126176
14098000	-0.33216912	0.271336256
14098875	-0.341572032	0.275433344
14099750	-0.33255488	0.272967328
14100625	-0.338214944	0.2754976
14101500	-0.338040352	0.27525696
14102375	-0.329820064	0.27350432
14103250	-0.339434432	0.277363104
14104125	-0.334105472	0.275942944
14105000	-0.327115872	0.273422048
14105875	-0.339299872	0.278671584
14106750	-0.330436	0.275487328
14107625	-0.326878432	0.274272096
14108500	-0.338598624	0.28001696
14109375	-0.329521184	0.2775688
14110250	-0.331673696	0.278298752
14111125	-0.336516352	0.280600288
14112000	-0.328069056	0.278021568
14112875	-0.3360224	0.281920992
14113750	-0.333370688	0.281043328
14114625	-0.32479056	0.27859936
14115500	-0.33592624	0.283184416
14116375	-0.328030016	0.27940784
14117250	-0.323885824	0.278622048
14118125	-0.335613856	0.284547136
14119000	-0.326860128	0.281951648
14119875	-0.325231264	0.281118688
14120750	-0.33448848	0.285931552
14121625	-0.325370656	0.282461344
14122500	-0.331294176	0.285832992
14123375	-0.331897632	0.286760096
14124250	-0.323093376	0.283601824
14125125	-0.332478528	0.287844736
14126000	-0.326636768	0.28439136
14126875	-0.320577696	0.283501312
14127750	-0.3322296	0.289021504
14128625	-0.32373968	0.286479264
14129500	-0.320262144	0.284209952
14130375	-0.331296704	0.29022672
14131250	-0.322965664	0.286926272
14132125	-0.324577152	0.288503232
14133000	-0.330228448	0.291532448
14133875	-0.321828032	0.288585536
14134750	-0.328737248	0.292508928
14135625	-0.325466112	0.289898944
14136500	-0.318481824	0.288562464
14137375	-0.328734432	0.293660224
14138250	-0.322136864	0.290880576
14139125	-0.317349664	0.288613568
14140000	-0.328191584	0.294919136
14140875	-0.319897152	0.290958656
14141750	-0.318400256	0.290648832
14142625	-0.327330944	0.296235136
14143500	-0.31906064	0.292914976
14144375	-0.32362096	0.295622048
14145250	-0.324408288	0.295871328
14146125	-0.316275552	0.29353104
14147000	-0.325262016	0.298284864
14147875	-0.32074864	0.296239328
14148750	-0.313658848	0.299715328
14149625	-0.325200064	0.30516304
14150500	-0.316948192	0.302435072
14151375	-0.314527072	0.301576928
14152250	-0.324120736	0.306226464
14153125	-0.315394048	0.302900672
14154000	-0.320475872	0.30588496
14154875	-0.32208016	0.30719456
14155750	-0.314159456	0.304613152
14156625	-0.321604544	0.308291712
14157500	-0.316769952	0.30546448
14158375	-0.310215776	0.304081408
14159250	-0.32178496	0.309456256
14160125	-0.313736416	0.306629888
14161000	-0.309885216	0.30502208
14161875	-0.320787744	0.31078304
14162750	-0.31251568	0.30717792
14163625	-0.313588544	0.308148064
14164500	-0.319780544	0.311587264
14165375	-0.311791168	0.308163392
14166250	-0.31813936	0.311646848
14167125	-0.316071552	0.309728864
14168000	-0.3088904	0.307324384
14168875	-0.318586336	0.312152928
14169750	-0.312657952	0.309647904
14170625	-0.307284256	0.307076768
14171500	-0.317866848	0.312907488
14172375	-0.310313216	0.309048352
14173250	-0.307697504	0.308220224
14174125	-0.317113792	0.314018976
14175000	-0.309404448	0.310621824
14175875	-0.312662208	0.31273248
14176750	-0.314358368	0.313622976
14177625	-0.307015712	0.310855264
14178500	-0.314866272	0.315496736
14179375	-0.311259872	0.31378032
14180250	-0.303989504	0.310668224
14181125	-0.31440704	0.31629552
14182000	-0.307098208	0.31217488
14182875	-0.30377696	0.311114496
14183750	-0.313636544	0.317584864
14184625	-0.306152672	0.31399808
14185500	-0.306247072	0.31437936
14186375	-0.312352672	0.318269184
14187250	-0.305028096	0.314577632
14188125	-0.310702464	0.31880688
14189000	-0.310015392	0.318438368
14189875	-0.30173888	0.3151864
14190750	-0.310616896	0.320404192
14191625	-0.304921408	0.316299648
14192500	-0.300259392	0.314971072
14193375	-0.31023184	0.32115568
14194250	-0.302938048	0.318236704
14195125	-0.30049424	0.316433088
14196000	-0.309094304	0.32259568
14196875	-0.301648576	0.318406496
14197750	-0.304984544	0.3211776
14198625	-0.307182912	0.323379232
14199500	-0.299863808	0.319858656
14200375	-0.306763744	0.324007488
14201250	-0.302963744	0.320964768
14202125	-0.296653984	0.318981632
14203000	-0.306592768	0.325436352
14203875	-0.299866048	0.321910176
14204750	-0.29633872	0.31970672
14205625	-0.305759712	0.326293056
14206500	-0.298489792	0.322490752
14207375	-0.298557792	0.32318688
14208250	-0.304444256	0.327613888
14209125	-0.297562016	0.323820224
14210000	-0.302591744	0.327999104
14210875	-0.3012512	0.326284
14211750	-0.294544512	0.323695488
14212625	-0.302872672	0.32962192
14213500	-0.297691488	0.326733312
14214375	-0.29279424	0.323914592
14215250	-0.301822304	0.330705056
14216125	-0.295188192	0.326023424
14217000	-0.292914048	0.325325568
14217875	-0.301319264	0.331757472
14218750	-0.294037024	0.328099904
14219625	-0.296652608	0.330143168
14220500	-0.298871552	0.331912704
14221375	-0.292290592	0.32858816
14222250	-0.2985792	0.333721024
14223125	-0.295941344	0.331902656
14224000	-0.289073312	0.32835616
14224875	-0.298173696	0.334755968
14225750	-0.29179728	0.330293792
14226625	-0.288763168	0.328887232
14227500	-0.297561728	0.336100928
14228375	-0.2906488	0.332252736
14229250	-0.29066144	0.332107616
14230125	-0.296109216	0.337047296
14231000	-0.289546368	0.332717824
14231875	-0.29411552	0.337342784
14232750	-0.293733792	0.337357824
14233625	-0.287342048	0.33350928
14234500	-0.294169216	0.338750624
14235375	-0.289410944	0.334770592
14236250	-0.285049984	0.332613792
14237125	-0.293689664	0.340025632
14238000	-0.287272096	0.336210784
14238875	-0.284775264	0.334240672
14239750	-0.29240368	0.341204096
14240625	-0.28599792	0.336716512
14241500	-0.288295296	0.339029536
14242375	-0.290884224	0.34175184
14243250	-0.284403776	0.337564384
14244125	-0.290104288	0.342726976
14245000	-0.28712608	0.339577632
14245875	-0.281305696	0.337341152
14246750	-0.289774976	0.344084288
14247625	-0.284089632	0.340384352
14248500	-0.280672832	0.33793376
14249375	-0.288895968	0.34504784
14250250	-0.282561632	0.34056928
14251125	-0.281842816	0.340977024
14252000	-0.287526208	0.346218944
14252875	-0.281190432	0.342084096
14253750	-0.285502528	0.346005248
14254625	-0.2851672	0.345331744
14255500	-0.278752256	0.34212976
14256375	-0.285355648	0.347860352
14257250	-0.28138256	0.344998752
14258125	-0.276587616	0.341929952
14259000	-0.28472304	0.348948224
14259875	-0.278818016	0.344439744
14260750	-0.276395648	0.343173984
14261625	-0.283884864	0.35011152
14262500	-0.277514592	0.34625552
14263375	-0.279348544	0.347930624
14264250	-0.281971232	0.350342656
14265125	-0.275901888	0.346343488
14266000	-0.2812504	0.351542624
14266875	-0.279549408	0.35026048
14267750	-0.27291712	0.346229568
14268625	-0.280959584	0.352879296
14269500	-0.275507616	0.348101792
14270375	-0.272380928	0.346606176
14271250	-0.280047136	0.354065184
14272125	-0.2739704	0.349962016
14273000	-0.2731656	0.34953296
14273875	-0.278580032	0.354965632
14274750	-0.272753152	0.350437856
14275625	-0.27643792	0.354948608
14276500	-0.27657152	0.355151296
14277375	-0.269979264	0.350750752
14278250	-0.27644816	0.356643232
14279125	-0.272968224	0.352669856
14280000	-0.268259104	0.35070416
14280875	-0.275965856	0.357887072
14281750	-0.270214752	0.353911072
14282625	-0.267859136	0.351848832
14283500	-0.274786688	0.35889136
14284375	-0.26898208	0.354332224
14285250	-0.270236288	0.356424544
14286125	-0.273253664	0.359465568
14287000	-0.267397488	0.355177568
14287875	-0.272074624	0.360233248
14288750	-0.269998816	0.357620544
14289625	-0.264510416	0.354957952
14290500	-0.271669248	0.36155856
14291375	-0.266849312	0.357898944
14292250	-0.26373768	0.355200832
14293125	-0.270810912	0.362788352
14294000	-0.265205824	0.357819808
14294875	-0.264221616	0.357958368
14295750	-0.269518016	0.36355792
14296625	-0.263962096	0.359560064
14297500	-0.267045952	0.363046048
14298375	-0.267431168	0.36310032
14299250	-0.261379392	0.359120032
14300125	-0.26736912	0.365253728
14301000	-0.264086608	0.362576832
14301875	-0.259331728	0.358935936
14302750	-0.266586688	0.366307424
14303625	-0.261485136	0.361616192
14304500	-0.258768176	0.360095264
14305375	-0.265541792	0.367275616
14306250	-0.26009392	0.363234048
14307125	-0.2610152	0.364599488
14308000	-0.263667728	0.36755936
14308875	-0.258497808	0.363455168
14309750	-0.2627756	0.368793248
14310625	-0.261700128	0.367537568
14311500	-0.255839968	0.363177376
14312375	-0.26227304	0.369805088
14313250	-0.257968784	0.365243808
14314125	-0.25491608	0.363542176
14315000	-0.261393488	0.3708736
14315875	-0.25614328	0.366833152
14316750	-0.255212224	0.365586816
14317625	-0.260000592	0.371849472
14318500	-0.25494688	0.367258336
14319375	-0.257838272	0.37112656
14320250	-0.258292528	0.372202912
14321125	-0.252559456	0.367508864
14322000	-0.257947392	0.373384224
14322875	-0.2550388	0.36950288
14323750	-0.250410256	0.367059968
14324625	-0.25727144	0.374563616
14325500	-0.25213408	0.370498688
14326375	-0.249973664	0.368277568
14327250	-0.25587592	0.37547856
14328125	-0.251131568	0.37072064
14329000	-0.251809888	0.372404768
14329875	-0.25474528	0.376242944
14330750	-0.24947168	0.37160016
14331625	-0.2534256	0.376616288
14332500	-0.25201368	0.37450512
14333375	-0.246684672	0.371125152
14334250	-0.25286904	0.378295648
14335125	-0.248802272	0.37466272
14336000	-0.245620336	0.371732672
14336875	-0.251620624	0.379004832
14337750	-0.246961248	0.37434288
14338625	-0.245625904	0.374119328
14339500	-0.250308576	0.379992864
14340375	-0.245603472	0.3756912
14341250	-0.247724112	0.37888384
14342125	-0.248484608	0.379357088
14343000	-0.243330672	0.375648288
14343875	-0.247977392	0.381389152
14344750	-0.245511968	0.379365728
14345625	-0.240768032	0.375292736
14346500	-0.24743032	0.382611712
14347375	-0.24301784	0.37781856
14348250	-0.240660656	0.3764264
14349125	-0.24633696	0.38350368
14350000	-0.241347184	0.379263744
