# Hz S RI R 50
10100000	-0.396916704	-0.289417856
10100125	-0.395949504	-0.29617552
10100250	-0.397030528	-0.288739488
10100375	-0.395104128	-0.279104512
10100500	-0.39353808	-0.292233024
10100625	-0.397013824	-0.288209024
10100750	-0.397996672	-0.277549216
10100875	-0.396881312	-0.285640064
10101000	-0.398182016	-0.28878464
10101125	-0.397644064	-0.280487776
10101250	-0.397844064	-0.287602848
10101375	-0.402598112	-0.28035488
10101500	-0.397824032	-0.293059136
10101625	-0.3994312	-0.286402944
10101750	-0.39754288	-0.277860896
10101875	-0.396635328	-0.29250368
10102000	-0.399095808	-0.286985824
10102125	-0.399982784	-0.274931584
10102250	-0.39747344	-0.285311808
10102375	-0.39965136	-0.287589312
10102500	-0.39886416	-0.278158688
10102625	-0.400141792	-0.285710464
10102750	-0.402210208	-0.284826496
10102875	-0.398842176	-0.286046784
10103000	-0.3991784	-0.286292352
10103125	-0.398446432	-0.278514688
10103250	-0.39787712	-0.293816224
10103375	-0.39888416	-0.286731712
10103500	-0.399736	-0.2743232
10103625	-0.397367456	-0.288199552
10103750	-0.398516096	-0.286576064
10103875	-0.397899008	-0.277382144
10104000	-0.400020704	-0.284051936
10104125	-0.401287616	-0.286641056
10104250	-0.399258432	-0.2812024
10104375	-0.399959264	-0.285588832
10104500	-0.40061056	-0.281527872
10104625	-0.39787904	-0.291459168
10104750	-0.39935808	-0.285845856
10104875	-0.40003952	-0.274590496
10105000	-0.396242368	-0.2922504
10105125	-0.399478784	-0.285694816
10105250	-0.39820768	-0.275667776
10105375	-0.398212896	-0.285372416
10105500	-0.399726144	-0.285875456
10105625	-0.40037536	-0.275627136
10105750	-0.40045392	-0.284400992
10105875	-0.401540032	-0.283924064
10106000	-0.399461056	-0.28641952
10106125	-0.399900192	-0.285163392
10106250	-0.402012	-0.274701728
10106375	-0.39802256	-0.293034592
10106500	-0.399747296	-0.285238112
10106625	-0.397665952	-0.275390752
10106750	-0.397541568	-0.28741856
10106875	-0.399476288	-0.28516656
10107000	-0.4001416	-0.274041216
10107125	-0.401100704	-0.283227552
10107250	-0.40090784	-0.285717952
10107375	-0.400791008	-0.277527872
10107500	-0.400216864	-0.284583328
10107625	-0.404180512	-0.278132064
10107750	-0.398730016	-0.291168288
10107875	-0.400367776	-0.284604832
10108000	-0.397909792	-0.27596624
10108125	-0.396921568	-0.290524896
10108250	-0.399906144	-0.284587424
10108375	-0.401206048	-0.272611872
10108500	-0.398757344	-0.28208304
10108625	-0.400383104	-0.285115456
10108750	-0.39957936	-0.274794656
10108875	-0.401300704	-0.282948384
10109000	-0.403975136	-0.281299232
10109125	-0.400160672	-0.28427936
10109250	-0.401009408	-0.283704576
10109375	-0.398614688	-0.276306208
10109500	-0.398345056	-0.291241792
10109625	-0.400615872	-0.283795904
10109750	-0.40116112	-0.271747936
10109875	-0.398753504	-0.285337664
10110000	-0.400288224	-0.283468704
10110125	-0.399894112	-0.273769376
10110250	-0.401744192	-0.281589696
10110375	-0.408782944	-0.265837664
10110500	-0.4062936	-0.279047552
10110625	-0.40683728	-0.276866944
10110750	-0.40709888	-0.268144016
10110875	-0.40663008	-0.275466816
10111000	-0.408305088	-0.277568576
10111125	-0.407774048	-0.26914272
10111250	-0.406986208	-0.276503264
10111375	-0.408575584	-0.27397968
10111500	-0.407864448	-0.279115744
10111625	-0.40689376	-0.27701152
10111750	-0.408206208	-0.26655832
10111875	-0.406134336	-0.282676864
10112000	-0.40626384	-0.277244256
10112125	-0.40598688	-0.267810912
10112250	-0.40549232	-0.277075232
10112375	-0.4062688	-0.277330528
10112500	-0.407500192	-0.26746416
10112625	-0.40742096	-0.275945024
10112750	-0.408531488	-0.277053472
10112875	-0.406032864	-0.278564224
10113000	-0.406847872	-0.276871776
10113125	-0.409551872	-0.269016832
10113250	-0.407419296	-0.281895424
10113375	-0.406341568	-0.276975648
10113500	-0.40531488	-0.26852768
10113625	-0.405327072	-0.281106592
10113750	-0.406118528	-0.277334592
10113875	-0.407414752	-0.266635424
10114000	-0.40574656	-0.274891264
10114125	-0.40713824	-0.27780112
10114250	-0.40635936	-0.270218272
10114375	-0.407103744	-0.276177664
10114500	-0.411005632	-0.272688832
10114625	-0.407721952	-0.279052512
10114750	-0.406449504	-0.276715584
10114875	-0.40534544	-0.268643712
10115000	-0.40617136	-0.283070336
10115125	-0.40685824	-0.276347456
10115250	-0.406937056	-0.265507936
10115375	-0.405263008	-0.276176704
10115500	-0.406841888	-0.27681328
10115625	-0.406735904	-0.267508992
10115750	-0.407672992	-0.275012032
10115875	-0.409807072	-0.274818752
10116000	-0.407674816	-0.273641024
10116125	-0.4073264	-0.275634944
10116250	-0.407582368	-0.270178048
10116375	-0.406634496	-0.281881024
10116500	-0.407047456	-0.276121728
10116625	-0.40809504	-0.264700176
10116750	-0.406423232	-0.278458176
10116875	-0.407107136	-0.275678688
10117000	-0.406726592	-0.266292656
10117125	-0.406913984	-0.273429536
10117250	-0.408724896	-0.275914624
10117375	-0.40762656	-0.268213536
10117500	-0.407969792	-0.274625056
10117625	-0.409385696	-0.272320672
10117750	-0.407996864	-0.277868736
10117875	-0.407951264	-0.27485328
10118000	-0.408753664	-0.264588352
10118125	-0.407089952	-0.281175232
10118250	-0.407650592	-0.275036416
10118375	-0.4066048	-0.26570704
10118500	-0.406677568	-0.274255104
10118625	-0.407793792	-0.275031104
10118750	-0.40723936	-0.265107808
10118875	-0.40880112	-0.273352704
10119000	-0.410048544	-0.27420208
10119125	-0.408100576	-0.272035584
10119250	-0.40808	-0.273790784
10119375	-0.411205024	-0.265719328
10119500	-0.40766464	-0.28053952
10119625	-0.40806688	-0.274384512
10119750	-0.406123296	-0.265595072
10119875	-0.40669424	-0.276724864
10120000	-0.4079576	-0.274230944
10120125	-0.408306592	-0.263977088
10120250	-0.408143456	-0.272200576
10120375	-0.408745888	-0.274980416
10120500	-0.40937856	-0.26733408
10120625	-0.4087912	-0.273158912
10120750	-0.412755936	-0.269573536
10120875	-0.409122816	-0.277261184
10121000	-0.40856656	-0.2730912
10121125	-0.407150176	-0.265673792
10121250	-0.407486304	-0.279693024
10121375	-0.4082488	-0.273787136
10121500	-0.408651456	-0.262341984
10121625	-0.407230304	-0.2727704
10121750	-0.408221312	-0.273692896
10121875	-0.408737952	-0.264944736
10122000	-0.409438976	-0.27191744
10122125	-0.412108544	-0.271832064
10122250	-0.411631808	-0.266223552
10122375	-0.409111776	-0.272789024
10122500	-0.408730752	-0.26660368
10122625	-0.40810368	-0.279727712
10122750	-0.40891296	-0.272821728
10122875	-0.409630624	-0.262134768
10123000	-0.407062016	-0.276382656
10123125	-0.408532864	-0.27256608
10123250	-0.408056416	-0.263196144
10123375	-0.408994656	-0.270904512
10123500	-0.410619456	-0.272977472
10123625	-0.408441696	-0.265199872
10123750	-0.409781344	-0.27161168
10123875	-0.410611712	-0.268891392
10124000	-0.409665856	-0.275838304
10124125	-0.409538208	-0.272189792
10124250	-0.410324672	-0.261275984
10124375	-0.408653088	-0.278486752
10124500	-0.40923056	-0.271736928
10124625	-0.408151232	-0.26261264
10124750	-0.408655072	-0.271766496
10124875	-0.409292992	-0.27200464
10125000	-0.410152544	-0.261894976
10125125	-0.410615104	-0.270286048
10125250	-0.41144576	-0.270465056
10125375	-0.409847168	-0.26958144
10125500	-0.409933664	-0.27092672
10125625	-0.412746208	-0.262726992
10125750	-0.410355648	-0.278278336
10125875	-0.4100432	-0.27129728
10126000	-0.408112704	-0.262035168
10126125	-0.408307008	-0.273362112
10126250	-0.409843072	-0.270976352
10126375	-0.41020368	-0.260473456
10126500	-0.410137472	-0.2679424
10126625	-0.41109264	-0.271400864
10126750	-0.410542656	-0.26344848
10126875	-0.410501728	-0.269534752
10127000	-0.4139928	-0.265180592
10127125	-0.41059392	-0.273445344
10127250	-0.410606976	-0.269933888
10127375	-0.409304544	-0.262501088
10127500	-0.409190208	-0.277037408
10127625	-0.410571296	-0.269768384
10127750	-0.410657984	-0.258771424
10127875	-0.410065472	-0.269022496
10128000	-0.410969824	-0.270249728
10128125	-0.410146752	-0.261716128
10128250	-0.411729504	-0.268308432
10128375	-0.414319072	-0.268138256
10128500	-0.411815584	-0.267066144
10128625	-0.411133856	-0.26885392
10128750	-0.411705856	-0.26291176
10128875	-0.411164448	-0.275593696
10129000	-0.411370496	-0.268472768
10129125	-0.411522112	-0.258566976
10129250	-0.41000752	-0.271279488
10129375	-0.4112184	-0.268303184
10129500	-0.411239776	-0.25984344
10129625	-0.41157072	-0.265865856
10129750	-0.413511904	-0.268948096
10129875	-0.410656064	-0.265751712
10130000	-0.41240032	-0.266996832
10130125	-0.413459648	-0.264480832
10130250	-0.41273728	-0.27215584
10130375	-0.41198928	-0.2673744
10130500	-0.413539008	-0.257106
10130625	-0.411359616	-0.272926976
10130750	-0.412202528	-0.267404192
10130875	-0.410571584	-0.258792336
10131000	-0.412173408	-0.266749024
10131125	-0.412536832	-0.267588944
10131250	-0.412557312	-0.2580112
10131375	-0.413216416	-0.265670416
10131500	-0.414899008	-0.266011744
10131625	-0.413573728	-0.265708544
10131750	-0.413149632	-0.266379632
10131875	-0.415488448	-0.257893264
10132000	-0.413311232	-0.273007136
10132125	-0.413041248	-0.266248608
10132250	-0.411338464	-0.25760752
10132375	-0.412537568	-0.26942224
10132500	-0.413024448	-0.266093168
10132625	-0.413463232	-0.255933408
10132750	-0.413504608	-0.263495888
10132875	-0.41482208	-0.266560016
10133000	-0.413587232	-0.260662592
10133125	-0.413877568	-0.264762944
10133250	-0.416992512	-0.260655584
10133375	-0.414034656	-0.269077184
10133500	-0.413668384	-0.26531952
10133625	-0.412589504	-0.25755536
10133750	-0.412890816	-0.270654656
10133875	-0.413403808	-0.265290672
10134000	-0.413886752	-0.2544176
10134125	-0.413207616	-0.264869008
10134250	-0.414271456	-0.265543552
10134375	-0.413622048	-0.256957984
10134500	-0.41451056	-0.263363216
10134625	-0.417361984	-0.262785264
10134750	-0.415178464	-0.26334816
10134875	-0.41439872	-0.264385824
10135000	-0.414323712	-0.257887632
10135125	-0.4141536	-0.271104992
10135250	-0.414191712	-0.264013088
10135375	-0.414406368	-0.253316704
10135500	-0.41314816	-0.266564464
10135625	-0.414044992	-0.263995968
10135750	-0.41325104	-0.255559776
10135875	-0.41467472	-0.261917648
10136000	-0.416401952	-0.264157984
10136125	-0.414763392	-0.25723008
10136250	-0.41514816	-0.263013328
10136375	-0.416293152	-0.259984224
10136500	-0.415416512	-0.267074144
10136625	-0.415043072	-0.263297552
10136750	-0.415508672	-0.25263936
10136875	-0.415500832	-0.268561536
10137000	-0.415186496	-0.26290488
10137125	-0.414217504	-0.254220992
10137250	-0.414066624	-0.262699632
10137375	-0.41557728	-0.263178288
10137500	-0.414459328	-0.253628576
10137625	-0.41603536	-0.26132328
10137750	-0.4173528	-0.261543216
10137875	-0.415741952	-0.261761424
10138000	-0.415649888	-0.261863744
10138125	-0.417792928	-0.253719568
10138250	-0.415923968	-0.268956832
10138375	-0.415527264	-0.262028224
10138500	-0.414537216	-0.253202704
10138625	-0.414467584	-0.26488296
10138750	-0.415514464	-0.262184176
10138875	-0.416420672	-0.252315376
10139000	-0.41621584	-0.259251504
10139125	-0.416701056	-0.262563968
10139250	-0.4157864	-0.256577408
10139375	-0.416381344	-0.260990144
10139500	-0.419666912	-0.256151312
10139625	-0.417433536	-0.264984016
10139750	-0.416299488	-0.260950896
10139875	-0.4143544	-0.253311664
10140000	-0.41602608	-0.266373776
10140125	-0.41628912	-0.261007312
10140250	-0.417324928	-0.250148064
10140375	-0.415695104	-0.260751872
10140500	-0.4170072	-0.261354656
10140625	-0.416872352	-0.252339568
10140750	-0.417312352	-0.259191664
10140875	-0.420418144	-0.25836552
10141000	-0.417881152	-0.259428384
10141125	-0.416892096	-0.25998888
10141250	-0.41668368	-0.253217184
10141375	-0.417754976	-0.266019344
10141500	-0.4173504	-0.25908104
10141625	-0.417541408	-0.248763952
10141750	-0.417038208	-0.260430032
10141875	-0.417590336	-0.258716224
10142000	-0.41779552	-0.249196416
10142125	-0.419078336	-0.255064704
10142250	-0.421420608	-0.256323136
10142375	-0.421732608	-0.248346208
10142500	-0.421360352	-0.252460208
10142625	-0.423435456	-0.248770432
10142750	-0.423701088	-0.253652608
10142875	-0.421823392	-0.251327936
10143000	-0.423639776	-0.241566592
10143125	-0.424026016	-0.254497552
10143250	-0.422210912	-0.250408208
10143375	-0.422219968	-0.242674864
10143500	-0.422982848	-0.249863328
10143625	-0.42264576	-0.250040864
10143750	-0.423567424	-0.241469936
10143875	-0.423101792	-0.248881792
10144000	-0.425817056	-0.248437792
10144125	-0.424802144	-0.24793016
10144250	-0.422937376	-0.249309184
10144375	-0.42551952	-0.241012128
10144500	-0.425198496	-0.253592016
10144625	-0.42309232	-0.249401664
10144750	-0.422723168	-0.241225264
10144875	-0.423121088	-0.250322432
10145000	-0.422637248	-0.249310928
10145125	-0.424390592	-0.240055056
10145250	-0.423304512	-0.24744104
10145375	-0.424687488	-0.249562544
10145500	-0.425588864	-0.244119056
10145625	-0.423504928	-0.24860704
10145750	-0.427218432	-0.243201056
10145875	-0.425328768	-0.251126144
10146000	-0.423124256	-0.24898288
10146125	-0.423407904	-0.241615664
10146250	-0.423429152	-0.25224408
10146375	-0.42287728	-0.24971072
10146500	-0.423828928	-0.239990912
10146625	-0.421953472	-0.250404352
10146750	-0.422334176	-0.252834656
10146875	-0.421567392	-0.245226384
10147000	-0.421289184	-0.252441888
10147125	-0.424182048	-0.252286432
10147250	-0.422154688	-0.253677552
10147375	-0.420060224	-0.254633152
10147500	-0.41949696	-0.248936048
10147625	-0.420427808	-0.261872416
10147750	-0.41911168	-0.255792736
10147875	-0.418710112	-0.245954544
10148000	-0.418282784	-0.25837136
10148125	-0.418203072	-0.25628128
10148250	-0.417213152	-0.247895696
10148375	-0.418813952	-0.254437536
10148500	-0.420636128	-0.25715008
10148625	-0.41805584	-0.251895312
10148750	-0.418719424	-0.25630104
10148875	-0.419088768	-0.25319872
10149000	-0.418739424	-0.261882
10149125	-0.418173184	-0.2569992
10149250	-0.418331744	-0.24653944
10149375	-0.416694976	-0.263166544
10149500	-0.417906112	-0.257232192
10149625	-0.415635232	-0.249245184
10149750	-0.416705024	-0.256930912
10149875	-0.418123136	-0.258038704
10150000	-0.416203552	-0.248516032
