# Hz S RI R 50
7000000	0.196727552	0.187180496
7000750	0.18872232	0.195259536
7001500	0.195706672	0.186435616
7002250	0.194156128	0.190198608
7003000	0.187855168	0.19967664
7003750	0.197022896	0.186907344
7004500	0.189656224	0.194302304
7005250	0.18732144	0.196864304
7006000	0.196351504	0.186910784
7006750	0.190056592	0.195147216
7007500	0.19156976	0.19303
7008250	0.197244	0.186801616
7009000	0.190614048	0.194261632
7009750	0.19604416	0.185946576
7010500	0.196663184	0.18760208
7011250	0.189978912	0.198257648
7012000	0.19709	0.18653096
7012750	0.191933936	0.192706496
7013500	0.187999696	0.196515712
7014250	0.197987776	0.187269952
7015000	0.191062256	0.194556064
7015750	0.190960416	0.198282256
7016500	0.19807904	0.186460112
7017250	0.190911328	0.194673872
7018000	0.19417536	0.187600432
7018750	0.198177456	0.186277824
7019500	0.191312384	0.195347056
7020250	0.19724272	0.185273776
7021000	0.194543168	0.19066952
7021750	0.188301952	0.197858672
7022500	0.198865488	0.186759728
7023250	0.192438128	0.194854688
7024000	0.191470352	0.20171528
7024750	0.198554416	0.186936144
7025500	0.191736	0.195004224
7026250	0.192437888	0.191226512
7027000	0.19875784	0.185896032
7027750	0.191980416	0.194864912
7028500	0.197487008	0.185320432
7029250	0.197298032	0.187328032
7030000	0.191279888	0.197318464
7030750	0.199001648	0.186134176
7031500	0.195225184	0.19319184
7032250	0.19238832	0.20155984
7033000	0.199573168	0.186746
7033750	0.192875296	0.195912576
7034500	0.191749232	0.196525504
7035250	0.19918504	0.186673504
7036000	0.193456832	0.195813088
7036750	0.196547072	0.187681952
7037500	0.199151584	0.186260608
7038250	0.192654944	0.196341776
7039000	0.199833744	0.186003376
7039750	0.197384832	0.19082296
7040500	0.19347712	0.2018608
7041250	0.200877648	0.186254032
7042000	0.193927456	0.196057312
7042750	0.19222544	0.199385616
7043500	0.201061552	0.186838896
7044250	0.194639424	0.196603392
7045000	0.196340736	0.194042
7045750	0.200768224	0.186977072
7046500	0.19496408	0.196355264
7047250	0.199901216	0.186057488
7048000	0.200198864	0.187866496
7048750	0.195437936	0.201036896
7049500	0.201399696	0.187120752
7050250	0.196486816	0.195153248
7051000	0.193429264	0.201339184
7051750	0.203182496	0.187205344
7052500	0.195501568	0.197099152
7053250	0.196950736	0.200242704
7054000	0.202416576	0.187257664
7054750	0.196152736	0.197095328
7055500	0.199580448	0.188067264
7056250	0.202088368	0.187590992
7057000	0.197036032	0.1992856
7057750	0.202842448	0.186651616
7058500	0.200059328	0.193396352
7059250	0.195945856	0.202802272
7060000	0.20424064	0.188045984
7060750	0.198121376	0.198270608
7061500	0.199934	0.205131568
7062250	0.204085248	0.18797328
7063000	0.198409664	0.198868304
7063750	0.199243744	0.19479912
7064500	0.204712992	0.1888004
7065250	0.198855664	0.199020896
7066000	0.204337744	0.188047744
7066750	0.204437952	0.191212816
7067500	0.198801792	0.2029976
7068250	0.206396256	0.189626096
7069000	0.202830656	0.198961232
7069750	0.205227904	0.207898256
7070500	0.211364544	0.19440064
7071250	0.207302352	0.205840736
7072000	0.20696912	0.206965184
7072750	0.212524064	0.194970768
7073500	0.208019936	0.206104736
7074250	0.21031296	0.197239184
7075000	0.213458016	0.196235136
7075750	0.20984424	0.20771136
7076500	0.214481456	0.195248256
7077250	0.213087424	0.20090232
7078000	0.212947648	0.212269872
7078750	0.215024176	0.195924384
7079500	0.210679584	0.20734712
7080250	0.21007792	0.211634688
7081000	0.215795936	0.196605296
7081750	0.211921568	0.207673136
7082500	0.214138784	0.203750896
7083250	0.216377888	0.19660408
7084000	0.211930464	0.207698944
7084750	0.215783648	0.19515296
7085500	0.216027888	0.19794224
7086250	0.215061936	0.210966768
7087000	0.217754816	0.196141648
7087750	0.213539648	0.206975568
7088500	0.21232424	0.212618624
7089250	0.218612688	0.19680888
7090000	0.2146304	0.207852416
7090750	0.216514304	0.209447424
7091500	0.218522896	0.19676472
7092250	0.214707328	0.20797816
7093000	0.216265344	0.198025888
7093750	0.21926824	0.196836368
7094500	0.216350176	0.20939392
7095250	0.219552656	0.19586656
7096000	0.217795152	0.203101904
7096750	0.215252832	0.2126584
7097500	0.219919312	0.195793552
7098250	0.216239792	0.208439184
7099000	0.21954032	0.212724304
7099750	0.22030176	0.196132352
7100500	0.214937984	0.207582304
7101250	0.21272432	0.201223056
7102000	0.215804896	0.192842064
7102750	0.211270912	0.20473768
7103500	0.21406	0.190070784
7104250	0.213443184	0.194259264
7105000	0.209984896	0.207157664
7105750	0.214770032	0.189528704
7106500	0.211083264	0.201171616
7107250	0.214230128	0.207804928
7108000	0.214588912	0.190043264
7108750	0.210048304	0.203205008
7109500	0.209579936	0.203197184
7110250	0.214522976	0.18858376
7111000	0.210308816	0.202813424
7111750	0.212330208	0.190248752
7112500	0.214913152	0.189344016
7113250	0.21073448	0.20379688
7114000	0.21396056	0.187495904
7114750	0.213771008	0.195523632
7115500	0.21419288	0.206375472
7116250	0.216421184	0.187753232
7117000	0.211208336	0.202548544
7117750	0.212016912	0.207144656
7118500	0.2163172	0.188102272
7119250	0.211657328	0.202178304
7120000	0.213484608	0.194916176
7120750	0.216046912	0.188120144
7121500	0.212095616	0.202138064
7122250	0.215210256	0.186263248
7123000	0.21611128	0.189095344
7123750	0.215342016	0.204595888
7124500	0.217798608	0.186359616
7125250	0.213434672	0.20049368
7126000	0.213911648	0.206521936
7126750	0.218020864	0.18709576
7127500	0.213965584	0.201744112
7128250	0.21612136	0.201577136
7129000	0.218449472	0.186656144
7129750	0.214723088	0.201282608
7130500	0.215162352	0.187477072
7131250	0.218600624	0.187029904
7132000	0.216443328	0.202540176
7132750	0.219217104	0.1850928
7133500	0.216865296	0.195464048
7134250	0.215940192	0.206491664
7135000	0.21962544	0.185576256
7135750	0.216234512	0.201156208
7136500	0.22108864	0.204678304
7137250	0.220922608	0.186079152
7138000	0.216824048	0.200996464
7138750	0.216513216	0.194180336
7139500	0.221256208	0.185786816
7140250	0.217860032	0.201185296
7141000	0.220040512	0.184599888
7141750	0.220405856	0.190738064
7142500	0.218552832	0.205144656
7143250	0.221715472	0.18516792
7144000	0.22045744	0.19920784
7144750	0.223864176	0.2038972
7145500	0.222940096	0.185703136
7146250	0.219337856	0.201204736
7147000	0.219296672	0.20132384
7147750	0.22362208	0.18506752
7148500	0.220855056	0.201095696
7149250	0.220169776	0.185690624
7150000	0.22478968	0.185482112
7150750	0.221641216	0.202958224
7151500	0.224166304	0.183889888
7152250	0.223471664	0.193791824
7153000	0.226855936	0.203913488
7153750	0.225185984	0.18385648
7154500	0.222533712	0.200937632
7155250	0.223726512	0.20592008
7156000	0.22550432	0.183996992
7156750	0.223477936	0.201031056
7157500	0.223960224	0.192280256
7158250	0.226185584	0.184457632
7159000	0.223808672	0.201102528
7159750	0.225377968	0.183054352
7160500	0.227485584	0.18819048
7161250	0.228322576	0.202728256
7162000	0.227856896	0.183826592
7162750	0.225856992	0.2003864
7163500	0.228116	0.206345968
7164250	0.228736496	0.183028448
7165000	0.22643768	0.20041256
7165750	0.228331296	0.198400192
7166500	0.229303056	0.183735632
7167250	0.227683168	0.200983728
7168000	0.225526016	0.183835984
7168750	0.230611968	0.1832164
7169500	0.230061136	0.201661872
7170250	0.230044816	0.182361232
7171000	0.229947904	0.193994832
7171750	0.230848976	0.205795056
7172500	0.23155056	0.182401792
7173250	0.230285472	0.2003156
7174000	0.235073872	0.202275152
7174750	0.231657152	0.181411728
7175500	0.230719536	0.19994208
7176250	0.229528736	0.191948432
7177000	0.232722288	0.182190672
7177750	0.232289104	0.200509712
7178500	0.231519408	0.180967984
7179250	0.234054624	0.187222912
7180000	0.234777424	0.20376208
7180750	0.234109808	0.181236928
7181500	0.233977536	0.197950512
7182250	0.238528144	0.201456016
7183000	0.235163712	0.181159856
7183750	0.234545088	0.199903376
7184500	0.234553984	0.199182016
7185250	0.235934256	0.181188192
7186000	0.235434176	0.199025776
7186750	0.240914032	0.202605248
7187500	0.236835056	0.185172464
7188250	0.24143672	0.185387248
7189000	0.24405696	0.203984752
7189750	0.240646176	0.184581312
7190500	0.242487904	0.197855408
7191250	0.24543576	0.207856896
7192000	0.242181536	0.184120128
7192750	0.2440232	0.202303296
7193500	0.247689008	0.203868784
7194250	0.244157376	0.184304928
7195000	0.244361504	0.202494896
7195750	0.24092792	0.192499472
7196500	0.244120624	0.183480608
7197250	0.245892112	0.2022396
7198000	0.24258248	0.182608288
7198750	0.246116288	0.190835728
7199500	0.248840752	0.205254912
7200250	0.245307296	0.182558976
7201000	0.247868304	0.200234688
7201750	0.251947024	0.202922192
7202500	0.246694592	0.182977184
7203250	0.248093696	0.201599376
7204000	0.247309056	0.198592368
7204750	0.2473512	0.18199392
7205500	0.249297008	0.201380736
7206250	0.2440544	0.182724224
7207000	0.24840624	0.182975696
7207750	0.251819584	0.20275176
7208500	0.247530192	0.18118608
7209250	0.251452208	0.193563584
7210000	0.255411056	0.20151576
7210750	0.249469664	0.181653552
7211500	0.252509472	0.200461104
7212250	0.25569272	0.204974
7213000	0.25036728	0.180920288
7213750	0.25338376	0.199974032
7214500	0.249634704	0.18886104
7215250	0.251830816	0.18093152
7216000	0.25483016	0.199991728
7216750	0.249664464	0.179654128
7217500	0.253751808	0.186197328
7218250	0.258653616	0.200573216
7219000	0.252547984	0.179435728
7219750	0.256700752	0.199365456
7220500	0.260198272	0.20371688
7221250	0.253663952	0.17992384
7222000	0.257589216	0.198559536
7222750	0.256995744	0.194723136
7223500	0.25457832	0.17940904
7224250	0.25850808	0.198222656
7225000	0.250665696	0.180357808
7225750	0.255981712	0.179279648
7226500	0.260711008	0.19873688
7227250	0.254793936	0.177614016
7228000	0.259858848	0.192506
7228750	0.264570064	0.20234032
7229500	0.256594128	0.178420336
7230250	0.26200592	0.196916848
7231000	0.265367536	0.198739696
7231750	0.258110288	0.177247168
7232500	0.262247328	0.196781088
7233250	0.256600864	0.186645152
7234000	0.259493328	0.177080256
7234750	0.26433048	0.196458288
7235500	0.256559552	0.17667
7236250	0.26241168	0.184400144
7237000	0.268006944	0.199839264
7237750	0.259480864	0.175356064
7238500	0.265714016	0.194799184
7239250	0.269932352	0.196892464
7240000	0.260703744	0.175477088
7240750	0.266493296	0.195569824
7241500	0.264494144	0.192223136
7242250	0.261902864	0.17553608
7243000	0.267525472	0.194872448
7243750	0.256894208	0.176131328
7244500	0.263764176	0.176219552
7245250	0.270692096	0.19651432
7246000	0.261804944	0.174041568
7246750	0.268532224	0.18793904
7247500	0.272939936	0.194697568
7248250	0.263452672	0.174572448
7249000	0.27051936	0.194078064
7249750	0.275029376	0.19749632
7250500	0.264851904	0.173265104
7251250	0.271115424	0.1933884
7252000	0.264206464	0.181957216
7252750	0.266775168	0.173662496
7253500	0.273201728	0.193500208
7254250	0.263345456	0.172686672
7255000	0.270893664	0.179708912
7255750	0.276038272	0.193519664
7256500	0.26676088	0.171228848
7257250	0.274800768	0.192320624
7258000	0.279205248	0.19631864
7258750	0.267783376	0.171469072
7259500	0.275626624	0.191650272
7260250	0.272871456	0.187042464
7261000	0.269145568	0.171619472
7261750	0.276199392	0.191050016
7262500	0.264640656	0.172319328
7263250	0.270834368	0.171567744
7264000	0.279362688	0.191198368
7264750	0.268029536	0.169652352
7265500	0.277042496	0.184665936
7266250	0.283355872	0.193764176
7267000	0.27086336	0.169435568
7267750	0.279160032	0.189403232
7268500	0.2824208	0.190830464
7269250	0.271593792	0.169048128
7270000	0.280485024	0.189128368
7270750	0.271010624	0.178372528
7271500	0.272405312	0.169133328
7272250	0.281962208	0.188301632
7273000	0.270679744	0.16877224
7273750	0.2785152	0.176984768
7274500	0.286742304	0.190923744
7275250	0.27258592	0.167328576
7276000	0.283899104	0.186769344
7276750	0.286672768	0.188534976
7277500	0.274200992	0.166887392
7278250	0.28438208	0.187090352
7279000	0.281039968	0.183986256
7279750	0.275606688	0.166274432
7280500	0.285287744	0.186084368
7281250	0.271407456	0.168391424
7282000	0.278502688	0.167777632
7282750	0.289210144	0.187445152
7283500	0.275166496	0.165465568
7284250	0.285110528	0.178472624
7285000	0.291595616	0.185941344
7285750	0.276932512	0.1649172
7286500	0.288074528	0.184395232
7287250	0.292979712	0.187909536
7288000	0.278586592	0.164176864
7288750	0.288752768	0.18407968
7289500	0.279654112	0.173374816
7290250	0.280660608	0.163590368
7291000	0.291134752	0.18418504
7291750	0.276430816	0.16405096
7292500	0.2850928	0.169801152
7293250	0.294038592	0.183732224
7294000	0.27968816	0.162520656
7294750	0.292878912	0.18267456
7295500	0.297964768	0.18531056
7296250	0.281145472	0.162703168
7297000	0.292779776	0.180866592
7297750	0.288227296	0.176890128
7298500	0.282193184	0.161975056
7299250	0.29381856	0.180955184
7300000	0.277325184	0.163830096
