# Hz S RI R 50
3500000	-0.597895744	-0.2025632
3501250	-0.59813984	-0.20334232
3502500	-0.598162816	-0.20123768
3503750	-0.598742144	-0.198908896
3505000	-0.598623424	-0.20089048
3506250	-0.598479232	-0.198423216
3507500	-0.5993072	-0.197155936
3508750	-0.599065664	-0.19864992
3510000	-0.598773568	-0.196596992
3511250	-0.59942656	-0.1968584
3512500	-0.599529792	-0.196172528
3513750	-0.599455296	-0.193311872
3515000	-0.599905408	-0.19447128
3516250	-0.599587904	-0.19290928
3517500	-0.600254976	-0.191183888
3518750	-0.600245952	-0.192297376
3520000	-0.600167168	-0.189816912
3521250	-0.599784768	-0.187751008
3522500	-0.600845376	-0.189892208
3523750	-0.600264128	-0.187578624
3525000	-0.601018944	-0.186778176
3526250	-0.601166464	-0.18752728
3527500	-0.601226368	-0.18478248
3528750	-0.601561344	-0.185814528
3530000	-0.60165536	-0.18453224
3531250	-0.601930432	-0.18195824
3532500	-0.602013568	-0.183521216
3533750	-0.6014528	-0.181133536
3535000	-0.602301248	-0.179078608
3536250	-0.602233792	-0.181053728
3537500	-0.601326464	-0.178342432
3538750	-0.6024992	-0.17746128
3540000	-0.602641792	-0.178760896
3541250	-0.60239904	-0.176305104
3542500	-0.602827264	-0.176953664
3543750	-0.6030608	-0.176124368
3545000	-0.602236672	-0.173805616
3546250	-0.603238848	-0.174762912
3547500	-0.603395968	-0.172823632
3548750	-0.603110336	-0.170115408
3550000	-0.60369856	-0.172302272
3551250	-0.603269952	-0.170063424
3552500	-0.603594176	-0.167902688
3553750	-0.603781888	-0.170040288
3555000	-0.603462208	-0.167537712
3556250	-0.604324352	-0.167024368
3557500	-0.604103488	-0.167296
3558750	-0.60402208	-0.165386416
3560000	-0.60470304	-0.165725888
3561250	-0.604391168	-0.164508752
3562500	-0.60468704	-0.161938848
3563750	-0.604835392	-0.163655056
3565000	-0.604522688	-0.16152128
3566250	-0.604248576	-0.158322064
3567500	-0.605362048	-0.16116304
3568750	-0.60494048	-0.158512704
3570000	-0.605048832	-0.15667072
3571250	-0.605507712	-0.158548464
3572500	-0.60476064	-0.156462032
3573750	-0.605674816	-0.156733408
3575000	-0.605921024	-0.15607232
3576250	-0.605420352	-0.153129552
3577500	-0.605868416	-0.154562064
3578750	-0.605730368	-0.152956448
3580000	-0.60463936	-0.150310704
3581250	-0.60599616	-0.152039312
3582500	-0.60564416	-0.149480752
3583750	-0.60602496	-0.147447296
3585000	-0.606335424	-0.149824352
3586250	-0.605771776	-0.14709016
3587500	-0.606404928	-0.146094176
3588750	-0.606593728	-0.146663536
3590000	-0.606284928	-0.144005584
3591250	-0.606800704	-0.14459656
3592500	-0.606809536	-0.143473408
3593750	-0.606075328	-0.14071336
3595000	-0.6069264	-0.14248808
3596250	-0.606506048	-0.140215552
3597500	-0.60635232	-0.13737872
3598750	-0.607094656	-0.1401244
3600000	-0.606480576	-0.137698384
3601250	-0.606073792	-0.13602824
3602500	-0.60737056	-0.137596928
3603750	-0.606603456	-0.134585088
3605000	-0.607496512	-0.136072176
3606250	-0.607507584	-0.135372416
3607500	-0.607135936	-0.132446376
3608750	-0.607705472	-0.13383688
3610000	-0.607292992	-0.131927968
3611250	-0.607049344	-0.129188864
3612500	-0.60748608	-0.13137984
3613750	-0.607040448	-0.128762352
3615000	-0.606591552	-0.12693772
3616250	-0.60791456	-0.128762336
3617500	-0.607243328	-0.126155288
3618750	-0.60753984	-0.126008216
3620000	-0.608437184	-0.126823648
3621250	-0.606952256	-0.123738344
3622500	-0.608152128	-0.125210928
3623750	-0.608005248	-0.123731312
3625000	-0.607896832	-0.120750072
3626250	-0.608159616	-0.122840152
3627500	-0.607926976	-0.12043196
3628750	-0.607303616	-0.118208416
3630000	-0.608576768	-0.120805144
3631250	-0.607667904	-0.11799548
3632500	-0.6082736	-0.116831296
3633750	-0.60871104	-0.118754992
3635000	-0.607705024	-0.11594228
3636250	-0.609025664	-0.116749544
3637500	-0.60875232	-0.116127768
3638750	-0.60836256	-0.11289452
3640000	-0.60872544	-0.114739416
3641250	-0.608696704	-0.113142504
3642500	-0.607758464	-0.110116176
3643750	-0.609180992	-0.1125242
3645000	-0.608412032	-0.10976852
3646250	-0.60823328	-0.107342264
3647500	-0.609132736	-0.110369904
3648750	-0.607900672	-0.107596304
3650000	-0.608327616	-0.107590032
3651250	-0.609298496	-0.107805056
3652500	-0.60819168	-0.105177632
3653750	-0.609103744	-0.10632264
3655000	-0.608439424	-0.104914408
3656250	-0.608219776	-0.102401704
3657500	-0.609315072	-0.104092536
3658750	-0.60843616	-0.101653976
3660000	-0.608729856	-0.098752048
3661250	-0.609016384	-0.101891328
3662500	-0.608458432	-0.099418608
3663750	-0.60899008	-0.097669024
3665000	-0.609087744	-0.099443744
3666250	-0.608484672	-0.096553888
3667500	-0.609102592	-0.097182744
3668750	-0.609217472	-0.096484504
3670000	-0.608319744	-0.094047752
3671250	-0.609391424	-0.095391144
3672500	-0.609112768	-0.093355552
3673750	-0.60882336	-0.0901362
3675000	-0.609521792	-0.093312008
3676250	-0.60871136	-0.09059028
3677500	-0.608399744	-0.087887552
3678750	-0.60940384	-0.091007
3680000	-0.608107456	-0.088174688
3681250	-0.609318208	-0.087509336
3682500	-0.609632064	-0.08849124
3683750	-0.60846336	-0.085729048
3685000	-0.609110976	-0.086774896
3686250	-0.60879936	-0.085593568
3687500	-0.607662592	-0.082899904
3688750	-0.609457344	-0.084415264
3690000	-0.608015808	-0.082492696
3691250	-0.608322176	-0.079136592
3692500	-0.609302912	-0.082721552
3693750	-0.607991808	-0.079165944
3695000	-0.607820416	-0.07710524
3696250	-0.609201472	-0.079977816
3697500	-0.607764736	-0.077536672
3698750	-0.608618688	-0.077876304
3700000	-0.60918656	-0.077388104
3701250	-0.608019584	-0.075118416
3702500	-0.609022144	-0.076088656
3703750	-0.60860064	-0.074446672
3705000	-0.607459712	-0.071262024
3706250	-0.609135936	-0.073752888
3707500	-0.607775232	-0.0710436
3708750	-0.607656192	-0.067551192
3710000	-0.60900864	-0.07136968
3711250	-0.607956224	-0.068476488
3712500	-0.60825088	-0.068289904
3713750	-0.608527808	-0.069238728
3715000	-0.607869952	-0.066283124
3716250	-0.60839104	-0.067236184
3717500	-0.608378112	-0.066201956
3718750	-0.607144	-0.062520148
3720000	-0.608679616	-0.065430872
3721250	-0.607268032	-0.06258356
3722500	-0.606483968	-0.05942968
3723750	-0.608556608	-0.062840456
3725000	-0.607488832	-0.059651508
3726250	-0.607118592	-0.057985988
3727500	-0.608334272	-0.060909784
3728750	-0.606767616	-0.057627556
3730000	-0.608059456	-0.058942404
3731250	-0.60793056	-0.057794372
3732500	-0.60662368	-0.055300692
3733750	-0.607928512	-0.056971952
3735000	-0.607041024	-0.054962116
3736250	-0.606495616	-0.0515321
3737500	-0.60786624	-0.054862208
3738750	-0.606648256	-0.051944872
3740000	-0.605600576	-0.048673764
3741250	-0.60741056	-0.05274176
3742500	-0.606107904	-0.049505104
3743750	-0.606537408	-0.049152308
3745000	-0.60749376	-0.050156376
3746250	-0.60623968	-0.047195328
3747500	-0.607210752	-0.048508592
3748750	-0.606702976	-0.047316336
3750000	-0.605423808	-0.0435866
3751250	-0.606952	-0.046295064
3752500	-0.605854592	-0.043473224
3753750	-0.60492992	-0.04079118
3755000	-0.60693696	-0.043903068
3756250	-0.605300672	-0.040872248
3757500	-0.605326848	-0.038514292
3758750	-0.606829504	-0.041602664
3760000	-0.604930752	-0.038893764
3761250	-0.606418944	-0.039346848
3762500	-0.606248768	-0.03928808
3763750	-0.605003328	-0.0367979
3765000	-0.606216896	-0.037694456
3766250	-0.605210944	-0.036350564
3767500	-0.60437184	-0.032246248
3768750	-0.60631872	-0.035625512
3770000	-0.603920448	-0.032975372
3771250	-0.60391072	-0.029690954
3772500	-0.605776192	-0.0337375
3773750	-0.603909568	-0.028553262
3775000	-0.605362624	-0.031003548
3776250	-0.6042	-0.02876321
3777500	-0.602887552	-0.025275086
3778750	-0.605121856	-0.028661432
3780000	-0.60374592	-0.026119306
3781250	-0.602185088	-0.023943544
3782500	-0.604822016	-0.02623518
3783750	-0.603018944	-0.023685048
3785000	-0.603820288	-0.02394951
3786250	-0.60433184	-0.024083966
3787500	-0.602522624	-0.02123914
3788750	-0.60439968	-0.022903642
3790000	-0.603335616	-0.02099619
3791250	-0.602126144	-0.017015002
3792500	-0.603954432	-0.02053522
3793750	-0.6016672	-0.017562484
3795000	-0.601195328	-0.014303886
3796250	-0.603685312	-0.01844246
3797500	-0.601606336	-0.015457841
3798750	-0.601971392	-0.014447582
3800000	-0.603388416	-0.016166421
3801250	-0.601356928	-0.013053878
3802500	-0.603045952	-0.014062642
3803750	-0.602830272	-0.013716449
3805000	-0.600400768	-0.010071867
3806250	-0.602945216	-0.012773694
3807500	-0.601401856	-0.010113739
3808750	-0.599383104	-0.006902081
3810000	-0.602710464	-0.010360126
3811250	-0.600334848	-0.007427553
3812500	-0.599805632	-0.004994316
3813750	-0.60238784	-0.008337672
3815000	-0.600188608	-0.005469888
3816250	-0.60120576	-0.006014664
3817500	-0.601933376	-0.005769151
3818750	-0.599900736	-0.002795212
3820000	-0.601749696	-0.004216633
3821250	-0.601062208	-0.002975814
3822500	-0.598741376	0.000877976
3823750	-0.60134496	-0.002582789
3825000	-0.599457536	0.000276835
3826250	-0.598402112	0.003372481
3827500	-0.601366912	-0.000197151
3828750	-0.599147584	0.002322002
3830000	-0.59979936	0.003115671
3831250	-0.600914496	0.001984065
3832500	-0.598506048	0.005111666
3833750	-0.600712512	0.003568375
3835000	-0.600009984	0.004463266
3836250	-0.59813408	0.008030692
3837500	-0.600519104	0.005564176
3838750	-0.598294784	0.008162783
3840000	-0.597159296	0.011452967
3841250	-0.60004192	0.008073109
3842500	-0.597743232	0.010198221
3843750	-0.596901056	0.012322282
3845000	-0.599775552	0.009762532
3846250	-0.59744416	0.012605134
3847500	-0.598705024	0.012266392
3848750	-0.59912416	0.012408248
3850000	-0.596867968	0.015032922
3851250	-0.59915936	0.013846091
3852500	-0.597898176	0.01515566
3853750	-0.595719296	0.019030776
3855000	-0.599081792	0.01595267
3856250	-0.596858048	0.018307648
3857500	-0.596157696	0.022912272
3858750	-0.598604032	0.017907176
3860000	-0.59611136	0.020477246
3861250	-0.596879808	0.022532158
3862500	-0.59819776	0.020096114
3863750	-0.596118976	0.02272254
3865000	-0.598002816	0.021754474
3866250	-0.597438336	0.022477294
3867500	-0.594608256	0.02652383
3868750	-0.597850304	0.023924424
3870000	-0.59524192	0.025575536
3871250	-0.593769728	0.029660876
3872500	-0.597381248	0.02610896
3873750	-0.594173952	0.028661988
3875000	-0.594528512	0.031682764
3876250	-0.596951424	0.028499412
3877500	-0.59439072	0.030390428
3878750	-0.595852672	0.030435376
3880000	-0.596729408	0.030601096
3881250	-0.593759232	0.03308174
3882500	-0.596158144	0.032206304
3883750	-0.595419776	0.032692392
3885000	-0.59246624	0.037114776
3886250	-0.595998912	0.033972008
3887500	-0.592640192	0.036705888
3888750	-0.59179648	0.040833304
3890000	-0.595541952	0.036293652
3891250	-0.59275968	0.038665952
3892500	-0.592808128	0.040537624
3893750	-0.595461312	0.038460132
3895000	-0.591968448	0.041040164
3896250	-0.595136192	0.040042788
3897500	-0.594005696	0.04056798
3898750	-0.592058624	0.043903276
3900000	-0.594533056	0.042556472
3901250	-0.591840448	0.044233872
3902500	-0.589586624	0.0479023
3903750	-0.594401344	0.044408132
3905000	-0.59140896	0.046613636
3906250	-0.589714816	0.049806192
3907500	-0.59372384	0.046744968
3908750	-0.59056768	0.048923316
3910000	-0.592322432	0.049620396
3911250	-0.593113344	0.048458416
3912500	-0.590318912	0.05144182
3913750	-0.592959616	0.050241572
3915000	-0.5916176	0.051664452
3916250	-0.588258624	0.05568478
3917500	-0.592420672	0.052547604
3918750	-0.590878336	0.055035704
3920000	-0.587306624	0.058190056
3921250	-0.592213504	0.054935308
3922500	-0.588848384	0.056686848
3923750	-0.589591872	0.05882848
3925000	-0.59190688	0.057163084
3926250	-0.589290816	0.05952016
3927500	-0.591298944	0.058329148
3928750	-0.590643904	0.059546668
3930000	-0.587020864	0.062778444
3931250	-0.590881216	0.060843404
3932500	-0.588772608	0.062333408
3933750	-0.58571552	0.066037684
3935000	-0.590591872	0.062990748
3936250	-0.587005184	0.065062224
3937500	-0.584790912	0.06833656
3938750	-0.58992544	0.065282756
3940000	-0.586172352	0.066877372
3941250	-0.588135296	0.067502064
3942500	-0.589293376	0.06739312
3943750	-0.586270464	0.06914164
3945000	-0.588974976	0.068928152
3946250	-0.587694592	0.069890672
3947500	-0.584277248	0.07328476
3948750	-0.588669184	0.071169984
3950000	-0.584879872	0.07281176
3951250	-0.582825472	0.076604312
3952500	-0.587972928	0.073285128
3953750	-0.584836224	0.074449176
3955000	-0.584345664	0.076908504
3956250	-0.587620288	0.07523756
3957500	-0.583524928	0.077013352
3958750	-0.587152512	0.077383248
3960000	-0.586301376	0.077908024
3961250	-0.582158912	0.080112136
3962500	-0.586516352	0.079229656
3963750	-0.584025472	0.080586192
3965000	-0.5803392	0.084305848
3966250	-0.585951936	0.081568424
3967500	-0.582968576	0.082336008
3968750	-0.580946496	0.084894008
3970000	-0.585414464	0.083966072
3971250	-0.581734528	0.085276368
3972500	-0.583717952	0.086563904
3973750	-0.58306848	0.086175824
3975000	-0.581194624	0.087762568
3976250	-0.584354048	0.08721668
3977500	-0.582686208	0.088466848
3978750	-0.57913728	0.091774936
3980000	-0.583748288	0.089322072
3981250	-0.580372416	0.090775696
3982500	-0.576548992	0.094054752
3983750	-0.582485632	0.08986876
3985000	-0.579520576	0.09253968
3986250	-0.5789472	0.095003408
3987500	-0.582556608	0.094004344
3988750	-0.579005056	0.095349768
3990000	-0.581689984	0.09589108
3991250	-0.581348736	0.096140496
3992500	-0.576086848	0.098141984
3993750	-0.581661824	0.09762172
3995000	-0.5788768	0.098849024
3996250	-0.57406848	0.101523992
3997500	-0.581056	0.099816712
3998750	-0.577019904	0.100481632
4000000	-0.574127872	0.104123272
