# Hz S RI R 50
3500000	-0.50141008	-0.190131456
3565500	-0.509438944	-0.149225584
3631000	-0.515049984	-0.111749832
3696500	-0.51531184	-0.071108152
3762000	-0.512053088	-0.030850134
3827500	-0.50884224	0.002944564
3893000	-0.499750272	0.040513748
3958500	-0.487927424	0.078467112
4024000	-0.481794624	0.110577288
4089500	-0.465551456	0.143788048
4155000	-0.449005088	0.17658832
4220500	-0.431109408	0.209206064
4286000	-0.406100064	0.238469024
4351500	-0.38437728	0.267131776
4417000	-0.35652768	0.293198976
4482500	-0.322082528	0.311708224
4548000	-0.296066112	0.335335968
4613500	-0.263274672	0.350214816
4679000	-0.229854112	0.3595752
4744500	-0.19834712	0.378451712
4810000	-0.161398208	0.384133568
4875500	-0.126487944	0.388784768
4941000	-0.09231248	0.395942304
5006500	-0.05481168	0.390548736
5072000	-0.018313318	0.390297408
5137500	0.018124794	0.381962112
5203000	0.052833988	0.362449184
5268500	0.090561168	0.348890176
5334000	0.120775456	0.318265632
5399500	0.138928928	0.287813312
5465000	0.169492656	0.257699488
5530500	0.175761472	0.217791312
5596000	0.171757632	0.1861012
5661500	0.184681664	0.151747664
5727000	0.166066528	0.12357712
5792500	0.153557664	0.099605776
5858000	0.14324768	0.07773676
5923500	0.118873504	0.069629464
5989000	0.102484968	0.058123296
6054500	0.086250888	0.06455934
6120000	0.0781486	0.071813296
6185500	0.067334216	0.06674108
6251000	0.060186876	0.070901016
6316500	0.048460564	0.075226256
6382000	0.03279004	0.08764628
6447500	0.030609162	0.1078794
6513000	0.038202396	0.132903816
6578500	0.053967276	0.148827744
6644000	0.072810848	0.158015264
6709500	0.098701032	0.160460112
6775000	0.120205432	0.155647472
6840500	0.133200168	0.146159632
6906000	0.148709168	0.132285552
6971500	0.150335648	0.123926704
7037000	0.149170976	0.127491328
7102500	0.161612368	0.11824496
7168000	0.174187264	0.132762688
7233500	0.199391472	0.131527064
7299000	0.208364224	0.100890864
7364500	0.236272656	0.101263848
7430000	0.2389412	0.081278224
7495500	0.239512288	0.056903488
7561000	0.269219904	0.034528456
7626500	0.255095008	0.03183416
7692000	0.261089856	0.002897128
7757500	0.265215728	-0.033129264
7823000	0.270099424	-0.02060479
7888500	0.260762928	-0.06175962
7954000	0.250439728	-0.076633224
8019500	0.271997184	-0.084203376
8085000	0.243950672	-0.104796568
8150500	0.249636048	-0.11604828
8216000	0.24766232	-0.142149344
8281500	0.231062224	-0.137849696
8347000	0.223728736	-0.166561968
8412500	0.219166096	-0.176654224
8478000	0.22463736	-0.17838288
8543500	0.202523808	-0.205781296
8609000	0.205057088	-0.21363928
8674500	0.190846736	-0.245050544
8740000	0.173729664	-0.247640576
8805500	0.174540336	-0.269397664
8871000	0.132408784	-0.275504512
8936500	0.133758184	-0.290793728
9002000	0.120290016	-0.3165736
9067500	0.09662048	-0.317088896
9133000	0.077547416	-0.32966912
9198500	0.05292004	-0.350660832
9264000	0.031660964	-0.349368608
9329500	0.004100309	-0.361914208
9395000	-0.023476928	-0.368964448
9460500	-0.04803486	-0.3632328
9526000	-0.086372328	-0.370676064
9591500	-0.105896408	-0.364631936
9657000	-0.135880368	-0.356578336
9722500	-0.178655344	-0.345627168
9788000	-0.19951248	-0.337165344
9853500	-0.228620336	-0.322252352
9919000	-0.266771648	-0.294637088
9984500	-0.287786752	-0.278538144
10050000	-0.313398656	-0.253551664
10115500	-0.336481824	-0.216537856
10181000	-0.35443376	-0.18843944
10246500	-0.37155088	-0.148052848
10312000	-0.384226368	-0.119158712
10377500	-0.38362688	-0.07557724
10443000	-0.380831872	-0.036435304
10508500	-0.393019168	-0.000587063
10574000	-0.36941136	0.035827692
10639500	-0.358341152	0.06853332
10705000	-0.348864	0.105498688
10770500	-0.325275136	0.13439312
10836000	-0.305883904	0.170361472
10901500	-0.276135392	0.187607696
10967000	-0.24620872	0.218522144
11032500	-0.208673408	0.244309792
11098000	-0.18081776	0.241799104
11163500	-0.137173472	0.258204992
11229000	-0.095807816	0.262755312
11294500	-0.077118112	0.250875152
11360000	-0.035099752	0.245324064
11425500	-0.005024044	0.233866576
11491000	0.00936435	0.218762048
11556500	0.0384747	0.201609888
11622000	0.050765264	0.188434224
11687500	0.067609936	0.170781072
11753000	0.088718552	0.152829936
11818500	0.095992144	0.139483408
11884000	0.114388344	0.115799392
11949500	0.12956648	0.092430584
12015000	0.129906552	0.079809952
12080500	0.143827808	0.047824252
12146000	0.15274632	0.016443117
12211500	0.14705576	0.008253887
12277000	0.147738688	-0.032856484
12342500	0.144113632	-0.05645744
12408000	0.1347456	-0.076788648
12473500	0.114269024	-0.115338208
12539000	0.102611968	-0.1302506
12604500	0.073567992	-0.156449504
12670000	0.039047632	-0.176744032
12735500	0.02694575	-0.183108832
12801000	-0.016109683	-0.196005104
12866500	-0.054391732	-0.1982544
12932000	-0.063666092	-0.20145728
12997500	-0.111028592	-0.193981888
13063000	-0.141790016	-0.1857652
13128500	-0.159199024	-0.184231824
13194000	-0.198675712	-0.156174896
13259500	-0.220174016	-0.146222048
13325000	-0.245027648	-0.121909752
13390500	-0.265977168	-0.084649328
13456000	-0.28516576	-0.07012416
13521500	-0.296926464	-0.029383526
13587000	-0.300680544	0.008847136
13652500	-0.316626272	0.029944086
13718000	-0.308078816	0.072305624
13783500	-0.30114864	0.105822576
13849000	-0.307986592	0.134318464
13914500	-0.28636608	0.167413456
13980000	-0.275792992	0.19583008
14045500	-0.263236352	0.224262768
14111000	-0.237717776	0.246390784
14176500	-0.221749568	0.273898528
14242000	-0.196487968	0.29294656
14307500	-0.16864136	0.306843584
14373000	-0.145090528	0.327802208
14438500	-0.115583288	0.33625872
14504000	-0.0867328	0.344196736
14569500	-0.059410024	0.356306496
14635000	-0.029906826	0.3569064
14700500	-0.001880469	0.358617792
14766000	0.026155924	0.361098624
14831500	0.053363944	0.35535872
14897000	0.080888088	0.352426336
14962500	0.1071948	0.345541472
15028000	0.131404576	0.33464576
15093500	0.156970384	0.325591008
15159000	0.1792356	0.312273248
15224500	0.200986304	0.297595936
15290000	0.22257312	0.2839984
15355500	0.241472064	0.266168624
15421000	0.259969712	0.24777688
15486500	0.277282912	0.230760208
15552000	0.292388	0.209641264
15617500	0.306620256	0.189132656
15683000	0.319518368	0.16845968
15748500	0.330149152	0.14433792
15814000	0.339985536	0.122482184
15879500	0.347738336	0.09803936
15945000	0.353286848	0.071036456
16010500	0.358091424	0.048501384
16076000	0.359488576	0.021569896
16141500	0.358720576	-0.007142159
16207000	0.358587936	-0.027986662
16272500	0.352915168	-0.055370232
16338000	0.346403872	-0.081496808
16403500	0.341083424	-0.101840208
16469000	0.328362112	-0.127466592
16534500	0.319620768	-0.147406896
16600000	0.307418592	-0.16761688
16665500	0.2876056	-0.189092832
16731000	0.27700912	-0.205970384
16796500	0.257473824	-0.22341112
16862000	0.231729616	-0.238935648
16927500	0.224045408	-0.251865232
16993000	0.197318016	-0.262586032
17058500	0.168624688	-0.2707888
17124000	0.164199216	-0.283294368
17189500	0.136759568	-0.28543408
17255000	0.117269824	-0.292036352
17320500	0.104732616	-0.300088576
17386000	0.079386568	-0.29432928
17451500	0.065604	-0.307616384
17517000	0.046736748	-0.308578176
17582500	0.023591412	-0.291839712
17648000	0.004411844	-0.314301536
17713500	-0.014936305	-0.299198752
17779000	-0.023908648	-0.27111552
17844500	-0.065565364	-0.306980672
17910000	-0.079209048	-0.286346208
17975500	-0.08677096	-0.269300032
18041000	-0.136896928	-0.276246848
18106500	-0.138929664	-0.252202784
18172000	-0.17515128	-0.237239712
18237500	-0.193763904	-0.217758816
18303000	-0.186242656	-0.198808448
18368500	-0.217070288	-0.168123056
18434000	-0.211467712	-0.15134024
18499500	-0.200786192	-0.150566976
18565000	-0.225347888	-0.092041592
18630500	-0.210935552	-0.087208056
18696000	-0.20889632	-0.093104536
18761500	-0.203718992	-0.026890126
18827000	-0.192688832	-0.032357034
18892500	-0.181585856	-0.011804618
18958000	-0.162792624	0.016206511
19023500	-0.157247664	0.007618167
19089000	-0.130317656	0.028697798
19154500	-0.1229066	0.029393368
19220000	-0.1281376	0.021653308
19285500	-0.087708616	0.031107432
19351000	-0.092438784	0.024806696
19416500	-0.102152024	0.025094784
19482000	-0.057525844	0.01418743
19547500	-0.06934988	0.012516519
19613000	-0.067806536	0.009554651
19678500	-0.044499896	-0.012082273
19744000	-0.055212256	-0.010725686
19809500	-0.049772624	-0.03000701
19875000	-0.049658252	-0.038578392
19940500	-0.060983236	-0.035201596
20006000	-0.066076412	-0.057594764
20071500	-0.074496184	-0.056353644
20137000	-0.084455216	-0.047991632
20202500	-0.102144	-0.068400952
20268000	-0.11100788	-0.057488828
20333500	-0.118887296	-0.047962944
20399000	-0.142795232	-0.056852052
20464500	-0.149653648	-0.041798568
20530000	-0.16169312	-0.033477746
20595500	-0.1756228	-0.025820852
20661000	-0.177456448	-0.008175633
20726500	-0.190945424	0.002950196
20792000	-0.1929208	0.01749899
20857500	-0.189445296	0.034914876
20923000	-0.200889104	0.049436872
20988500	-0.193711888	0.06528748
21054000	-0.186905168	0.079687376
21119500	-0.196746112	0.098571592
21185000	-0.185381152	0.111785832
21250500	-0.177865232	0.125238928
21316000	-0.178194288	0.144869728
21381500	-0.164597696	0.15370048
21447000	-0.158138432	0.172053584
21512500	-0.148894144	0.183465936
21578000	-0.135046848	0.190379648
21643500	-0.1242484	0.20800016
21709000	-0.111909672	0.213029072
21774500	-0.09779868	0.217922512
21840000	-0.081759968	0.235306736
21905500	-0.068191728	0.23736312
21971000	-0.054106388	0.240306432
22036500	-0.03371994	0.252311376
22102000	-0.021011622	0.25240352
22167500	-0.001734283	0.255009984
22233000	0.016896122	0.258415104
22298500	0.03046218	0.256311232
22364000	0.0510703	0.25600216
22429500	0.065298492	0.254107424
22495000	0.07898256	0.249728256
22560500	0.10030348	0.245673616
22626000	0.11260588	0.24102808
22691500	0.125821456	0.234839968
22757000	0.146174	0.226744672
22822500	0.15814912	0.220216864
22888000	0.171626432	0.210756608
22953500	0.189113536	0.200066944
23019000	0.20040264	0.191202016
23084500	0.213904784	0.17752216
23150000	0.226782624	0.166255152
23215500	0.236774944	0.154667072
23281000	0.248550512	0.137338384
23346500	0.258426672	0.125115992
23412000	0.265992784	0.111347848
23477500	0.274529536	0.091037976
23543000	0.281596384	0.077082864
23608500	0.286433536	0.06215142
23674000	0.291254848	0.040347016
23739500	0.295834112	0.0254629
23805000	0.297328256	0.008007112
23870500	0.299104416	-0.011817971
23936000	0.30103664	-0.027592712
24001500	0.298505216	-0.046962204
24067000	0.299234176	-0.064792088
24132500	0.298683648	-0.080982816
24198000	0.291257824	-0.10056932
24263500	0.289832096	-0.118632264
24329000	0.28633808	-0.13467136
24394500	0.274769152	-0.152984624
24460000	0.270219648	-0.1715768
24525500	0.263020752	-0.187065456
24591000	0.249599184	-0.20276176
24656500	0.240944144	-0.22127672
24722000	0.229026112	-0.234315952
24787500	0.215630976	-0.250267088
24853000	0.203287216	-0.266396464
24918500	0.187978448	-0.277181952
24984000	0.170967472	-0.29293968
25049500	0.157156704	-0.306763904
25115000	0.138864064	-0.313516736
25180500	0.11837184	-0.325590112
25246000	0.101714608	-0.337622464
25311500	0.082190408	-0.343227264
25377000	0.061653024	-0.348029888
25442500	0.039537316	-0.353947392
25508000	0.01959742	-0.358603264
25573500	-0.003497213	-0.360614048
25639000	-0.02674494	-0.365426816
25704500	-0.0467694	-0.363733856
25770000	-0.069932704	-0.361367168
25835500	-0.095772656	-0.362277056
25901000	-0.114907984	-0.356343584
25966500	-0.137675904	-0.350279136
26032000	-0.163828592	-0.345048736
26097500	-0.182814288	-0.335743648
26163000	-0.205037024	-0.325746336
26228500	-0.227295792	-0.31449968
26294000	-0.247453872	-0.300257664
26359500	-0.270551072	-0.284931328
26425000	-0.287478304	-0.269757056
26490500	-0.30509424	-0.25131688
26556000	-0.326000448	-0.22819144
26621500	-0.337940288	-0.211889488
26687000	-0.352232896	-0.189741152
26752500	-0.366881504	-0.161564576
26818000	-0.37574624	-0.143868288
26883500	-0.385380768	-0.118913904
26949000	-0.39307904	-0.091245544
27014500	-0.398391232	-0.068987776
27080000	-0.402625248	-0.040632932
27145500	-0.405044928	-0.015753359
27211000	-0.404436352	0.009917878
27276500	-0.397484384	0.040012412
27342000	-0.399160832	0.062156336
27407500	-0.393240704	0.088081416
27473000	-0.37704432	0.113389296
27538500	-0.376952512	0.136402688
27604000	-0.365201568	0.159470288
27669500	-0.346832	0.178173328
27735000	-0.340876832	0.201565616
27800500	-0.324076448	0.221465952
27866000	-0.308664736	0.239026784
27931500	-0.293725312	0.255780912
27997000	-0.274586048	0.267187232
28062500	-0.258540064	0.285568576
28128000	-0.24017656	0.298322336
28193500	-0.225506128	0.300768064
28259000	-0.203308112	0.32039456
28324500	-0.184314832	0.328155232
28390000	-0.175715728	0.331051168
28455500	-0.14666512	0.345757088
28521000	-0.12792136	0.350013216
28586500	-0.11327672	0.356961792
28652000	-0.089387416	0.36305344
28717500	-0.072685208	0.366020192
28783000	-0.04962772	0.370814912
28848500	-0.029825968	0.373373504
28914000	-0.014306198	0.378410176
28979500	0.011468987	0.376117184
29045000	0.029923434	0.376494624
29110500	0.049104844	0.383548704
29176000	0.07447352	0.371397088
29241500	0.09321764	0.368334144
29307000	0.116569688	0.37028608
29372500	0.1365744	0.355761664
29438000	0.155639232	0.35080832
29503500	0.17584576	0.340187744
29569000	0.195624304	0.329446368
29634500	0.21528488	0.321368416
29700000	0.231733328	0.306227616
